Time [s],Packet ID,Address,Data,Read/Write,ACK/NAK
0.000044500000000,0,0x3A,0x00,Write,ACK
0.000076750000000,0,0x3A,0x02,Write,ACK
0.000108500000000,0,0x3A,0x44,Write,ACK
0.000140500000000,0,0x3A,0x40,Write,ACK
0.000176500000000,0,0x3A,0x40,Write,ACK
0.000208250000000,0,0x3A,0x05,Write,ACK
0.000240250000000,0,0x3A,0x69,Write,ACK
0.000272250000000,0,0x3A,0x17,Write,ACK
0.000304000000000,0,0x3A,0x75,Write,ACK
0.000336000000000,0,0x3A,0x40,Write,ACK
0.000367750000000,0,0x3A,0x40,Write,ACK
0.000399750000000,0,0x3A,0x06,Write,ACK
0.000431750000000,0,0x3A,0x08,Write,ACK
0.000463500000000,0,0x3A,0x89,Write,ACK
0.000495500000000,0,0x3A,0xA4,Write,ACK
0.000527250000000,0,0x3A,0x95,Write,ACK
0.000559250000000,0,0x3A,0x9C,Write,ACK
0.000591250000000,0,0x3A,0x73,Write,ACK
0.000623000000000,0,0x3A,0x02,Write,ACK
0.000655000000000,0,0x3A,0x72,Write,ACK
0.000686750000000,0,0x3A,0x20,Write,ACK
0.000718750000000,0,0x3A,0x0B,Write,ACK
0.000750750000000,0,0x3A,0xAA,Write,ACK
0.000782500000000,0,0x3A,0xAA,Write,ACK
0.000814500000000,0,0x3A,0x28,Write,ACK
0.000846250000000,0,0x3A,0x30,Write,ACK
0.000878250000000,0,0x3A,0x40,Write,ACK
0.000910000000000,0,0x3A,0x87,Write,ACK
0.000942000000000,0,0x3A,0xC2,Write,ACK
0.000974000000000,0,0x3A,0x25,Write,ACK
0.001005750000000,0,0x3A,0x30,Write,ACK
0.001037750000000,0,0x3A,0x26,Write,ACK
0.001069500000000,0,0x3A,0x47,Write,ACK
0.002904500000000,1,0x3A,0x0B,Write,ACK
0.002936500000000,1,0x3A,0x18,Write,ACK
0.003912750000000,2,0x3A,0x0A,Write,ACK
0.003944500000000,2,0x3A,0x0C,Write,ACK
0.004903500000000,3,0x3A,0x0B,Write,ACK
0.004935500000000,3,0x3A,0x18,Write,ACK
0.005901750000000,4,0x3A,0x0B,Write,ACK
0.005933750000000,4,0x3A,0x18,Write,ACK
0.006902750000000,5,0x3A,0x03,Write,ACK
0.006934500000000,5,0x3A,0x40,Write,ACK
0.007903000000000,6,0x3A,0x0A,Write,ACK
0.007935000000000,6,0x3A,0x0C,Write,ACK
0.008909750000000,7,0x3A,0x04,Write,ACK
0.008941750000000,7,0x3A,0x05,Write,ACK
0.009905500000000,8,0x3A,0x1E,Write,ACK
0.009937500000000,8,0x3A,0x26,Write,ACK
0.010904500000000,9,0x3A,0x1E,Write,ACK
0.010936250000000,9,0x3A,0x26,Write,ACK
0.011912000000000,10,0x3A,0x1E,Write,ACK
0.011944000000000,10,0x3A,0x27,Write,ACK
0.012905500000000,11,0x3A,0x12,Write,ACK
0.012937500000000,11,0x3A,0x72,Write,ACK
0.013913000000000,12,0x3A,0x1E,Write,ACK
0.013945000000000,12,0x3A,0x27,Write,ACK
0.014908750000000,13,0x3A,0x1F,Write,ACK
0.014940500000000,13,0x3A,0x66,Write,ACK
0.015911750000000,14,0x3A,0x1B,Write,ACK
0.015943500000000,14,0x3A,0xC2,Write,ACK
0.016907000000000,15,0x3A,0x04,Write,ACK
0.016939000000000,15,0x3A,0x05,Write,ACK
0.017906500000000,16,0x3A,0x0C,Write,ACK
0.017938250000000,16,0x3A,0x85,Write,ACK
0.018929500000000,17,0x3A,0x1A,Write,ACK
0.018961750000000,17,0x3A,0x8F,Write,ACK
0.019920250000000,18,0x3A,0x05,Write,ACK
0.019952500000000,18,0x3A,0x49,Write,ACK
0.020911000000000,19,0x3A,0x19,Write,ACK
0.020942750000000,19,0x3A,0x40,Write,ACK
0.021907750000000,20,0x3A,0x01,Write,ACK
0.021939750000000,20,0x3A,0x0C,Write,ACK
0.022908250000000,21,0x3A,0x02,Write,ACK
0.022940250000000,21,0x3A,0x40,Write,ACK
0.023917500000000,22,0x3A,0x08,Write,ACK
0.023949250000000,22,0x3A,0x62,Write,ACK
0.024911500000000,23,0x3A,0x09,Write,ACK
0.024943500000000,23,0x3A,0x40,Write,ACK
0.025910500000000,24,0x3A,0x03,Write,ACK
0.025942250000000,24,0x3A,0x40,Write,ACK
0.026912000000000,25,0x3A,0x01,Write,ACK
0.026944000000000,25,0x3A,0x0D,Write,ACK
0.027912250000000,26,0x3A,0x1E,Write,ACK
0.027944000000000,26,0x3A,0xA7,Write,ACK
0.028919250000000,27,0x3A,0x11,Write,ACK
0.028951250000000,27,0x3A,0x02,Write,ACK
0.030695500000000,28,0x3A,0x12,Write,ACK
0.030728000000000,28,0x3A,0x72,Write,ACK
0.031911750000000,29,0x3A,0x0F,Write,ACK
0.031943750000000,29,0x3A,0xA4,Write,ACK
0.032914500000000,30,0x3A,0x10,Write,ACK
0.032946250000000,30,0x3A,0x63,Write,ACK
0.033918500000000,31,0x3A,0x17,Write,ACK
0.033950250000000,31,0x3A,0x28,Write,ACK
0.034916500000000,32,0x3A,0x1D,Write,ACK
0.034948250000000,32,0x3A,0x30,Write,ACK
0.035916000000000,33,0x3A,0x13,Write,ACK
0.035948000000000,33,0x3A,0x38,Write,ACK
0.036914500000000,34,0x3A,0x10,Write,ACK
0.036946500000000,34,0x3A,0x67,Write,ACK
0.037914500000000,35,0x3A,0x10,Write,ACK
0.037946500000000,35,0x3A,0x67,Write,ACK
0.038933500000000,36,0x3A,0x14,Write,ACK
0.038965750000000,36,0x3A,0xAC,Write,ACK
0.039920250000000,37,0x3A,0x12,Write,ACK
0.039952250000000,37,0x3A,0x7A,Write,ACK
0.040918000000000,38,0x3A,0x16,Write,ACK
0.040950000000000,38,0x3A,0x00,Write,ACK
0.041931250000000,39,0x3A,0x15,Write,ACK
0.041963000000000,39,0x3A,0x00,Write,ACK
0.062926750000000,40,0x3A,0x00,Write,ACK
0.063685000000000,41,0x3A,0x69,Read,ACK
0.063716750000000,41,0x3A,0xBD,Read,ACK
0.064610750000000,42,0x3A,0x00,Write,ACK
0.065367000000000,43,0x3A,0x69,Read,ACK
0.065397750000000,43,0x3A,0xBD,Read,ACK
0.065428500000000,43,0x3A,0x2E,Read,NAK
0.066285750000000,44,0x3A,0x00,Write,ACK
0.067094500000000,45,0x57,0x8B,Read,NAK
0.067963750000000,46,0x3A,0x00,Write,ACK
0.068720750000000,47,0x3A,0x69,Read,ACK
0.068751750000000,47,0x3A,0xBD,Read,ACK
0.068782500000000,47,0x3A,0x2E,Read,NAK
0.069641500000000,48,0x3A,0x1D,Write,ACK
0.069673500000000,48,0x3A,0xF0,Write,ACK
0.070926000000000,49,0x3A,0x01,Write,ACK
0.070958000000000,49,0x3A,0x0C,Write,ACK
0.071937000000000,50,0x3A,0x1E,Write,ACK
0.071968750000000,50,0x3A,0x27,Write,ACK
0.072934250000000,51,0x3A,0x00,Write,ACK
0.072966250000000,51,0x3A,0x13,Write,ACK
0.073933500000000,52,0x3A,0x00,Write,ACK
0.073965250000000,52,0x3A,0x93,Write,ACK
0.074930500000000,53,0x3A,0x04,Write,ACK
0.074962250000000,53,0x3A,0x05,Write,ACK
0.075934250000000,54,0x3A,0x1B,Write,ACK
0.075966000000000,54,0x3A,0xC3,Write,ACK
0.076932000000000,55,0x3A,0x0D,Write,ACK
0.076964000000000,55,0x3A,0xA5,Write,ACK
0.077931500000000,56,0x3A,0x1C,Write,ACK
0.077963250000000,56,0x3A,0x25,Write,ACK
0.078947750000000,57,0x3A,0x0E,Write,ACK
0.078980250000000,57,0x3A,0x95,Write,ACK
0.079932750000000,58,0x3A,0x1A,Write,ACK
0.079964500000000,58,0x3A,0x4F,Write,ACK
0.080930250000000,59,0x3A,0x1C,Write,ACK
0.080962250000000,59,0x3A,0x95,Write,ACK
0.082012000000000,60,0x3A,0x1B,Write,ACK
0.082044250000000,60,0x3A,0xC3,Write,ACK
0.082940000000000,61,0x3A,0x01,Write,ACK
0.082972000000000,61,0x3A,0x0C,Write,ACK
0.083939000000000,62,0x3A,0x17,Write,ACK
0.083971000000000,62,0x3A,0x08,Write,ACK
0.084933000000000,63,0x3A,0x07,Write,ACK
0.084964750000000,63,0x3A,0xF5,Write,ACK
0.085932750000000,64,0x3A,0x1E,Write,ACK
0.085964500000000,64,0x3A,0x27,Write,ACK
0.086936000000000,65,0x3A,0x06,Write,ACK
0.086968000000000,65,0x3A,0x13,Write,ACK
0.087935250000000,66,0x3A,0x1B,Write,ACK
0.087967250000000,66,0x3A,0xC3,Write,ACK
0.189976750000000,69,0x3A,0x1B,Write,ACK
0.190009000000000,69,0x3A,0xE3,Write,ACK
0.190973500000000,70,0x3A,0x03,Write,ACK
0.191005250000000,70,0x3A,0xC0,Write,ACK
0.191983750000000,71,0x3A,0x02,Write,ACK
0.192015750000000,71,0x3A,0x40,Write,ACK
1.111949250000000,72,0x3A,0x00,Write,ACK
1.111981250000000,72,0x3A,0x02,Write,ACK
1.112077250000000,73,0x20,0x40,Write,ACK
1.112109000000000,73,0x20,0x05,Write,ACK
1.112141000000000,73,0x20,0x69,Write,ACK
1.112172750000000,73,0x20,0x17,Write,ACK
1.112204750000000,73,0x20,0x75,Write,ACK
1.112236500000000,73,0x20,0x40,Write,ACK
1.112268500000000,73,0x20,0x40,Write,ACK
1.112300500000000,73,0x20,0x06,Write,ACK
1.112332250000000,73,0x20,0x08,Write,ACK
1.112364250000000,73,0x20,0x89,Write,ACK
1.112396000000000,73,0x20,0xA4,Write,ACK
1.112428000000000,73,0x20,0x95,Write,ACK
1.112459750000000,73,0x20,0x9C,Write,ACK
1.112491750000000,73,0x20,0x73,Write,ACK
1.112523750000000,73,0x20,0x02,Write,ACK
1.112555500000000,73,0x20,0x72,Write,ACK
1.112594000000000,73,0x20,0x20,Write,ACK
1.112625750000000,73,0x20,0x0B,Write,ACK
1.112657750000000,73,0x20,0xAA,Write,ACK
1.112689500000000,73,0x20,0xAA,Write,ACK
1.112721500000000,73,0x20,0x28,Write,ACK
1.112753500000000,73,0x20,0x30,Write,ACK
1.112785250000000,73,0x20,0x40,Write,ACK
1.112817250000000,73,0x20,0x87,Write,ACK
1.112849000000000,73,0x20,0xC2,Write,ACK
1.112881000000000,73,0x20,0x25,Write,ACK
1.112912750000000,73,0x20,0x30,Write,ACK
1.112944750000000,73,0x20,0x26,Write,ACK
1.112976750000000,73,0x20,0x47,Write,ACK
1.114339250000000,74,0x3A,0x0B,Write,ACK
1.114371250000000,74,0x3A,0x18,Write,ACK
1.115326500000000,75,0x3A,0x0A,Write,ACK
1.115358500000000,75,0x3A,0x0C,Write,ACK
1.116334000000000,76,0x3A,0x0B,Write,ACK
1.116365750000000,76,0x3A,0x18,Write,ACK
1.117326500000000,77,0x3A,0x0B,Write,ACK
1.117358500000000,77,0x3A,0x18,Write,ACK
1.118325250000000,78,0x3A,0x03,Write,ACK
1.118357000000000,78,0x3A,0x40,Write,ACK
1.119331750000000,79,0x3A,0x0A,Write,ACK
1.119363500000000,79,0x3A,0x0C,Write,ACK
1.120326750000000,80,0x3A,0x04,Write,ACK
1.120358750000000,80,0x3A,0x05,Write,ACK
1.121329000000000,81,0x3A,0x1E,Write,ACK
1.121360750000000,81,0x3A,0x26,Write,ACK
1.122339750000000,82,0x3A,0x1E,Write,ACK
1.122371750000000,82,0x3A,0x26,Write,ACK
1.123327500000000,83,0x3A,0x1E,Write,ACK
1.123359500000000,83,0x3A,0x27,Write,ACK
1.124332500000000,84,0x3A,0x12,Write,ACK
1.124364500000000,84,0x3A,0x72,Write,ACK
1.125329500000000,85,0x3A,0x1E,Write,ACK
1.126346500000000,86,0x3A,0x1F,Write,ACK
1.126378750000000,86,0x3A,0x66,Write,ACK
1.127332750000000,87,0x3A,0x1B,Write,ACK
1.127364500000000,87,0x3A,0xC2,Write,ACK
1.128330250000000,88,0x3A,0x04,Write,ACK
1.128362250000000,88,0x3A,0x05,Write,ACK
1.129334500000000,89,0x3A,0x0C,Write,ACK
1.129366250000000,89,0x3A,0x85,Write,ACK
1.131112500000000,90,0x3A,0x1A,Write,ACK
1.131144750000000,90,0x3A,0x8F,Write,ACK
1.132344500000000,91,0x3A,0x05,Write,ACK
1.132376500000000,91,0x3A,0x49,Write,ACK
1.133336000000000,92,0x3A,0x19,Write,ACK
1.133367750000000,92,0x3A,0x40,Write,ACK
1.134336500000000,93,0x3A,0x01,Write,ACK
1.135332750000000,94,0x3A,0x02,Write,ACK
1.135364750000000,94,0x3A,0x40,Write,ACK
1.136333000000000,95,0x3A,0x08,Write,ACK
1.136364750000000,95,0x3A,0x62,Write,ACK
1.137335750000000,96,0x3A,0x09,Write,ACK
1.137367750000000,96,0x3A,0x40,Write,ACK
1.138334250000000,97,0x3A,0x03,Write,ACK
1.138366250000000,97,0x3A,0x40,Write,ACK
1.139339000000000,98,0x3A,0x01,Write,ACK
1.139371000000000,98,0x3A,0x0D,Write,ACK
1.140336000000000,99,0x3A,0x1E,Write,ACK
1.140368000000000,99,0x3A,0xA7,Write,ACK
1.141335750000000,100,0x3A,0x11,Write,ACK
1.142355500000000,101,0x3A,0x12,Write,ACK
1.142387500000000,101,0x3A,0x72,Write,ACK
1.143338250000000,102,0x3A,0x0F,Write,ACK
1.143370000000000,102,0x3A,0xA4,Write,ACK
1.144342250000000,103,0x3A,0x10,Write,ACK
1.144374000000000,103,0x3A,0x63,Write,ACK
1.145336000000000,104,0x3A,0x17,Write,ACK
1.145367750000000,104,0x3A,0x28,Write,ACK
1.146348500000000,105,0x3A,0x1D,Write,ACK
1.146380500000000,105,0x3A,0x30,Write,ACK
1.147341500000000,106,0x3A,0x13,Write,ACK
1.147373500000000,106,0x3A,0x38,Write,ACK
1.148338500000000,107,0x3A,0x10,Write,ACK
1.148370250000000,107,0x3A,0x67,Write,ACK
1.149341500000000,108,0x3A,0x10,Write,ACK
1.149373500000000,108,0x3A,0x67,Write,ACK
1.150338750000000,109,0x3A,0x14,Write,ACK
1.150370500000000,109,0x3A,0xAC,Write,ACK
1.151338250000000,110,0x3A,0x12,Write,ACK
1.151370250000000,110,0x3A,0x7A,Write,ACK
1.152348250000000,111,0x3A,0x16,Write,ACK
1.152380250000000,111,0x3A,0x00,Write,ACK
1.153340250000000,112,0x3A,0x15,Write,ACK
1.153372250000000,112,0x3A,0x00,Write,ACK
1.174353000000000,113,0x3A,0x00,Write,ACK
1.175110750000000,114,0x3A,0x69,Read,ACK
1.175142500000000,114,0x3A,0xBD,Read,ACK
1.175174500000000,114,0x3A,0x2E,Read,NAK
1.176035250000000,115,0x3A,0x00,Write,ACK
1.176791500000000,116,0x3A,0x69,Read,ACK
1.176822500000000,116,0x3A,0xBD,Read,ACK
1.176853250000000,116,0x3A,0x2E,Read,NAK
1.177711000000000,117,0x3A,0x00,Write,ACK
1.178466750000000,118,0x3A,0x69,Read,ACK
1.178497500000000,118,0x3A,0xBD,Read,ACK
1.178528250000000,118,0x3A,0x2E,Read,NAK
1.179390500000000,119,0x3A,0x00,Write,ACK
1.181065250000000,123,0x3A,0x1D,Write,ACK
1.181097500000000,123,0x3A,0xF0,Write,ACK
1.182437250000000,124,0x3A,0x01,Write,ACK
1.182469500000000,124,0x3A,0x0C,Write,ACK
1.183357500000000,125,0x3A,0x1E,Write,ACK
1.183389500000000,125,0x3A,0x27,Write,ACK
1.184364750000000,126,0x3A,0x00,Write,ACK
1.184396750000000,126,0x3A,0x13,Write,ACK
1.185354000000000,127,0x3A,0x00,Write,ACK
1.185386000000000,127,0x3A,0x93,Write,ACK
1.186365000000000,128,0x3A,0x04,Write,ACK
1.186397250000000,128,0x3A,0x05,Write,ACK
1.187357750000000,129,0x3A,0x1B,Write,ACK
1.187389750000000,129,0x3A,0xC3,Write,ACK
1.188351750000000,130,0x3A,0x0D,Write,ACK
1.188383750000000,130,0x3A,0xA5,Write,ACK
1.189359500000000,131,0x3A,0x1C,Write,ACK
1.189391500000000,131,0x3A,0x25,Write,ACK
1.190355250000000,132,0x3A,0x0E,Write,ACK
1.190387250000000,132,0x3A,0x95,Write,ACK
1.191353750000000,133,0x3A,0x1A,Write,ACK
1.191385750000000,133,0x3A,0x4F,Write,ACK
1.192354000000000,134,0x3A,0x1C,Write,ACK
1.192386000000000,134,0x3A,0x95,Write,ACK
1.193354000000000,135,0x3A,0x1B,Write,ACK
1.193386000000000,135,0x3A,0xC3,Write,ACK
1.194361250000000,136,0x3A,0x01,Write,ACK
1.194393000000000,136,0x3A,0x0C,Write,ACK
1.195357000000000,137,0x3A,0x17,Write,ACK
1.195389000000000,137,0x3A,0x08,Write,ACK
1.196355000000000,138,0x3A,0x07,Write,ACK
1.197355500000000,139,0x3A,0x1E,Write,ACK
1.197387500000000,139,0x3A,0x27,Write,ACK
1.198356500000000,140,0x3A,0x06,Write,ACK
1.198388500000000,140,0x3A,0x13,Write,ACK
1.199363000000000,141,0x3A,0x1B,Write,ACK
1.199394750000000,141,0x3A,0xC3,Write,ACK
1.200358250000000,142,0x3A,0x1F,Write,ACK
1.200390250000000,142,0x3A,0x27,Write,ACK
1.201359000000000,143,0x3A,0x03,Write,ACK
1.201390750000000,143,0x3A,0x40,Write,ACK
1.202371000000000,144,0x3A,0x02,Write,ACK
1.202403000000000,144,0x3A,0x40,Write,ACK
3.031186000000000,145,0x3A,0x00,Write,ACK
3.031218250000000,145,0x3A,0x02,Write,ACK
3.031250250000000,145,0x3A,0x44,Write,ACK
3.031282250000000,145,0x3A,0x40,Write,ACK
3.031314000000000,145,0x3A,0x40,Write,ACK
3.031347000000000,145,0x3A,0x05,Write,ACK
3.031378750000000,145,0x3A,0x69,Write,ACK
3.031410750000000,145,0x3A,0x17,Write,ACK
3.031442500000000,145,0x3A,0x75,Write,ACK
3.031474500000000,145,0x3A,0x40,Write,ACK
3.031506250000000,145,0x3A,0x40,Write,ACK
3.031538250000000,145,0x3A,0x06,Write,ACK
3.031570250000000,145,0x3A,0x08,Write,ACK
3.031602000000000,145,0x3A,0x89,Write,ACK
3.031634000000000,145,0x3A,0xA4,Write,ACK
3.031665750000000,145,0x3A,0x95,Write,ACK
3.031697750000000,145,0x3A,0x9C,Write,ACK
3.031729750000000,145,0x3A,0x73,Write,ACK
3.031761500000000,145,0x3A,0x02,Write,ACK
3.031793500000000,145,0x3A,0x72,Write,ACK
3.031825250000000,145,0x3A,0x20,Write,ACK
3.031857250000000,145,0x3A,0x0B,Write,ACK
3.031889250000000,145,0x3A,0xAA,Write,ACK
3.031921000000000,145,0x3A,0xAA,Write,ACK
3.031953000000000,145,0x3A,0x28,Write,ACK
3.031984750000000,145,0x3A,0x30,Write,ACK
3.032016750000000,145,0x3A,0x40,Write,ACK
3.032048750000000,145,0x3A,0x87,Write,ACK
3.032080500000000,145,0x3A,0xC2,Write,ACK
3.032112500000000,145,0x3A,0x25,Write,ACK
3.032144250000000,145,0x3A,0x30,Write,ACK
3.032176250000000,145,0x3A,0x26,Write,ACK
3.032208000000000,145,0x3A,0x47,Write,ACK
3.034065000000000,146,0x3A,0x0B,Write,ACK
3.034096750000000,146,0x3A,0x18,Write,ACK
3.035065000000000,147,0x3A,0x0A,Write,ACK
3.035097000000000,147,0x3A,0x0C,Write,ACK
3.036055500000000,148,0x3A,0x0B,Write,ACK
3.036087500000000,148,0x3A,0x18,Write,ACK
3.037055000000000,149,0x3A,0x0B,Write,ACK
3.037087000000000,149,0x3A,0x18,Write,ACK
3.038055750000000,150,0x3A,0x03,Write,ACK
3.038087750000000,150,0x3A,0x40,Write,ACK
3.039059500000000,151,0x3A,0x0A,Write,ACK
3.039091500000000,151,0x3A,0x0C,Write,ACK
3.040061500000000,152,0x3A,0x04,Write,ACK
3.040093250000000,152,0x3A,0x05,Write,ACK
3.041057250000000,153,0x3A,0x1E,Write,ACK
3.041089250000000,153,0x3A,0x26,Write,ACK
3.042057000000000,154,0x3A,0x1E,Write,ACK
3.042089000000000,154,0x3A,0x26,Write,ACK
3.043074500000000,155,0x3A,0x1E,Write,ACK
3.043106500000000,155,0x3A,0x27,Write,ACK
3.044061750000000,156,0x3A,0x12,Write,ACK
3.044093750000000,156,0x3A,0x72,Write,ACK
3.045064250000000,157,0x3A,0x1E,Write,ACK
3.045096000000000,157,0x3A,0x27,Write,ACK
3.046060000000000,158,0x3A,0x1F,Write,ACK
3.046091750000000,158,0x3A,0x66,Write,ACK
3.048059500000000,161,0x3A,0x04,Write,ACK
3.048091500000000,161,0x3A,0x05,Write,ACK
3.049061750000000,162,0x3A,0x0C,Write,ACK
3.049093750000000,162,0x3A,0x85,Write,ACK
3.050080000000000,163,0x3A,0x1A,Write,ACK
3.050112000000000,163,0x3A,0x8F,Write,ACK
3.051074000000000,164,0x3A,0x05,Write,ACK
3.051106250000000,164,0x3A,0x49,Write,ACK
3.052063750000000,165,0x3A,0x19,Write,ACK
3.052095750000000,165,0x3A,0x40,Write,ACK
3.053061750000000,166,0x3A,0x01,Write,ACK
3.053093750000000,166,0x3A,0x0C,Write,ACK
3.054064250000000,167,0x3A,0x02,Write,ACK
3.054096250000000,167,0x3A,0x40,Write,ACK
3.055069250000000,168,0x3A,0x08,Write,ACK
3.055101250000000,168,0x3A,0x62,Write,ACK
3.056063250000000,169,0x3A,0x09,Write,ACK
3.056095000000000,169,0x3A,0x40,Write,ACK
3.057063250000000,170,0x3A,0x03,Write,ACK
3.057095000000000,170,0x3A,0x40,Write,ACK
3.058065000000000,171,0x3A,0x01,Write,ACK
3.058097000000000,171,0x3A,0x0D,Write,ACK
3.059067500000000,172,0x3A,0x1E,Write,ACK
3.059099250000000,172,0x3A,0xA7,Write,ACK
3.060071500000000,173,0x3A,0x11,Write,ACK
3.060103750000000,173,0x3A,0x02,Write,ACK
3.061066000000000,174,0x3A,0x12,Write,ACK
3.061098250000000,174,0x3A,0x72,Write,ACK
3.062068250000000,175,0x3A,0x0F,Write,ACK
3.062100250000000,175,0x3A,0xA4,Write,ACK
3.063092000000000,176,0x3A,0x10,Write,ACK
3.063124500000000,176,0x3A,0x63,Write,ACK
3.064069250000000,177,0x3A,0x17,Write,ACK
3.064101250000000,177,0x3A,0x28,Write,ACK
3.065071750000000,178,0x3A,0x1D,Write,ACK
3.065103500000000,178,0x3A,0x30,Write,ACK
3.066067500000000,179,0x3A,0x13,Write,ACK
3.066099250000000,179,0x3A,0x38,Write,ACK
3.067067500000000,180,0x3A,0x10,Write,ACK
3.067099500000000,180,0x3A,0x67,Write,ACK
3.068066750000000,181,0x3A,0x10,Write,ACK
3.069070750000000,182,0x3A,0x14,Write,ACK
3.069102750000000,182,0x3A,0xAC,Write,ACK
3.070085000000000,183,0x3A,0x12,Write,ACK
3.070117250000000,183,0x3A,0x7A,Write,ACK
3.071071250000000,184,0x3A,0x16,Write,ACK
3.071103250000000,184,0x3A,0x00,Write,ACK
3.072068750000000,185,0x3A,0x15,Write,ACK
3.072100750000000,185,0x3A,0x00,Write,ACK
3.093838500000000,187,0x3A,0x69,Read,ACK
3.093870250000000,187,0x3A,0xBD,Read,ACK
3.093902000000000,187,0x3A,0x2E,Read,NAK
3.094764250000000,188,0x3A,0x00,Write,ACK
3.095564000000000,190,0x4A,0xD1,Read,ACK
3.096440750000000,191,0x3A,0x00,Write,ACK
3.097196250000000,192,0x3A,0x69,Read,ACK
3.097227250000000,192,0x3A,0xBD,Read,ACK
3.098119000000000,193,0x3A,0x00,Write,ACK
3.098875750000000,194,0x3A,0x69,Read,ACK
3.098906500000000,194,0x3A,0xBD,Read,ACK
3.098937500000000,194,0x3A,0x2E,Read,NAK
3.099796500000000,195,0x3A,0x1D,Write,ACK
3.099828750000000,195,0x3A,0xF0,Write,ACK
3.101082000000000,196,0x3A,0x01,Write,ACK
3.101114000000000,196,0x3A,0x0C,Write,ACK
3.102081000000000,197,0x3A,0x1E,Write,ACK
3.102113000000000,197,0x3A,0x27,Write,ACK
3.103089750000000,198,0x3A,0x00,Write,ACK
3.103121500000000,198,0x3A,0x13,Write,ACK
3.104082250000000,199,0x3A,0x00,Write,ACK
3.104114250000000,199,0x3A,0x93,Write,ACK
3.105085250000000,200,0x3A,0x04,Write,ACK
3.105117250000000,200,0x3A,0x05,Write,ACK
3.106090750000000,201,0x3A,0x1B,Write,ACK
3.106122500000000,201,0x3A,0xC3,Write,ACK
3.107083000000000,202,0x3A,0x0D,Write,ACK
3.107114750000000,202,0x3A,0xA5,Write,ACK
3.108081750000000,203,0x3A,0x1C,Write,ACK
3.108113750000000,203,0x3A,0x25,Write,ACK
3.110099750000000,206,0x3A,0x1A,Write,ACK
3.110131750000000,206,0x3A,0x4F,Write,ACK
3.111870000000000,207,0x3A,0x1C,Write,ACK
3.111902250000000,207,0x3A,0x95,Write,ACK
3.113082000000000,208,0x3A,0x1B,Write,ACK
3.113114000000000,208,0x3A,0xC3,Write,ACK
3.114084500000000,209,0x3A,0x01,Write,ACK
3.114116250000000,209,0x3A,0x0C,Write,ACK
3.115090500000000,210,0x3A,0x17,Write,ACK
3.115122500000000,210,0x3A,0x08,Write,ACK
3.116086250000000,211,0x3A,0x07,Write,ACK
3.116118250000000,211,0x3A,0xF5,Write,ACK
3.117092500000000,212,0x3A,0x1E,Write,ACK
3.117124250000000,212,0x3A,0x27,Write,ACK
3.118087500000000,213,0x3A,0x06,Write,ACK
3.118119500000000,213,0x3A,0x13,Write,ACK
3.119086250000000,214,0x3A,0x1B,Write,ACK
3.119118000000000,214,0x3A,0xC3,Write,ACK
3.120092000000000,215,0x3A,0x1F,Write,ACK
3.120124000000000,215,0x3A,0x27,Write,ACK
3.221128000000000,216,0x3A,0x1B,Write,ACK
3.221160250000000,216,0x3A,0xE3,Write,ACK
3.222128000000000,217,0x3A,0x03,Write,ACK
3.222159750000000,217,0x3A,0xC0,Write,ACK
3.223133750000000,218,0x3A,0x02,Write,ACK
3.223165500000000,218,0x3A,0x40,Write,ACK
4.143106000000000,219,0x3A,0x00,Write,ACK
4.143138250000000,219,0x3A,0x02,Write,ACK
4.143170250000000,219,0x3A,0x44,Write,ACK
4.143202000000000,219,0x3A,0x40,Write,ACK
4.143234000000000,219,0x3A,0x40,Write,ACK
4.143266000000000,219,0x3A,0x05,Write,ACK
4.143297750000000,219,0x3A,0x69,Write,ACK
4.143329750000000,219,0x3A,0x17,Write,ACK
4.143361500000000,219,0x3A,0x75,Write,ACK
4.143393500000000,219,0x3A,0x40,Write,ACK
4.143425500000000,219,0x3A,0x40,Write,ACK
4.143457250000000,219,0x3A,0x06,Write,ACK
4.143489250000000,219,0x3A,0x08,Write,ACK
4.143521000000000,219,0x3A,0x89,Write,ACK
4.143553000000000,219,0x3A,0xA4,Write,ACK
4.143585000000000,219,0x3A,0x95,Write,ACK
4.143616750000000,219,0x3A,0x9C,Write,ACK
4.143648750000000,219,0x3A,0x73,Write,ACK
4.143680500000000,219,0x3A,0x02,Write,ACK
4.143712500000000,219,0x3A,0x72,Write,ACK
4.143748250000000,219,0x3A,0x20,Write,ACK
4.143780000000000,219,0x3A,0x0B,Write,ACK
4.143812000000000,219,0x3A,0xAA,Write,ACK
4.143843750000000,219,0x3A,0xAA,Write,ACK
4.143875750000000,219,0x3A,0x28,Write,ACK
4.143907750000000,219,0x3A,0x30,Write,ACK
4.143939500000000,219,0x3A,0x40,Write,ACK
4.143971500000000,219,0x3A,0x87,Write,ACK
4.144003250000000,219,0x3A,0xC2,Write,ACK
4.144035250000000,219,0x3A,0x25,Write,ACK
4.144067000000000,219,0x3A,0x30,Write,ACK
4.144099000000000,219,0x3A,0x26,Write,ACK
4.144131000000000,219,0x3A,0x47,Write,ACK
4.145489250000000,220,0x3A,0x0B,Write,ACK
4.145521250000000,220,0x3A,0x18,Write,ACK
4.146479000000000,221,0x3A,0x0A,Write,ACK
4.146511000000000,221,0x3A,0x0C,Write,ACK
4.147480250000000,222,0x3A,0x0B,Write,ACK
4.147512250000000,222,0x3A,0x18,Write,ACK
4.148478500000000,223,0x3A,0x0B,Write,ACK
4.148510250000000,223,0x3A,0x18,Write,ACK
4.149478500000000,224,0x3A,0x03,Write,ACK
4.149510500000000,224,0x3A,0x40,Write,ACK
4.150482500000000,225,0x3A,0x0A,Write,ACK
4.150514500000000,225,0x3A,0x0C,Write,ACK
4.151479250000000,226,0x3A,0x04,Write,ACK
4.151511000000000,226,0x3A,0x05,Write,ACK
4.152481250000000,227,0x3A,0x1E,Write,ACK
4.152513250000000,227,0x3A,0x26,Write,ACK
4.153492000000000,228,0x3A,0x1E,Write,ACK
4.153524000000000,228,0x3A,0x26,Write,ACK
4.154480750000000,229,0x3A,0x1E,Write,ACK
4.154512500000000,229,0x3A,0x27,Write,ACK
4.155485500000000,230,0x3A,0x12,Write,ACK
4.155517500000000,230,0x3A,0x72,Write,ACK
4.156482500000000,231,0x3A,0x1E,Write,ACK
4.156514500000000,231,0x3A,0x27,Write,ACK
4.157499500000000,232,0x3A,0x1F,Write,ACK
4.157531750000000,232,0x3A,0x66,Write,ACK
4.158485250000000,233,0x3A,0x1B,Write,ACK
4.158517250000000,233,0x3A,0xC2,Write,ACK
4.159482750000000,234,0x3A,0x04,Write,ACK
4.159514750000000,234,0x3A,0x05,Write,ACK
4.160487250000000,235,0x3A,0x0C,Write,ACK
4.160519250000000,235,0x3A,0x85,Write,ACK
4.161483750000000,236,0x3A,0x1A,Write,ACK
4.161515500000000,236,0x3A,0x8F,Write,ACK
4.162499750000000,237,0x3A,0x05,Write,ACK
4.162532000000000,237,0x3A,0x49,Write,ACK
4.163505250000000,238,0x3A,0x19,Write,ACK
4.163537500000000,238,0x3A,0x40,Write,ACK
4.164484500000000,239,0x3A,0x01,Write,ACK
4.164516250000000,239,0x3A,0x0C,Write,ACK
4.165488500000000,240,0x3A,0x02,Write,ACK
4.165520250000000,240,0x3A,0x40,Write,ACK
4.166485750000000,241,0x3A,0x08,Write,ACK
4.166517750000000,241,0x3A,0x62,Write,ACK
4.168486500000000,244,0x3A,0x03,Write,ACK
4.168518250000000,244,0x3A,0x40,Write,ACK
4.169519250000000,245,0x00,0x0D,Read,ACK
4.170491500000000,246,0x3A,0x1E,Write,ACK
4.170523500000000,246,0x3A,0xA7,Write,ACK
4.171489000000000,247,0x3A,0x11,Write,ACK
4.171521000000000,247,0x3A,0x02,Write,ACK
4.172490750000000,248,0x3A,0x12,Write,ACK
4.172523250000000,248,0x3A,0x72,Write,ACK
4.173490500000000,249,0x3A,0x0F,Write,ACK
4.173522250000000,249,0x3A,0xA4,Write,ACK
4.174488750000000,250,0x3A,0x10,Write,ACK
4.174520750000000,250,0x3A,0x63,Write,ACK
4.175493000000000,251,0x3A,0x17,Write,ACK
4.175525000000000,251,0x3A,0x28,Write,ACK
4.176489750000000,252,0x3A,0x1D,Write,ACK
4.176521500000000,252,0x3A,0x30,Write,ACK
4.177505000000000,253,0x3A,0x13,Write,ACK
4.177537250000000,253,0x3A,0x38,Write,ACK
4.178493250000000,254,0x3A,0x10,Write,ACK
4.178525250000000,254,0x3A,0x67,Write,ACK
4.179490250000000,255,0x3A,0x10,Write,ACK
4.180495750000000,256,0x3A,0x14,Write,ACK
4.180527750000000,256,0x3A,0xAC,Write,ACK
4.181491250000000,257,0x3A,0x12,Write,ACK
4.181523250000000,257,0x3A,0x7A,Write,ACK
4.182494000000000,258,0x3A,0x16,Write,ACK
4.182526000000000,258,0x3A,0x00,Write,ACK
4.183562250000000,259,0x3A,0x15,Write,ACK
4.183594500000000,259,0x3A,0x00,Write,ACK
4.204503250000000,260,0x3A,0x00,Write,ACK
4.205261500000000,261,0x3A,0x69,Read,ACK
4.205293250000000,261,0x3A,0xBD,Read,ACK
4.205324500000000,261,0x3A,0x2E,Read,NAK
4.206187500000000,262,0x3A,0x00,Write,ACK
4.206993500000000,264,0x2B,0x45,Read,NAK
4.207862250000000,265,0x3A,0x00,Write,ACK
4.208618000000000,266,0x3A,0x69,Read,ACK
4.208648750000000,266,0x3A,0xBD,Read,ACK
4.208679750000000,266,0x3A,0x2E,Read,NAK
4.209540500000000,267,0x3A,0x00,Write,ACK
4.210297500000000,268,0x3A,0x69,Read,ACK
4.210328250000000,268,0x3A,0xBD,Read,ACK
4.210359000000000,268,0x3A,0x2E,Read,NAK
4.211589500000000,269,0x3A,0x1D,Write,ACK
4.211621750000000,269,0x3A,0xF0,Write,ACK
4.212504500000000,270,0x3A,0x01,Write,ACK
4.212536500000000,270,0x3A,0x0C,Write,ACK
4.213508000000000,271,0x3A,0x1E,Write,ACK
4.213540000000000,271,0x3A,0x27,Write,ACK
4.214512000000000,272,0x3A,0x00,Write,ACK
4.214543750000000,272,0x3A,0x13,Write,ACK
4.215511250000000,273,0x3A,0x00,Write,ACK
4.215543250000000,273,0x3A,0x93,Write,ACK
4.216505000000000,274,0x3A,0x04,Write,ACK
4.216537000000000,274,0x3A,0x05,Write,ACK
4.217526250000000,275,0x3A,0x1B,Write,ACK
4.217558500000000,275,0x3A,0xC3,Write,ACK
4.218506250000000,276,0x3A,0x0D,Write,ACK
4.218538000000000,276,0x3A,0xA5,Write,ACK
4.219507750000000,277,0x3A,0x1C,Write,ACK
4.219539500000000,277,0x3A,0x25,Write,ACK
4.221506000000000,280,0x3A,0x1A,Write,ACK
4.221538000000000,280,0x3A,0x4F,Write,ACK
4.222506000000000,281,0x3A,0x1C,Write,ACK
4.222538000000000,281,0x3A,0x95,Write,ACK
4.223506500000000,282,0x3A,0x1B,Write,ACK
4.223538250000000,282,0x3A,0xC3,Write,ACK
4.224509000000000,283,0x3A,0x01,Write,ACK
4.224541000000000,283,0x3A,0x0C,Write,ACK
4.225512250000000,284,0x3A,0x17,Write,ACK
4.225544000000000,284,0x3A,0x08,Write,ACK
4.226507750000000,285,0x3A,0x07,Write,ACK
4.226539750000000,285,0x3A,0xF5,Write,ACK
4.227507750000000,286,0x3A,0x1E,Write,ACK
4.227539500000000,286,0x3A,0x27,Write,ACK
4.228508250000000,287,0x3A,0x06,Write,ACK
4.228540250000000,287,0x3A,0x13,Write,ACK
4.230514500000000,290,0x3A,0x1F,Write,ACK
4.230546500000000,290,0x3A,0x27,Write,ACK
4.231511750000000,291,0x3A,0x03,Write,ACK
4.231543750000000,291,0x3A,0x40,Write,ACK
4.232510250000000,292,0x3A,0x02,Write,ACK
4.232542000000000,292,0x3A,0x40,Write,ACK
6.057321250000000,293,0x3A,0x00,Write,ACK
6.057353500000000,293,0x3A,0x02,Write,ACK
6.057385500000000,293,0x3A,0x44,Write,ACK
6.057417250000000,293,0x3A,0x40,Write,ACK
6.057449250000000,293,0x3A,0x40,Write,ACK
6.057481500000000,293,0x3A,0x05,Write,ACK
6.057513500000000,293,0x3A,0x69,Write,ACK
6.057545500000000,293,0x3A,0x17,Write,ACK
6.057577250000000,293,0x3A,0x75,Write,ACK
6.057609250000000,293,0x3A,0x40,Write,ACK
6.057641000000000,293,0x3A,0x40,Write,ACK
6.057673000000000,293,0x3A,0x06,Write,ACK
6.057704750000000,293,0x3A,0x08,Write,ACK
6.057736750000000,293,0x3A,0x89,Write,ACK
6.057768750000000,293,0x3A,0xA4,Write,ACK
6.057800500000000,293,0x3A,0x95,Write,ACK
6.057832500000000,293,0x3A,0x9C,Write,ACK
6.057864250000000,293,0x3A,0x73,Write,ACK
6.057896250000000,293,0x3A,0x02,Write,ACK
6.057928000000000,293,0x3A,0x72,Write,ACK
6.057960000000000,293,0x3A,0x20,Write,ACK
6.057992000000000,293,0x3A,0x0B,Write,ACK
6.058023750000000,293,0x3A,0xAA,Write,ACK
6.058055750000000,293,0x3A,0xAA,Write,ACK
6.058087500000000,293,0x3A,0x28,Write,ACK
6.058183250000000,294,0x20,0x87,Write,ACK
6.058215250000000,294,0x20,0xC2,Write,ACK
6.058247000000000,294,0x20,0x25,Write,ACK
6.058279000000000,294,0x20,0x30,Write,ACK
6.058311000000000,294,0x20,0x26,Write,ACK
6.060211750000000,295,0x3A,0x0B,Write,ACK
6.060243750000000,295,0x3A,0x18,Write,ACK
6.061229000000000,296,0x3A,0x0A,Write,ACK
6.061261250000000,296,0x3A,0x0C,Write,ACK
6.062208250000000,297,0x3A,0x0B,Write,ACK
6.062240000000000,297,0x3A,0x18,Write,ACK
6.063211500000000,298,0x3A,0x0B,Write,ACK
6.063243500000000,298,0x3A,0x18,Write,ACK
6.064233250000000,299,0x3A,0x03,Write,ACK
6.064265500000000,299,0x3A,0x40,Write,ACK
6.065208250000000,300,0x3A,0x0A,Write,ACK
6.065240250000000,300,0x3A,0x0C,Write,ACK
6.066211750000000,301,0x3A,0x04,Write,ACK
6.066243750000000,301,0x3A,0x05,Write,ACK
6.067207750000000,302,0x3A,0x1E,Write,ACK
6.067239750000000,302,0x3A,0x26,Write,ACK
6.068210000000000,303,0x3A,0x1E,Write,ACK
6.068242000000000,303,0x3A,0x26,Write,ACK
6.069209750000000,304,0x3A,0x1E,Write,ACK
6.069241500000000,304,0x3A,0x27,Write,ACK
6.070209750000000,305,0x3A,0x12,Write,ACK
6.070241750000000,305,0x3A,0x72,Write,ACK
6.071213250000000,306,0x3A,0x1E,Write,ACK
6.071245250000000,306,0x3A,0x27,Write,ACK
6.072211750000000,307,0x3A,0x1F,Write,ACK
6.072243500000000,307,0x3A,0x66,Write,ACK
6.073213500000000,308,0x3A,0x1B,Write,ACK
6.073245250000000,308,0x3A,0xC2,Write,ACK
6.074217750000000,309,0x3A,0x04,Write,ACK
6.074249750000000,309,0x3A,0x05,Write,ACK
6.076215500000000,312,0x3A,0x1A,Write,ACK
6.076247250000000,312,0x3A,0x8F,Write,ACK
6.077223500000000,313,0x3A,0x05,Write,ACK
6.077255750000000,313,0x3A,0x49,Write,ACK
6.078218500000000,314,0x3A,0x19,Write,ACK
6.078250500000000,314,0x3A,0x40,Write,ACK
6.079213750000000,315,0x3A,0x01,Write,ACK
6.079245500000000,315,0x3A,0x0C,Write,ACK
6.080212000000000,316,0x3A,0x02,Write,ACK
6.080244000000000,316,0x3A,0x40,Write,ACK
6.081229750000000,317,0x3A,0x08,Write,ACK
6.081262000000000,317,0x3A,0x62,Write,ACK
6.082214750000000,318,0x3A,0x09,Write,ACK
6.082246500000000,318,0x3A,0x40,Write,ACK
6.083215750000000,319,0x3A,0x03,Write,ACK
6.083247750000000,319,0x3A,0x40,Write,ACK
6.084274500000000,320,0x3A,0x01,Write,ACK
6.084306750000000,320,0x3A,0x0D,Write,ACK
6.085220750000000,321,0x3A,0x1E,Write,ACK
6.085252750000000,321,0x3A,0xA7,Write,ACK
6.086222000000000,322,0x3A,0x11,Write,ACK
6.086254250000000,322,0x3A,0x02,Write,ACK
6.087217500000000,323,0x3A,0x12,Write,ACK
6.087249500000000,323,0x3A,0x72,Write,ACK
6.088220250000000,324,0x3A,0x0F,Write,ACK
6.088252000000000,324,0x3A,0xA4,Write,ACK
6.089218000000000,325,0x3A,0x10,Write,ACK
6.089249750000000,325,0x3A,0x63,Write,ACK
6.090216750000000,326,0x3A,0x17,Write,ACK
6.090248500000000,326,0x3A,0x28,Write,ACK
6.091221500000000,327,0x3A,0x1D,Write,ACK
6.091253500000000,327,0x3A,0x30,Write,ACK
6.092219000000000,328,0x3A,0x13,Write,ACK
6.092251000000000,328,0x3A,0x38,Write,ACK
6.093220250000000,329,0x3A,0x10,Write,ACK
6.093252250000000,329,0x3A,0x67,Write,ACK
6.094218500000000,330,0x3A,0x10,Write,ACK
6.094250250000000,330,0x3A,0x67,Write,ACK
6.095219000000000,331,0x3A,0x14,Write,ACK
6.095251000000000,331,0x3A,0xAC,Write,ACK
6.096223000000000,332,0x3A,0x12,Write,ACK
6.096254750000000,332,0x3A,0x7A,Write,ACK
6.097220500000000,333,0x3A,0x16,Write,ACK
6.097252500000000,333,0x3A,0x00,Write,ACK
6.098222250000000,334,0x3A,0x15,Write,ACK
6.098254000000000,334,0x3A,0x00,Write,ACK
6.119230500000000,335,0x3A,0x00,Write,ACK
6.119988250000000,336,0x3A,0x69,Read,ACK
6.120020500000000,336,0x3A,0xBD,Read,ACK
6.120052250000000,336,0x3A,0x2E,Read,NAK
6.120915250000000,337,0x3A,0x00,Write,ACK
6.121671500000000,338,0x3A,0x69,Read,ACK
6.121702250000000,338,0x3A,0xBD,Read,ACK
6.121733250000000,338,0x3A,0x2E,Read,NAK
6.122592000000000,339,0x3A,0x00,Write,ACK
6.123347500000000,340,0x3A,0x69,Read,ACK
6.123378250000000,340,0x3A,0xBD,Read,ACK
6.123409250000000,340,0x3A,0x2E,Read,NAK
6.124277500000000,341,0x3A,0x00,Write,ACK
6.125034000000000,342,0x3A,0x69,Read,ACK
6.125065500000000,342,0x3A,0xBD,Read,ACK
6.125096750000000,342,0x3A,0x2E,Read,NAK
6.125955000000000,343,0x3A,0x1D,Write,ACK
6.125987000000000,343,0x3A,0xF0,Write,ACK
6.127229750000000,344,0x3A,0x01,Write,ACK
6.127261500000000,344,0x3A,0x0C,Write,ACK
6.128230750000000,345,0x3A,0x1E,Write,ACK
6.128262500000000,345,0x3A,0x27,Write,ACK
6.129234750000000,346,0x3A,0x00,Write,ACK
6.129266750000000,346,0x3A,0x13,Write,ACK
6.130236750000000,347,0x3A,0x00,Write,ACK
6.130268750000000,347,0x3A,0x93,Write,ACK
6.131238250000000,348,0x3A,0x04,Write,ACK
6.131270250000000,348,0x3A,0x05,Write,ACK
6.132238750000000,349,0x3A,0x1B,Write,ACK
6.132270750000000,349,0x3A,0xC3,Write,ACK
6.133233000000000,350,0x3A,0x0D,Write,ACK
6.133264750000000,350,0x3A,0xA5,Write,ACK
6.134238500000000,351,0x3A,0x1C,Write,ACK
6.134270500000000,351,0x3A,0x25,Write,ACK
6.135235750000000,352,0x3A,0x0E,Write,ACK
6.136240000000000,353,0x3A,0x1A,Write,ACK
6.136272000000000,353,0x3A,0x4F,Write,ACK
6.137234750000000,354,0x3A,0x1C,Write,ACK
6.137266750000000,354,0x3A,0x95,Write,ACK
6.138234500000000,355,0x3A,0x1B,Write,ACK
6.138266500000000,355,0x3A,0xC3,Write,ACK
6.139235000000000,356,0x3A,0x01,Write,ACK
6.139267000000000,356,0x3A,0x0C,Write,ACK
6.140238500000000,357,0x3A,0x17,Write,ACK
6.140270250000000,357,0x3A,0x08,Write,ACK
6.141241000000000,358,0x3A,0x07,Write,ACK
6.141272750000000,358,0x3A,0xF5,Write,ACK
6.142236750000000,359,0x3A,0x1E,Write,ACK
6.142268500000000,359,0x3A,0x27,Write,ACK
6.143237250000000,360,0x3A,0x06,Write,ACK
6.143269000000000,360,0x3A,0x13,Write,ACK
6.144250000000000,361,0x3A,0x1B,Write,ACK
6.144282000000000,361,0x3A,0xC3,Write,ACK
6.145240750000000,362,0x3A,0x1F,Write,ACK
6.145272750000000,362,0x3A,0x27,Write,ACK
6.246281750000000,363,0x3A,0x1B,Write,ACK
6.246314000000000,363,0x3A,0xE3,Write,ACK
6.247276750000000,364,0x3A,0x03,Write,ACK
6.247308750000000,364,0x3A,0xC0,Write,ACK
6.248276750000000,,0x3A,0x02,Write,ACK
6.248308750000000,,0x3A,0x40,Write,ACK
