Time [s], Analyzer Name, Decoded Protocol Result
0.000011250000000,I2C,Setup Write to [0x3A] + ACK
0.000044500000000,I2C,0x00 + ACK
0.000076750000000,I2C,0x02 + ACK
0.000108500000000,I2C,0x44 + ACK
0.000140500000000,I2C,0x40 + ACK
0.000176500000000,I2C,0x40 + ACK
0.000208250000000,I2C,0x05 + ACK
0.000240250000000,I2C,0x69 + ACK
0.000272250000000,I2C,0x17 + ACK
0.000304000000000,I2C,0x75 + ACK
0.000336000000000,I2C,0x40 + ACK
0.000367750000000,I2C,0x40 + ACK
0.000399750000000,I2C,0x06 + ACK
0.000431750000000,I2C,0x08 + ACK
0.000463500000000,I2C,0x89 + ACK
0.000495500000000,I2C,0xA4 + ACK
0.000527250000000,I2C,0x95 + ACK
0.000559250000000,I2C,0x9C + ACK
0.000591250000000,I2C,0x73 + ACK
0.000623000000000,I2C,0x02 + ACK
0.000655000000000,I2C,0x72 + ACK
0.000686750000000,I2C,0x20 + ACK
0.000718750000000,I2C,0x0B + ACK
0.000750750000000,I2C,0xAA + ACK
0.000782500000000,I2C,0xAA + ACK
0.000814500000000,I2C,0x28 + ACK
0.000846250000000,I2C,0x30 + ACK
0.000878250000000,I2C,0x40 + ACK
0.000910000000000,I2C,0x87 + ACK
0.000942000000000,I2C,0xC2 + ACK
0.000974000000000,I2C,0x25 + ACK
0.001005750000000,I2C,0x30 + ACK
0.001037750000000,I2C,0x26 + ACK
0.001069500000000,I2C,0x47 + ACK
0.002871750000000,I2C,Setup Write to [0x3A] + ACK
0.002904500000000,I2C,0x0B + ACK
0.002936500000000,I2C,0x18 + ACK
0.003879750000000,I2C,Setup Write to [0x3A] + ACK
0.003912750000000,I2C,0x0A + ACK
0.003944500000000,I2C,0x0C + ACK
0.004870750000000,I2C,Setup Write to [0x3A] + ACK
0.004903500000000,I2C,0x0B + ACK
0.004935500000000,I2C,0x18 + ACK
0.005869000000000,I2C,Setup Write to [0x3A] + ACK
0.005901750000000,I2C,0x0B + ACK
0.005933750000000,I2C,0x18 + ACK
0.006870000000000,I2C,Setup Write to [0x3A] + ACK
0.006902750000000,I2C,0x03 + ACK
0.006934500000000,I2C,0x40 + ACK
0.007870250000000,I2C,Setup Write to [0x3A] + ACK
0.007903000000000,I2C,0x0A + ACK
0.007935000000000,I2C,0x0C + ACK
0.008877000000000,I2C,Setup Write to [0x3A] + ACK
0.008909750000000,I2C,0x04 + ACK
0.008941750000000,I2C,0x05 + ACK
0.009872750000000,I2C,Setup Write to [0x3A] + ACK
0.009905500000000,I2C,0x1E + ACK
0.009937500000000,I2C,0x26 + ACK
0.010871750000000,I2C,Setup Write to [0x3A] + ACK
0.010904500000000,I2C,0x1E + ACK
0.010936250000000,I2C,0x26 + ACK
0.011879250000000,I2C,Setup Write to [0x3A] + ACK
0.011912000000000,I2C,0x1E + ACK
0.011944000000000,I2C,0x27 + ACK
0.012873000000000,I2C,Setup Write to [0x3A] + ACK
0.012905500000000,I2C,0x12 + ACK
0.012937500000000,I2C,0x72 + ACK
0.013880250000000,I2C,Setup Write to [0x3A] + ACK
0.013913000000000,I2C,0x1E + ACK
0.013945000000000,I2C,0x27 + ACK
0.014876000000000,I2C,Setup Write to [0x3A] + ACK
0.014908750000000,I2C,0x1F + ACK
0.014940500000000,I2C,0x66 + ACK
0.015879000000000,I2C,Setup Write to [0x3A] + ACK
0.015911750000000,I2C,0x1B + ACK
0.015943500000000,I2C,0xC2 + ACK
0.016874250000000,I2C,Setup Write to [0x3A] + ACK
0.016907000000000,I2C,0x04 + ACK
0.016939000000000,I2C,0x05 + ACK
0.017873750000000,I2C,Setup Write to [0x3A] + ACK
0.017906500000000,I2C,0x0C + ACK
0.017938250000000,I2C,0x85 + ACK
0.018896500000000,I2C,Setup Write to [0x3A] + ACK
0.018929500000000,I2C,0x1A + ACK
0.018961750000000,I2C,0x8F + ACK
0.019887500000000,I2C,Setup Write to [0x3A] + ACK
0.019920250000000,I2C,0x05 + ACK
0.019952500000000,I2C,0x49 + ACK
0.020878250000000,I2C,Setup Write to [0x3A] + ACK
0.020911000000000,I2C,0x19 + ACK
0.020942750000000,I2C,0x40 + ACK
0.021875000000000,I2C,Setup Write to [0x3A] + ACK
0.021907750000000,I2C,0x01 + ACK
0.021939750000000,I2C,0x0C + ACK
0.022875750000000,I2C,Setup Write to [0x3A] + ACK
0.022908250000000,I2C,0x02 + ACK
0.022940250000000,I2C,0x40 + ACK
0.023884500000000,I2C,Setup Write to [0x3A] + ACK
0.023917500000000,I2C,0x08 + ACK
0.023949250000000,I2C,0x62 + ACK
0.024878750000000,I2C,Setup Write to [0x3A] + ACK
0.024911500000000,I2C,0x09 + ACK
0.024943500000000,I2C,0x40 + ACK
0.025877750000000,I2C,Setup Write to [0x3A] + ACK
0.025910500000000,I2C,0x03 + ACK
0.025942250000000,I2C,0x40 + ACK
0.026879250000000,I2C,Setup Write to [0x3A] + ACK
0.026912000000000,I2C,0x01 + ACK
0.026944000000000,I2C,0x0D + ACK
0.027879500000000,I2C,Setup Write to [0x3A] + ACK
0.027912250000000,I2C,0x1E + ACK
0.027944000000000,I2C,0xA7 + ACK
0.028886250000000,I2C,Setup Write to [0x3A] + ACK
0.028919250000000,I2C,0x11 + ACK
0.028951250000000,I2C,0x02 + ACK
0.030662500000000,I2C,Setup Write to [0x3A] + ACK
0.030695500000000,I2C,0x12 + ACK
0.030728000000000,I2C,0x72 + ACK
0.031879250000000,I2C,Setup Write to [0x3A] + ACK
0.031911750000000,I2C,0x0F + ACK
0.031943750000000,I2C,0xA4 + ACK
0.032881500000000,I2C,Setup Write to [0x3A] + ACK
0.032914500000000,I2C,0x10 + ACK
0.032946250000000,I2C,0x63 + ACK
0.033885500000000,I2C,Setup Write to [0x3A] + ACK
0.033918500000000,I2C,0x17 + ACK
0.033950250000000,I2C,0x28 + ACK
0.034883750000000,I2C,Setup Write to [0x3A] + ACK
0.034916500000000,I2C,0x1D + ACK
0.034948250000000,I2C,0x30 + ACK
0.035883500000000,I2C,Setup Write to [0x3A] + ACK
0.035916000000000,I2C,0x13 + ACK
0.035948000000000,I2C,0x38 + ACK
0.036882000000000,I2C,Setup Write to [0x3A] + ACK
0.036914500000000,I2C,0x10 + ACK
0.036946500000000,I2C,0x67 + ACK
0.037881750000000,I2C,Setup Write to [0x3A] + ACK
0.037914500000000,I2C,0x10 + ACK
0.037946500000000,I2C,0x67 + ACK
0.038900750000000,I2C,Setup Write to [0x3A] + ACK
0.038933500000000,I2C,0x14 + ACK
0.038965750000000,I2C,0xAC + ACK
0.039887500000000,I2C,Setup Write to [0x3A] + ACK
0.039920250000000,I2C,0x12 + ACK
0.039952250000000,I2C,0x7A + ACK
0.040885500000000,I2C,Setup Write to [0x3A] + ACK
0.040918000000000,I2C,0x16 + ACK
0.040950000000000,I2C,0x00 + ACK
0.041898500000000,I2C,Setup Write to [0x3A] + ACK
0.041931250000000,I2C,0x15 + ACK
0.041963000000000,I2C,0x00 + ACK
0.062893250000000,I2C,Setup Write to [0x3A] + ACK
0.062926750000000,I2C,0x00 + ACK
0.063651750000000,I2C,Setup Read to [0x3A] + ACK
0.063685000000000,I2C,0x69 + ACK
0.063716750000000,I2C,0xBD + ACK
0.064578250000000,I2C,Setup Write to [0x3A] + ACK
0.064610750000000,I2C,0x00 + ACK
0.065335000000000,I2C,Setup Read to [0x3A] + ACK
0.065367000000000,I2C,0x69 + ACK
0.065397750000000,I2C,0xBD + ACK
0.065428500000000,I2C,0x2E + NAK
0.066253250000000,I2C,Setup Write to [0x3A] + ACK
0.066285750000000,I2C,0x00 + ACK
0.067009750000000,I2C,0x75 + Missing ACK/NAK
0.067063500000000,I2C,Setup Read to [0x57] + ACK
0.067094500000000,I2C,0x8B + NAK
0.067931250000000,I2C,Setup Write to [0x3A] + ACK
0.067963750000000,I2C,0x00 + ACK
0.068688500000000,I2C,Setup Read to [0x3A] + ACK
0.068720750000000,I2C,0x69 + ACK
0.068751750000000,I2C,0xBD + ACK
0.068782500000000,I2C,0x2E + NAK
0.069608750000000,I2C,Setup Write to [0x3A] + ACK
0.069641500000000,I2C,0x1D + ACK
0.069673500000000,I2C,0xF0 + ACK
0.070893500000000,I2C,Setup Write to [0x3A] + ACK
0.070926000000000,I2C,0x01 + ACK
0.070958000000000,I2C,0x0C + ACK
0.071904000000000,I2C,Setup Write to [0x3A] + ACK
0.071937000000000,I2C,0x1E + ACK
0.071968750000000,I2C,0x27 + ACK
0.072901500000000,I2C,Setup Write to [0x3A] + ACK
0.072934250000000,I2C,0x00 + ACK
0.072966250000000,I2C,0x13 + ACK
0.073900750000000,I2C,Setup Write to [0x3A] + ACK
0.073933500000000,I2C,0x00 + ACK
0.073965250000000,I2C,0x93 + ACK
0.074897750000000,I2C,Setup Write to [0x3A] + ACK
0.074930500000000,I2C,0x04 + ACK
0.074962250000000,I2C,0x05 + ACK
0.075901250000000,I2C,Setup Write to [0x3A] + ACK
0.075934250000000,I2C,0x1B + ACK
0.075966000000000,I2C,0xC3 + ACK
0.076899250000000,I2C,Setup Write to [0x3A] + ACK
0.076932000000000,I2C,0x0D + ACK
0.076964000000000,I2C,0xA5 + ACK
0.077898500000000,I2C,Setup Write to [0x3A] + ACK
0.077931500000000,I2C,0x1C + ACK
0.077963250000000,I2C,0x25 + ACK
0.078915000000000,I2C,Setup Write to [0x3A] + ACK
0.078947750000000,I2C,0x0E + ACK
0.078980250000000,I2C,0x95 + ACK
0.079900000000000,I2C,Setup Write to [0x3A] + ACK
0.079932750000000,I2C,0x1A + ACK
0.079964500000000,I2C,0x4F + ACK
0.080897750000000,I2C,Setup Write to [0x3A] + ACK
0.080930250000000,I2C,0x1C + ACK
0.080962250000000,I2C,0x95 + ACK
0.081978750000000,I2C,Setup Write to [0x3A] + ACK
0.082012000000000,I2C,0x1B + ACK
0.082044250000000,I2C,0xC3 + ACK
0.082907250000000,I2C,Setup Write to [0x3A] + ACK
0.082940000000000,I2C,0x01 + ACK
0.082972000000000,I2C,0x0C + ACK
0.083906250000000,I2C,Setup Write to [0x3A] + ACK
0.083939000000000,I2C,0x17 + ACK
0.083971000000000,I2C,0x08 + ACK
0.084900250000000,I2C,Setup Write to [0x3A] + ACK
0.084933000000000,I2C,0x07 + ACK
0.084964750000000,I2C,0xF5 + ACK
0.085900000000000,I2C,Setup Write to [0x3A] + ACK
0.085932750000000,I2C,0x1E + ACK
0.085964500000000,I2C,0x27 + ACK
0.086903250000000,I2C,Setup Write to [0x3A] + ACK
0.086936000000000,I2C,0x06 + ACK
0.086968000000000,I2C,0x13 + ACK
0.087902500000000,I2C,Setup Write to [0x3A] + ACK
0.087935250000000,I2C,0x1B + ACK
0.087967250000000,I2C,0xC3 + ACK
0.088905250000000,I2C,Setup Write to [0x3A] + ACK
0.088938000000000,I2C,0x1F + Missing ACK/NAK
0.088970000000000,I2C,Setup Read to [0x13] + ACK
0.189943250000000,I2C,Setup Write to [0x3A] + ACK
0.189976750000000,I2C,0x1B + ACK
0.190009000000000,I2C,0xE3 + ACK
0.190940750000000,I2C,Setup Write to [0x3A] + ACK
0.190973500000000,I2C,0x03 + ACK
0.191005250000000,I2C,0xC0 + ACK
0.191950750000000,I2C,Setup Write to [0x3A] + ACK
0.191983750000000,I2C,0x02 + ACK
0.192015750000000,I2C,0x40 + ACK
1.111915750000000,I2C,Setup Write to [0x3A] + ACK
1.111949250000000,I2C,0x00 + ACK
1.111981250000000,I2C,0x02 + ACK
1.112013250000000,I2C,0x44 + Missing ACK/NAK
1.112045250000000,I2C,Setup Write to [0x20] + ACK
1.112077250000000,I2C,0x40 + ACK
1.112109000000000,I2C,0x05 + ACK
1.112141000000000,I2C,0x69 + ACK
1.112172750000000,I2C,0x17 + ACK
1.112204750000000,I2C,0x75 + ACK
1.112236500000000,I2C,0x40 + ACK
1.112268500000000,I2C,0x40 + ACK
1.112300500000000,I2C,0x06 + ACK
1.112332250000000,I2C,0x08 + ACK
1.112364250000000,I2C,0x89 + ACK
1.112396000000000,I2C,0xA4 + ACK
1.112428000000000,I2C,0x95 + ACK
1.112459750000000,I2C,0x9C + ACK
1.112491750000000,I2C,0x73 + ACK
1.112523750000000,I2C,0x02 + ACK
1.112555500000000,I2C,0x72 + ACK
1.112594000000000,I2C,0x20 + ACK
1.112625750000000,I2C,0x0B + ACK
1.112657750000000,I2C,0xAA + ACK
1.112689500000000,I2C,0xAA + ACK
1.112721500000000,I2C,0x28 + ACK
1.112753500000000,I2C,0x30 + ACK
1.112785250000000,I2C,0x40 + ACK
1.112817250000000,I2C,0x87 + ACK
1.112849000000000,I2C,0xC2 + ACK
1.112881000000000,I2C,0x25 + ACK
1.112912750000000,I2C,0x30 + ACK
1.112944750000000,I2C,0x26 + ACK
1.112976750000000,I2C,0x47 + ACK
1.114306500000000,I2C,Setup Write to [0x3A] + ACK
1.114339250000000,I2C,0x0B + ACK
1.114371250000000,I2C,0x18 + ACK
1.115293500000000,I2C,Setup Write to [0x3A] + ACK
1.115326500000000,I2C,0x0A + ACK
1.115358500000000,I2C,0x0C + ACK
1.116301250000000,I2C,Setup Write to [0x3A] + ACK
1.116334000000000,I2C,0x0B + ACK
1.116365750000000,I2C,0x18 + ACK
1.117293750000000,I2C,Setup Write to [0x3A] + ACK
1.117326500000000,I2C,0x0B + ACK
1.117358500000000,I2C,0x18 + ACK
1.118292500000000,I2C,Setup Write to [0x3A] + ACK
1.118325250000000,I2C,0x03 + ACK
1.118357000000000,I2C,0x40 + ACK
1.119298750000000,I2C,Setup Write to [0x3A] + ACK
1.119331750000000,I2C,0x0A + ACK
1.119363500000000,I2C,0x0C + ACK
1.120294250000000,I2C,Setup Write to [0x3A] + ACK
1.120326750000000,I2C,0x04 + ACK
1.120358750000000,I2C,0x05 + ACK
1.121296250000000,I2C,Setup Write to [0x3A] + ACK
1.121329000000000,I2C,0x1E + ACK
1.121360750000000,I2C,0x26 + ACK
1.122307000000000,I2C,Setup Write to [0x3A] + ACK
1.122339750000000,I2C,0x1E + ACK
1.122371750000000,I2C,0x26 + ACK
1.123294750000000,I2C,Setup Write to [0x3A] + ACK
1.123327500000000,I2C,0x1E + ACK
1.123359500000000,I2C,0x27 + ACK
1.124299500000000,I2C,Setup Write to [0x3A] + ACK
1.124332500000000,I2C,0x12 + ACK
1.124364500000000,I2C,0x72 + ACK
1.125296750000000,I2C,Setup Write to [0x3A] + ACK
1.125329500000000,I2C,0x1E + ACK
1.125361500000000,I2C,0x27 + Missing ACK/NAK
1.126313750000000,I2C,Setup Write to [0x3A] + ACK
1.126346500000000,I2C,0x1F + ACK
1.126378750000000,I2C,0x66 + ACK
1.127299750000000,I2C,Setup Write to [0x3A] + ACK
1.127332750000000,I2C,0x1B + ACK
1.127364500000000,I2C,0xC2 + ACK
1.128297750000000,I2C,Setup Write to [0x3A] + ACK
1.128330250000000,I2C,0x04 + ACK
1.128362250000000,I2C,0x05 + ACK
1.129301750000000,I2C,Setup Write to [0x3A] + ACK
1.129334500000000,I2C,0x0C + ACK
1.129366250000000,I2C,0x85 + ACK
1.131079500000000,I2C,Setup Write to [0x3A] + ACK
1.131112500000000,I2C,0x1A + ACK
1.131144750000000,I2C,0x8F + ACK
1.132311750000000,I2C,Setup Write to [0x3A] + ACK
1.132344500000000,I2C,0x05 + ACK
1.132376500000000,I2C,0x49 + ACK
1.133303250000000,I2C,Setup Write to [0x3A] + ACK
1.133336000000000,I2C,0x19 + ACK
1.133367750000000,I2C,0x40 + ACK
1.134303750000000,I2C,Setup Write to [0x3A] + ACK
1.134336500000000,I2C,0x01 + ACK
1.134368500000000,I2C,0x0C + Missing ACK/NAK
1.135300000000000,I2C,Setup Write to [0x3A] + ACK
1.135332750000000,I2C,0x02 + ACK
1.135364750000000,I2C,0x40 + ACK
1.136300250000000,I2C,Setup Write to [0x3A] + ACK
1.136333000000000,I2C,0x08 + ACK
1.136364750000000,I2C,0x62 + ACK
1.137303250000000,I2C,Setup Write to [0x3A] + ACK
1.137335750000000,I2C,0x09 + ACK
1.137367750000000,I2C,0x40 + ACK
1.138301500000000,I2C,Setup Write to [0x3A] + ACK
1.138334250000000,I2C,0x03 + ACK
1.138366250000000,I2C,0x40 + ACK
1.139306250000000,I2C,Setup Write to [0x3A] + ACK
1.139339000000000,I2C,0x01 + ACK
1.139371000000000,I2C,0x0D + ACK
1.140303250000000,I2C,Setup Write to [0x3A] + ACK
1.140336000000000,I2C,0x1E + ACK
1.140368000000000,I2C,0xA7 + ACK
1.141302750000000,I2C,Setup Write to [0x3A] + ACK
1.141335750000000,I2C,0x11 + ACK
1.141368000000000,I2C,0x02 + Missing ACK/NAK
1.142322750000000,I2C,Setup Write to [0x3A] + ACK
1.142355500000000,I2C,0x12 + ACK
1.142387500000000,I2C,0x72 + ACK
1.143305250000000,I2C,Setup Write to [0x3A] + ACK
1.143338250000000,I2C,0x0F + ACK
1.143370000000000,I2C,0xA4 + ACK
1.144309250000000,I2C,Setup Write to [0x3A] + ACK
1.144342250000000,I2C,0x10 + ACK
1.144374000000000,I2C,0x63 + ACK
1.145303250000000,I2C,Setup Write to [0x3A] + ACK
1.145336000000000,I2C,0x17 + ACK
1.145367750000000,I2C,0x28 + ACK
1.146315750000000,I2C,Setup Write to [0x3A] + ACK
1.146348500000000,I2C,0x1D + ACK
1.146380500000000,I2C,0x30 + ACK
1.147309000000000,I2C,Setup Write to [0x3A] + ACK
1.147341500000000,I2C,0x13 + ACK
1.147373500000000,I2C,0x38 + ACK
1.148305750000000,I2C,Setup Write to [0x3A] + ACK
1.148338500000000,I2C,0x10 + ACK
1.148370250000000,I2C,0x67 + ACK
1.149308750000000,I2C,Setup Write to [0x3A] + ACK
1.149341500000000,I2C,0x10 + ACK
1.149373500000000,I2C,0x67 + ACK
1.150306500000000,I2C,Setup Write to [0x3A] + ACK
1.150338750000000,I2C,0x14 + ACK
1.150370500000000,I2C,0xAC + ACK
1.151305750000000,I2C,Setup Write to [0x3A] + ACK
1.151338250000000,I2C,0x12 + ACK
1.151370250000000,I2C,0x7A + ACK
1.152315500000000,I2C,Setup Write to [0x3A] + ACK
1.152348250000000,I2C,0x16 + ACK
1.152380250000000,I2C,0x00 + ACK
1.153307500000000,I2C,Setup Write to [0x3A] + ACK
1.153340250000000,I2C,0x15 + ACK
1.153372250000000,I2C,0x00 + ACK
1.174319500000000,I2C,Setup Write to [0x3A] + ACK
1.174353000000000,I2C,0x00 + ACK
1.175077500000000,I2C,Setup Read to [0x3A] + ACK
1.175110750000000,I2C,0x69 + ACK
1.175142500000000,I2C,0xBD + ACK
1.175174500000000,I2C,0x2E + NAK
1.176002750000000,I2C,Setup Write to [0x3A] + ACK
1.176035250000000,I2C,0x00 + ACK
1.176759750000000,I2C,Setup Read to [0x3A] + ACK
1.176791500000000,I2C,0x69 + ACK
1.176822500000000,I2C,0xBD + ACK
1.176853250000000,I2C,0x2E + NAK
1.177678500000000,I2C,Setup Write to [0x3A] + ACK
1.177711000000000,I2C,0x00 + ACK
1.178435000000000,I2C,Setup Read to [0x3A] + ACK
1.178466750000000,I2C,0x69 + ACK
1.178497500000000,I2C,0xBD + ACK
1.178528250000000,I2C,0x2E + NAK
1.179358000000000,I2C,Setup Write to [0x3A] + ACK
1.179390500000000,I2C,0x00 + ACK
1.180114750000000,I2C,Setup Read to [0x3A] + ACK
1.180165750000000,I2C,Setup Read to [0x2B] + NAK
1.180199750000000,I2C,Setup Read to [0x45] + NAK
1.181032750000000,I2C,Setup Write to [0x3A] + ACK
1.181065250000000,I2C,0x1D + ACK
1.181097500000000,I2C,0xF0 + ACK
1.182404250000000,I2C,Setup Write to [0x3A] + ACK
1.182437250000000,I2C,0x01 + ACK
1.182469500000000,I2C,0x0C + ACK
1.183325000000000,I2C,Setup Write to [0x3A] + ACK
1.183357500000000,I2C,0x1E + ACK
1.183389500000000,I2C,0x27 + ACK
1.184332000000000,I2C,Setup Write to [0x3A] + ACK
1.184364750000000,I2C,0x00 + ACK
1.184396750000000,I2C,0x13 + ACK
1.185321500000000,I2C,Setup Write to [0x3A] + ACK
1.185354000000000,I2C,0x00 + ACK
1.185386000000000,I2C,0x93 + ACK
1.186332000000000,I2C,Setup Write to [0x3A] + ACK
1.186365000000000,I2C,0x04 + ACK
1.186397250000000,I2C,0x05 + ACK
1.187325000000000,I2C,Setup Write to [0x3A] + ACK
1.187357750000000,I2C,0x1B + ACK
1.187389750000000,I2C,0xC3 + ACK
1.188319000000000,I2C,Setup Write to [0x3A] + ACK
1.188351750000000,I2C,0x0D + ACK
1.188383750000000,I2C,0xA5 + ACK
1.189326750000000,I2C,Setup Write to [0x3A] + ACK
1.189359500000000,I2C,0x1C + ACK
1.189391500000000,I2C,0x25 + ACK
1.190322500000000,I2C,Setup Write to [0x3A] + ACK
1.190355250000000,I2C,0x0E + ACK
1.190387250000000,I2C,0x95 + ACK
1.191321000000000,I2C,Setup Write to [0x3A] + ACK
1.191353750000000,I2C,0x1A + ACK
1.191385750000000,I2C,0x4F + ACK
1.192321500000000,I2C,Setup Write to [0x3A] + ACK
1.192354000000000,I2C,0x1C + ACK
1.192386000000000,I2C,0x95 + ACK
1.193321250000000,I2C,Setup Write to [0x3A] + ACK
1.193354000000000,I2C,0x1B + ACK
1.193386000000000,I2C,0xC3 + ACK
1.194328250000000,I2C,Setup Write to [0x3A] + ACK
1.194361250000000,I2C,0x01 + ACK
1.194393000000000,I2C,0x0C + ACK
1.195324250000000,I2C,Setup Write to [0x3A] + ACK
1.195357000000000,I2C,0x17 + ACK
1.195389000000000,I2C,0x08 + ACK
1.196322500000000,I2C,Setup Write to [0x3A] + ACK
1.196355000000000,I2C,0x07 + ACK
1.196387000000000,I2C,0xF5 + Missing ACK/NAK
1.197322750000000,I2C,Setup Write to [0x3A] + ACK
1.197355500000000,I2C,0x1E + ACK
1.197387500000000,I2C,0x27 + ACK
1.198324000000000,I2C,Setup Write to [0x3A] + ACK
1.198356500000000,I2C,0x06 + ACK
1.198388500000000,I2C,0x13 + ACK
1.199330000000000,I2C,Setup Write to [0x3A] + ACK
1.199363000000000,I2C,0x1B + ACK
1.199394750000000,I2C,0xC3 + ACK
1.200325750000000,I2C,Setup Write to [0x3A] + ACK
1.200358250000000,I2C,0x1F + ACK
1.200390250000000,I2C,0x27 + ACK
1.201326000000000,I2C,Setup Write to [0x3A] + ACK
1.201359000000000,I2C,0x03 + ACK
1.201390750000000,I2C,0x40 + ACK
1.202338250000000,I2C,Setup Write to [0x3A] + ACK
1.202371000000000,I2C,0x02 + ACK
1.202403000000000,I2C,0x40 + ACK
3.031152500000000,I2C,Setup Write to [0x3A] + ACK
3.031186000000000,I2C,0x00 + ACK
3.031218250000000,I2C,0x02 + ACK
3.031250250000000,I2C,0x44 + ACK
3.031282250000000,I2C,0x40 + ACK
3.031314000000000,I2C,0x40 + ACK
3.031347000000000,I2C,0x05 + ACK
3.031378750000000,I2C,0x69 + ACK
3.031410750000000,I2C,0x17 + ACK
3.031442500000000,I2C,0x75 + ACK
3.031474500000000,I2C,0x40 + ACK
3.031506250000000,I2C,0x40 + ACK
3.031538250000000,I2C,0x06 + ACK
3.031570250000000,I2C,0x08 + ACK
3.031602000000000,I2C,0x89 + ACK
3.031634000000000,I2C,0xA4 + ACK
3.031665750000000,I2C,0x95 + ACK
3.031697750000000,I2C,0x9C + ACK
3.031729750000000,I2C,0x73 + ACK
3.031761500000000,I2C,0x02 + ACK
3.031793500000000,I2C,0x72 + ACK
3.031825250000000,I2C,0x20 + ACK
3.031857250000000,I2C,0x0B + ACK
3.031889250000000,I2C,0xAA + ACK
3.031921000000000,I2C,0xAA + ACK
3.031953000000000,I2C,0x28 + ACK
3.031984750000000,I2C,0x30 + ACK
3.032016750000000,I2C,0x40 + ACK
3.032048750000000,I2C,0x87 + ACK
3.032080500000000,I2C,0xC2 + ACK
3.032112500000000,I2C,0x25 + ACK
3.032144250000000,I2C,0x30 + ACK
3.032176250000000,I2C,0x26 + ACK
3.032208000000000,I2C,0x47 + ACK
3.034032250000000,I2C,Setup Write to [0x3A] + ACK
3.034065000000000,I2C,0x0B + ACK
3.034096750000000,I2C,0x18 + ACK
3.035032250000000,I2C,Setup Write to [0x3A] + ACK
3.035065000000000,I2C,0x0A + ACK
3.035097000000000,I2C,0x0C + ACK
3.036022750000000,I2C,Setup Write to [0x3A] + ACK
3.036055500000000,I2C,0x0B + ACK
3.036087500000000,I2C,0x18 + ACK
3.037022000000000,I2C,Setup Write to [0x3A] + ACK
3.037055000000000,I2C,0x0B + ACK
3.037087000000000,I2C,0x18 + ACK
3.038022750000000,I2C,Setup Write to [0x3A] + ACK
3.038055750000000,I2C,0x03 + ACK
3.038087750000000,I2C,0x40 + ACK
3.039026750000000,I2C,Setup Write to [0x3A] + ACK
3.039059500000000,I2C,0x0A + ACK
3.039091500000000,I2C,0x0C + ACK
3.040028500000000,I2C,Setup Write to [0x3A] + ACK
3.040061500000000,I2C,0x04 + ACK
3.040093250000000,I2C,0x05 + ACK
3.041024500000000,I2C,Setup Write to [0x3A] + ACK
3.041057250000000,I2C,0x1E + ACK
3.041089250000000,I2C,0x26 + ACK
3.042024000000000,I2C,Setup Write to [0x3A] + ACK
3.042057000000000,I2C,0x1E + ACK
3.042089000000000,I2C,0x26 + ACK
3.043041500000000,I2C,Setup Write to [0x3A] + ACK
3.043074500000000,I2C,0x1E + ACK
3.043106500000000,I2C,0x27 + ACK
3.044029000000000,I2C,Setup Write to [0x3A] + ACK
3.044061750000000,I2C,0x12 + ACK
3.044093750000000,I2C,0x72 + ACK
3.045031500000000,I2C,Setup Write to [0x3A] + ACK
3.045064250000000,I2C,0x1E + ACK
3.045096000000000,I2C,0x27 + ACK
3.046027250000000,I2C,Setup Write to [0x3A] + ACK
3.046060000000000,I2C,0x1F + ACK
3.046091750000000,I2C,0x66 + ACK
3.047026750000000,I2C,Setup Write to [0x3A] + ACK
3.047059500000000,I2C,0x1B + Missing ACK/NAK
3.047091500000000,I2C,Setup Write to [0x61] + ACK
3.048027000000000,I2C,Setup Write to [0x3A] + ACK
3.048059500000000,I2C,0x04 + ACK
3.048091500000000,I2C,0x05 + ACK
3.049029000000000,I2C,Setup Write to [0x3A] + ACK
3.049061750000000,I2C,0x0C + ACK
3.049093750000000,I2C,0x85 + ACK
3.050047000000000,I2C,Setup Write to [0x3A] + ACK
3.050080000000000,I2C,0x1A + ACK
3.050112000000000,I2C,0x8F + ACK
3.051041250000000,I2C,Setup Write to [0x3A] + ACK
3.051074000000000,I2C,0x05 + ACK
3.051106250000000,I2C,0x49 + ACK
3.052031250000000,I2C,Setup Write to [0x3A] + ACK
3.052063750000000,I2C,0x19 + ACK
3.052095750000000,I2C,0x40 + ACK
3.053029000000000,I2C,Setup Write to [0x3A] + ACK
3.053061750000000,I2C,0x01 + ACK
3.053093750000000,I2C,0x0C + ACK
3.054031750000000,I2C,Setup Write to [0x3A] + ACK
3.054064250000000,I2C,0x02 + ACK
3.054096250000000,I2C,0x40 + ACK
3.055036500000000,I2C,Setup Write to [0x3A] + ACK
3.055069250000000,I2C,0x08 + ACK
3.055101250000000,I2C,0x62 + ACK
3.056030500000000,I2C,Setup Write to [0x3A] + ACK
3.056063250000000,I2C,0x09 + ACK
3.056095000000000,I2C,0x40 + ACK
3.057030500000000,I2C,Setup Write to [0x3A] + ACK
3.057063250000000,I2C,0x03 + ACK
3.057095000000000,I2C,0x40 + ACK
3.058032250000000,I2C,Setup Write to [0x3A] + ACK
3.058065000000000,I2C,0x01 + ACK
3.058097000000000,I2C,0x0D + ACK
3.059034750000000,I2C,Setup Write to [0x3A] + ACK
3.059067500000000,I2C,0x1E + ACK
3.059099250000000,I2C,0xA7 + ACK
3.060038500000000,I2C,Setup Write to [0x3A] + ACK
3.060071500000000,I2C,0x11 + ACK
3.060103750000000,I2C,0x02 + ACK
3.061033250000000,I2C,Setup Write to [0x3A] + ACK
3.061066000000000,I2C,0x12 + ACK
3.061098250000000,I2C,0x72 + ACK
3.062035500000000,I2C,Setup Write to [0x3A] + ACK
3.062068250000000,I2C,0x0F + ACK
3.062100250000000,I2C,0xA4 + ACK
3.063059250000000,I2C,Setup Write to [0x3A] + ACK
3.063092000000000,I2C,0x10 + ACK
3.063124500000000,I2C,0x63 + ACK
3.064036750000000,I2C,Setup Write to [0x3A] + ACK
3.064069250000000,I2C,0x17 + ACK
3.064101250000000,I2C,0x28 + ACK
3.065038750000000,I2C,Setup Write to [0x3A] + ACK
3.065071750000000,I2C,0x1D + ACK
3.065103500000000,I2C,0x30 + ACK
3.066034750000000,I2C,Setup Write to [0x3A] + ACK
3.066067500000000,I2C,0x13 + ACK
3.066099250000000,I2C,0x38 + ACK
3.067034750000000,I2C,Setup Write to [0x3A] + ACK
3.067067500000000,I2C,0x10 + ACK
3.067099500000000,I2C,0x67 + ACK
3.068034000000000,I2C,Setup Write to [0x3A] + ACK
3.068066750000000,I2C,0x10 + ACK
3.068098500000000,I2C,0x67 + Missing ACK/NAK
3.069038250000000,I2C,Setup Write to [0x3A] + ACK
3.069070750000000,I2C,0x14 + ACK
3.069102750000000,I2C,0xAC + ACK
3.070052250000000,I2C,Setup Write to [0x3A] + ACK
3.070085000000000,I2C,0x12 + ACK
3.070117250000000,I2C,0x7A + ACK
3.071038500000000,I2C,Setup Write to [0x3A] + ACK
3.071071250000000,I2C,0x16 + ACK
3.071103250000000,I2C,0x00 + ACK
3.072036000000000,I2C,Setup Write to [0x3A] + ACK
3.072068750000000,I2C,0x15 + ACK
3.072100750000000,I2C,0x00 + ACK
3.093046750000000,I2C,Setup Write to [0x3A] + ACK
3.093080500000000,I2C,0x00 + Missing ACK/NAK
3.093805000000000,I2C,Setup Read to [0x3A] + ACK
3.093838500000000,I2C,0x69 + ACK
3.093870250000000,I2C,0xBD + ACK
3.093902000000000,I2C,0x2E + NAK
3.094731750000000,I2C,Setup Write to [0x3A] + ACK
3.094764250000000,I2C,0x00 + ACK
3.095488500000000,I2C,Setup Read to [0x3A] + ACK
3.095533250000000,I2C,Setup Read to [0x4A] + NAK
3.095564000000000,I2C,0xD1 + ACK
3.096408250000000,I2C,Setup Write to [0x3A] + ACK
3.096440750000000,I2C,0x00 + ACK
3.097164750000000,I2C,Setup Read to [0x3A] + ACK
3.097196250000000,I2C,0x69 + ACK
3.097227250000000,I2C,0xBD + ACK
3.098086500000000,I2C,Setup Write to [0x3A] + ACK
3.098119000000000,I2C,0x00 + ACK
3.098843500000000,I2C,Setup Read to [0x3A] + ACK
3.098875750000000,I2C,0x69 + ACK
3.098906500000000,I2C,0xBD + ACK
3.098937500000000,I2C,0x2E + NAK
3.099763500000000,I2C,Setup Write to [0x3A] + ACK
3.099796500000000,I2C,0x1D + ACK
3.099828750000000,I2C,0xF0 + ACK
3.101049250000000,I2C,Setup Write to [0x3A] + ACK
3.101082000000000,I2C,0x01 + ACK
3.101114000000000,I2C,0x0C + ACK
3.102048250000000,I2C,Setup Write to [0x3A] + ACK
3.102081000000000,I2C,0x1E + ACK
3.102113000000000,I2C,0x27 + ACK
3.103057000000000,I2C,Setup Write to [0x3A] + ACK
3.103089750000000,I2C,0x00 + ACK
3.103121500000000,I2C,0x13 + ACK
3.104049500000000,I2C,Setup Write to [0x3A] + ACK
3.104082250000000,I2C,0x00 + ACK
3.104114250000000,I2C,0x93 + ACK
3.105052250000000,I2C,Setup Write to [0x3A] + ACK
3.105085250000000,I2C,0x04 + ACK
3.105117250000000,I2C,0x05 + ACK
3.106057500000000,I2C,Setup Write to [0x3A] + ACK
3.106090750000000,I2C,0x1B + ACK
3.106122500000000,I2C,0xC3 + ACK
3.107050250000000,I2C,Setup Write to [0x3A] + ACK
3.107083000000000,I2C,0x0D + ACK
3.107114750000000,I2C,0xA5 + ACK
3.108049250000000,I2C,Setup Write to [0x3A] + ACK
3.108081750000000,I2C,0x1C + ACK
3.108113750000000,I2C,0x25 + ACK
3.109049250000000,I2C,Setup Write to [0x3A] + ACK
3.109082000000000,I2C,0x0E + Missing ACK/NAK
3.109114000000000,I2C,Setup Read to [0x4A] + ACK
3.110066750000000,I2C,Setup Write to [0x3A] + ACK
3.110099750000000,I2C,0x1A + ACK
3.110131750000000,I2C,0x4F + ACK
3.111837000000000,I2C,Setup Write to [0x3A] + ACK
3.111870000000000,I2C,0x1C + ACK
3.111902250000000,I2C,0x95 + ACK
3.113049250000000,I2C,Setup Write to [0x3A] + ACK
3.113082000000000,I2C,0x1B + ACK
3.113114000000000,I2C,0xC3 + ACK
3.114051750000000,I2C,Setup Write to [0x3A] + ACK
3.114084500000000,I2C,0x01 + ACK
3.114116250000000,I2C,0x0C + ACK
3.115057750000000,I2C,Setup Write to [0x3A] + ACK
3.115090500000000,I2C,0x17 + ACK
3.115122500000000,I2C,0x08 + ACK
3.116053500000000,I2C,Setup Write to [0x3A] + ACK
3.116086250000000,I2C,0x07 + ACK
3.116118250000000,I2C,0xF5 + ACK
3.117059750000000,I2C,Setup Write to [0x3A] + ACK
3.117092500000000,I2C,0x1E + ACK
3.117124250000000,I2C,0x27 + ACK
3.118055000000000,I2C,Setup Write to [0x3A] + ACK
3.118087500000000,I2C,0x06 + ACK
3.118119500000000,I2C,0x13 + ACK
3.119053500000000,I2C,Setup Write to [0x3A] + ACK
3.119086250000000,I2C,0x1B + ACK
3.119118000000000,I2C,0xC3 + ACK
3.120059250000000,I2C,Setup Write to [0x3A] + ACK
3.120092000000000,I2C,0x1F + ACK
3.120124000000000,I2C,0x27 + ACK
3.221094500000000,I2C,Setup Write to [0x3A] + ACK
3.221128000000000,I2C,0x1B + ACK
3.221160250000000,I2C,0xE3 + ACK
3.222095250000000,I2C,Setup Write to [0x3A] + ACK
3.222128000000000,I2C,0x03 + ACK
3.222159750000000,I2C,0xC0 + ACK
3.223101000000000,I2C,Setup Write to [0x3A] + ACK
3.223133750000000,I2C,0x02 + ACK
3.223165500000000,I2C,0x40 + ACK
4.143072500000000,I2C,Setup Write to [0x3A] + ACK
4.143106000000000,I2C,0x00 + ACK
4.143138250000000,I2C,0x02 + ACK
4.143170250000000,I2C,0x44 + ACK
4.143202000000000,I2C,0x40 + ACK
4.143234000000000,I2C,0x40 + ACK
4.143266000000000,I2C,0x05 + ACK
4.143297750000000,I2C,0x69 + ACK
4.143329750000000,I2C,0x17 + ACK
4.143361500000000,I2C,0x75 + ACK
4.143393500000000,I2C,0x40 + ACK
4.143425500000000,I2C,0x40 + ACK
4.143457250000000,I2C,0x06 + ACK
4.143489250000000,I2C,0x08 + ACK
4.143521000000000,I2C,0x89 + ACK
4.143553000000000,I2C,0xA4 + ACK
4.143585000000000,I2C,0x95 + ACK
4.143616750000000,I2C,0x9C + ACK
4.143648750000000,I2C,0x73 + ACK
4.143680500000000,I2C,0x02 + ACK
4.143712500000000,I2C,0x72 + ACK
4.143748250000000,I2C,0x20 + ACK
4.143780000000000,I2C,0x0B + ACK
4.143812000000000,I2C,0xAA + ACK
4.143843750000000,I2C,0xAA + ACK
4.143875750000000,I2C,0x28 + ACK
4.143907750000000,I2C,0x30 + ACK
4.143939500000000,I2C,0x40 + ACK
4.143971500000000,I2C,0x87 + ACK
4.144003250000000,I2C,0xC2 + ACK
4.144035250000000,I2C,0x25 + ACK
4.144067000000000,I2C,0x30 + ACK
4.144099000000000,I2C,0x26 + ACK
4.144131000000000,I2C,0x47 + ACK
4.145456500000000,I2C,Setup Write to [0x3A] + ACK
4.145489250000000,I2C,0x0B + ACK
4.145521250000000,I2C,0x18 + ACK
4.146446250000000,I2C,Setup Write to [0x3A] + ACK
4.146479000000000,I2C,0x0A + ACK
4.146511000000000,I2C,0x0C + ACK
4.147447500000000,I2C,Setup Write to [0x3A] + ACK
4.147480250000000,I2C,0x0B + ACK
4.147512250000000,I2C,0x18 + ACK
4.148445750000000,I2C,Setup Write to [0x3A] + ACK
4.148478500000000,I2C,0x0B + ACK
4.148510250000000,I2C,0x18 + ACK
4.149446000000000,I2C,Setup Write to [0x3A] + ACK
4.149478500000000,I2C,0x03 + ACK
4.149510500000000,I2C,0x40 + ACK
4.150449750000000,I2C,Setup Write to [0x3A] + ACK
4.150482500000000,I2C,0x0A + ACK
4.150514500000000,I2C,0x0C + ACK
4.151446500000000,I2C,Setup Write to [0x3A] + ACK
4.151479250000000,I2C,0x04 + ACK
4.151511000000000,I2C,0x05 + ACK
4.152448750000000,I2C,Setup Write to [0x3A] + ACK
4.152481250000000,I2C,0x1E + ACK
4.152513250000000,I2C,0x26 + ACK
4.153459250000000,I2C,Setup Write to [0x3A] + ACK
4.153492000000000,I2C,0x1E + ACK
4.153524000000000,I2C,0x26 + ACK
4.154448000000000,I2C,Setup Write to [0x3A] + ACK
4.154480750000000,I2C,0x1E + ACK
4.154512500000000,I2C,0x27 + ACK
4.155452750000000,I2C,Setup Write to [0x3A] + ACK
4.155485500000000,I2C,0x12 + ACK
4.155517500000000,I2C,0x72 + ACK
4.156449500000000,I2C,Setup Write to [0x3A] + ACK
4.156482500000000,I2C,0x1E + ACK
4.156514500000000,I2C,0x27 + ACK
4.157466750000000,I2C,Setup Write to [0x3A] + ACK
4.157499500000000,I2C,0x1F + ACK
4.157531750000000,I2C,0x66 + ACK
4.158452750000000,I2C,Setup Write to [0x3A] + ACK
4.158485250000000,I2C,0x1B + ACK
4.158517250000000,I2C,0xC2 + ACK
4.159450000000000,I2C,Setup Write to [0x3A] + ACK
4.159482750000000,I2C,0x04 + ACK
4.159514750000000,I2C,0x05 + ACK
4.160454500000000,I2C,Setup Write to [0x3A] + ACK
4.160487250000000,I2C,0x0C + ACK
4.160519250000000,I2C,0x85 + ACK
4.161451000000000,I2C,Setup Write to [0x3A] + ACK
4.161483750000000,I2C,0x1A + ACK
4.161515500000000,I2C,0x8F + ACK
4.162467000000000,I2C,Setup Write to [0x3A] + ACK
4.162499750000000,I2C,0x05 + ACK
4.162532000000000,I2C,0x49 + ACK
4.163472500000000,I2C,Setup Write to [0x3A] + ACK
4.163505250000000,I2C,0x19 + ACK
4.163537500000000,I2C,0x40 + ACK
4.164451750000000,I2C,Setup Write to [0x3A] + ACK
4.164484500000000,I2C,0x01 + ACK
4.164516250000000,I2C,0x0C + ACK
4.165455500000000,I2C,Setup Write to [0x3A] + ACK
4.165488500000000,I2C,0x02 + ACK
4.165520250000000,I2C,0x40 + ACK
4.166453000000000,I2C,Setup Write to [0x3A] + ACK
4.166485750000000,I2C,0x08 + ACK
4.166517750000000,I2C,0x62 + ACK
4.167454750000000,I2C,Setup Write to [0x3A] + ACK
4.167487500000000,I2C,0x09 + Missing ACK/NAK
4.167519250000000,I2C,Setup Write to [0x20] + ACK
4.168453750000000,I2C,Setup Write to [0x3A] + ACK
4.168486500000000,I2C,0x03 + ACK
4.168518250000000,I2C,0x40 + ACK
4.169454500000000,I2C,0x74 + Missing ACK/NAK
4.169487500000000,I2C,Setup Read to [0x00] + ACK
4.169519250000000,I2C,0x0D + ACK
4.170458750000000,I2C,Setup Write to [0x3A] + ACK
4.170491500000000,I2C,0x1E + ACK
4.170523500000000,I2C,0xA7 + ACK
4.171456250000000,I2C,Setup Write to [0x3A] + ACK
4.171489000000000,I2C,0x11 + ACK
4.171521000000000,I2C,0x02 + ACK
4.172458250000000,I2C,Setup Write to [0x3A] + ACK
4.172490750000000,I2C,0x12 + ACK
4.172523250000000,I2C,0x72 + ACK
4.173457750000000,I2C,Setup Write to [0x3A] + ACK
4.173490500000000,I2C,0x0F + ACK
4.173522250000000,I2C,0xA4 + ACK
4.174456250000000,I2C,Setup Write to [0x3A] + ACK
4.174488750000000,I2C,0x10 + ACK
4.174520750000000,I2C,0x63 + ACK
4.175460250000000,I2C,Setup Write to [0x3A] + ACK
4.175493000000000,I2C,0x17 + ACK
4.175525000000000,I2C,0x28 + ACK
4.176457000000000,I2C,Setup Write to [0x3A] + ACK
4.176489750000000,I2C,0x1D + ACK
4.176521500000000,I2C,0x30 + ACK
4.177472250000000,I2C,Setup Write to [0x3A] + ACK
4.177505000000000,I2C,0x13 + ACK
4.177537250000000,I2C,0x38 + ACK
4.178460500000000,I2C,Setup Write to [0x3A] + ACK
4.178493250000000,I2C,0x10 + ACK
4.178525250000000,I2C,0x67 + ACK
4.179457250000000,I2C,Setup Write to [0x3A] + ACK
4.179490250000000,I2C,0x10 + ACK
4.179522000000000,I2C,0x67 + Missing ACK/NAK
4.180463000000000,I2C,Setup Write to [0x3A] + ACK
4.180495750000000,I2C,0x14 + ACK
4.180527750000000,I2C,0xAC + ACK
4.181458500000000,I2C,Setup Write to [0x3A] + ACK
4.181491250000000,I2C,0x12 + ACK
4.181523250000000,I2C,0x7A + ACK
4.182461250000000,I2C,Setup Write to [0x3A] + ACK
4.182494000000000,I2C,0x16 + ACK
4.182526000000000,I2C,0x00 + ACK
4.183529000000000,I2C,Setup Write to [0x3A] + ACK
4.183562250000000,I2C,0x15 + ACK
4.183594500000000,I2C,0x00 + ACK
4.204470000000000,I2C,Setup Write to [0x3A] + ACK
4.204503250000000,I2C,0x00 + ACK
4.205228250000000,I2C,Setup Read to [0x3A] + ACK
4.205261500000000,I2C,0x69 + ACK
4.205293250000000,I2C,0xBD + ACK
4.205324500000000,I2C,0x2E + NAK
4.206154750000000,I2C,Setup Write to [0x3A] + ACK
4.206187500000000,I2C,0x00 + ACK
4.206911500000000,I2C,Setup Read to [0x3A] + ACK
4.206962500000000,I2C,Setup Read to [0x2B] + NAK
4.206993500000000,I2C,0x45 + NAK
4.207829750000000,I2C,Setup Write to [0x3A] + ACK
4.207862250000000,I2C,0x00 + ACK
4.208586250000000,I2C,Setup Read to [0x3A] + ACK
4.208618000000000,I2C,0x69 + ACK
4.208648750000000,I2C,0xBD + ACK
4.208679750000000,I2C,0x2E + NAK
4.209508000000000,I2C,Setup Write to [0x3A] + ACK
4.209540500000000,I2C,0x00 + ACK
4.210265000000000,I2C,Setup Read to [0x3A] + ACK
4.210297500000000,I2C,0x69 + ACK
4.210328250000000,I2C,0xBD + ACK
4.210359000000000,I2C,0x2E + NAK
4.211556500000000,I2C,Setup Write to [0x3A] + ACK
4.211589500000000,I2C,0x1D + ACK
4.211621750000000,I2C,0xF0 + ACK
4.212472000000000,I2C,Setup Write to [0x3A] + ACK
4.212504500000000,I2C,0x01 + ACK
4.212536500000000,I2C,0x0C + ACK
4.213475250000000,I2C,Setup Write to [0x3A] + ACK
4.213508000000000,I2C,0x1E + ACK
4.213540000000000,I2C,0x27 + ACK
4.214479000000000,I2C,Setup Write to [0x3A] + ACK
4.214512000000000,I2C,0x00 + ACK
4.214543750000000,I2C,0x13 + ACK
4.215478500000000,I2C,Setup Write to [0x3A] + ACK
4.215511250000000,I2C,0x00 + ACK
4.215543250000000,I2C,0x93 + ACK
4.216472250000000,I2C,Setup Write to [0x3A] + ACK
4.216505000000000,I2C,0x04 + ACK
4.216537000000000,I2C,0x05 + ACK
4.217493500000000,I2C,Setup Write to [0x3A] + ACK
4.217526250000000,I2C,0x1B + ACK
4.217558500000000,I2C,0xC3 + ACK
4.218473500000000,I2C,Setup Write to [0x3A] + ACK
4.218506250000000,I2C,0x0D + ACK
4.218538000000000,I2C,0xA5 + ACK
4.219475000000000,I2C,Setup Write to [0x3A] + ACK
4.219507750000000,I2C,0x1C + ACK
4.219539500000000,I2C,0x25 + ACK
4.220478250000000,I2C,Setup Write to [0x3A] + ACK
4.220511000000000,I2C,0x0E + Missing ACK/NAK
4.220542750000000,I2C,Setup Read to [0x4A] + ACK
4.221473250000000,I2C,Setup Write to [0x3A] + ACK
4.221506000000000,I2C,0x1A + ACK
4.221538000000000,I2C,0x4F + ACK
4.222473250000000,I2C,Setup Write to [0x3A] + ACK
4.222506000000000,I2C,0x1C + ACK
4.222538000000000,I2C,0x95 + ACK
4.223473500000000,I2C,Setup Write to [0x3A] + ACK
4.223506500000000,I2C,0x1B + ACK
4.223538250000000,I2C,0xC3 + ACK
4.224476500000000,I2C,Setup Write to [0x3A] + ACK
4.224509000000000,I2C,0x01 + ACK
4.224541000000000,I2C,0x0C + ACK
4.225479250000000,I2C,Setup Write to [0x3A] + ACK
4.225512250000000,I2C,0x17 + ACK
4.225544000000000,I2C,0x08 + ACK
4.226475000000000,I2C,Setup Write to [0x3A] + ACK
4.226507750000000,I2C,0x07 + ACK
4.226539750000000,I2C,0xF5 + ACK
4.227474750000000,I2C,Setup Write to [0x3A] + ACK
4.227507750000000,I2C,0x1E + ACK
4.227539500000000,I2C,0x27 + ACK
4.228475750000000,I2C,Setup Write to [0x3A] + ACK
4.228508250000000,I2C,0x06 + ACK
4.228540250000000,I2C,0x13 + ACK
4.229478750000000,I2C,Setup Write to [0x3A] + ACK
4.229511500000000,I2C,0x1B + Missing ACK/NAK
4.229543500000000,I2C,Setup Read to [0x61] + ACK
4.230481750000000,I2C,Setup Write to [0x3A] + ACK
4.230514500000000,I2C,0x1F + ACK
4.230546500000000,I2C,0x27 + ACK
4.231479000000000,I2C,Setup Write to [0x3A] + ACK
4.231511750000000,I2C,0x03 + ACK
4.231543750000000,I2C,0x40 + ACK
4.232477500000000,I2C,Setup Write to [0x3A] + ACK
4.232510250000000,I2C,0x02 + ACK
4.232542000000000,I2C,0x40 + ACK
6.057288000000000,I2C,Setup Write to [0x3A] + ACK
6.057321250000000,I2C,0x00 + ACK
6.057353500000000,I2C,0x02 + ACK
6.057385500000000,I2C,0x44 + ACK
6.057417250000000,I2C,0x40 + ACK
6.057449250000000,I2C,0x40 + ACK
6.057481500000000,I2C,0x05 + ACK
6.057513500000000,I2C,0x69 + ACK
6.057545500000000,I2C,0x17 + ACK
6.057577250000000,I2C,0x75 + ACK
6.057609250000000,I2C,0x40 + ACK
6.057641000000000,I2C,0x40 + ACK
6.057673000000000,I2C,0x06 + ACK
6.057704750000000,I2C,0x08 + ACK
6.057736750000000,I2C,0x89 + ACK
6.057768750000000,I2C,0xA4 + ACK
6.057800500000000,I2C,0x95 + ACK
6.057832500000000,I2C,0x9C + ACK
6.057864250000000,I2C,0x73 + ACK
6.057896250000000,I2C,0x02 + ACK
6.057928000000000,I2C,0x72 + ACK
6.057960000000000,I2C,0x20 + ACK
6.057992000000000,I2C,0x0B + ACK
6.058023750000000,I2C,0xAA + ACK
6.058055750000000,I2C,0xAA + ACK
6.058087500000000,I2C,0x28 + ACK
6.058119500000000,I2C,0x30 + Missing ACK/NAK
6.058151500000000,I2C,Setup Write to [0x20] + ACK
6.058183250000000,I2C,0x87 + ACK
6.058215250000000,I2C,0xC2 + ACK
6.058247000000000,I2C,0x25 + ACK
6.058279000000000,I2C,0x30 + ACK
6.058311000000000,I2C,0x26 + ACK
6.058342750000000,I2C,0x47 + Missing ACK/NAK
6.060179250000000,I2C,Setup Write to [0x3A] + ACK
6.060211750000000,I2C,0x0B + ACK
6.060243750000000,I2C,0x18 + ACK
6.061196000000000,I2C,Setup Write to [0x3A] + ACK
6.061229000000000,I2C,0x0A + ACK
6.061261250000000,I2C,0x0C + ACK
6.062175500000000,I2C,Setup Write to [0x3A] + ACK
6.062208250000000,I2C,0x0B + ACK
6.062240000000000,I2C,0x18 + ACK
6.063179000000000,I2C,Setup Write to [0x3A] + ACK
6.063211500000000,I2C,0x0B + ACK
6.063243500000000,I2C,0x18 + ACK
6.064200750000000,I2C,Setup Write to [0x3A] + ACK
6.064233250000000,I2C,0x03 + ACK
6.064265500000000,I2C,0x40 + ACK
6.065175500000000,I2C,Setup Write to [0x3A] + ACK
6.065208250000000,I2C,0x0A + ACK
6.065240250000000,I2C,0x0C + ACK
6.066179000000000,I2C,Setup Write to [0x3A] + ACK
6.066211750000000,I2C,0x04 + ACK
6.066243750000000,I2C,0x05 + ACK
6.067175250000000,I2C,Setup Write to [0x3A] + ACK
6.067207750000000,I2C,0x1E + ACK
6.067239750000000,I2C,0x26 + ACK
6.068177250000000,I2C,Setup Write to [0x3A] + ACK
6.068210000000000,I2C,0x1E + ACK
6.068242000000000,I2C,0x26 + ACK
6.069177000000000,I2C,Setup Write to [0x3A] + ACK
6.069209750000000,I2C,0x1E + ACK
6.069241500000000,I2C,0x27 + ACK
6.070177000000000,I2C,Setup Write to [0x3A] + ACK
6.070209750000000,I2C,0x12 + ACK
6.070241750000000,I2C,0x72 + ACK
6.071180500000000,I2C,Setup Write to [0x3A] + ACK
6.071213250000000,I2C,0x1E + ACK
6.071245250000000,I2C,0x27 + ACK
6.072179000000000,I2C,Setup Write to [0x3A] + ACK
6.072211750000000,I2C,0x1F + ACK
6.072243500000000,I2C,0x66 + ACK
6.073180750000000,I2C,Setup Write to [0x3A] + ACK
6.073213500000000,I2C,0x1B + ACK
6.073245250000000,I2C,0xC2 + ACK
6.074185000000000,I2C,Setup Write to [0x3A] + ACK
6.074217750000000,I2C,0x04 + ACK
6.074249750000000,I2C,0x05 + ACK
6.075178000000000,I2C,Setup Write to [0x3A] + ACK
6.075210750000000,I2C,0x0C + Missing ACK/NAK
6.075242500000000,I2C,Setup Read to [0x42] + ACK
6.076182750000000,I2C,Setup Write to [0x3A] + ACK
6.076215500000000,I2C,0x1A + ACK
6.076247250000000,I2C,0x8F + ACK
6.077190500000000,I2C,Setup Write to [0x3A] + ACK
6.077223500000000,I2C,0x05 + ACK
6.077255750000000,I2C,0x49 + ACK
6.078185750000000,I2C,Setup Write to [0x3A] + ACK
6.078218500000000,I2C,0x19 + ACK
6.078250500000000,I2C,0x40 + ACK
6.079181000000000,I2C,Setup Write to [0x3A] + ACK
6.079213750000000,I2C,0x01 + ACK
6.079245500000000,I2C,0x0C + ACK
6.080179500000000,I2C,Setup Write to [0x3A] + ACK
6.080212000000000,I2C,0x02 + ACK
6.080244000000000,I2C,0x40 + ACK
6.081196750000000,I2C,Setup Write to [0x3A] + ACK
6.081229750000000,I2C,0x08 + ACK
6.081262000000000,I2C,0x62 + ACK
6.082182000000000,I2C,Setup Write to [0x3A] + ACK
6.082214750000000,I2C,0x09 + ACK
6.082246500000000,I2C,0x40 + ACK
6.083183250000000,I2C,Setup Write to [0x3A] + ACK
6.083215750000000,I2C,0x03 + ACK
6.083247750000000,I2C,0x40 + ACK
6.084241500000000,I2C,Setup Write to [0x3A] + ACK
6.084274500000000,I2C,0x01 + ACK
6.084306750000000,I2C,0x0D + ACK
6.085188250000000,I2C,Setup Write to [0x3A] + ACK
6.085220750000000,I2C,0x1E + ACK
6.085252750000000,I2C,0xA7 + ACK
6.086189250000000,I2C,Setup Write to [0x3A] + ACK
6.086222000000000,I2C,0x11 + ACK
6.086254250000000,I2C,0x02 + ACK
6.087184500000000,I2C,Setup Write to [0x3A] + ACK
6.087217500000000,I2C,0x12 + ACK
6.087249500000000,I2C,0x72 + ACK
6.088187500000000,I2C,Setup Write to [0x3A] + ACK
6.088220250000000,I2C,0x0F + ACK
6.088252000000000,I2C,0xA4 + ACK
6.089185250000000,I2C,Setup Write to [0x3A] + ACK
6.089218000000000,I2C,0x10 + ACK
6.089249750000000,I2C,0x63 + ACK
6.090184000000000,I2C,Setup Write to [0x3A] + ACK
6.090216750000000,I2C,0x17 + ACK
6.090248500000000,I2C,0x28 + ACK
6.091188750000000,I2C,Setup Write to [0x3A] + ACK
6.091221500000000,I2C,0x1D + ACK
6.091253500000000,I2C,0x30 + ACK
6.092186500000000,I2C,Setup Write to [0x3A] + ACK
6.092219000000000,I2C,0x13 + ACK
6.092251000000000,I2C,0x38 + ACK
6.093187500000000,I2C,Setup Write to [0x3A] + ACK
6.093220250000000,I2C,0x10 + ACK
6.093252250000000,I2C,0x67 + ACK
6.094185750000000,I2C,Setup Write to [0x3A] + ACK
6.094218500000000,I2C,0x10 + ACK
6.094250250000000,I2C,0x67 + ACK
6.095186250000000,I2C,Setup Write to [0x3A] + ACK
6.095219000000000,I2C,0x14 + ACK
6.095251000000000,I2C,0xAC + ACK
6.096190250000000,I2C,Setup Write to [0x3A] + ACK
6.096223000000000,I2C,0x12 + ACK
6.096254750000000,I2C,0x7A + ACK
6.097187750000000,I2C,Setup Write to [0x3A] + ACK
6.097220500000000,I2C,0x16 + ACK
6.097252500000000,I2C,0x00 + ACK
6.098189500000000,I2C,Setup Write to [0x3A] + ACK
6.098222250000000,I2C,0x15 + ACK
6.098254000000000,I2C,0x00 + ACK
6.119197000000000,I2C,Setup Write to [0x3A] + ACK
6.119230500000000,I2C,0x00 + ACK
6.119955000000000,I2C,Setup Read to [0x3A] + ACK
6.119988250000000,I2C,0x69 + ACK
6.120020500000000,I2C,0xBD + ACK
6.120052250000000,I2C,0x2E + NAK
6.120882500000000,I2C,Setup Write to [0x3A] + ACK
6.120915250000000,I2C,0x00 + ACK
6.121639500000000,I2C,Setup Read to [0x3A] + ACK
6.121671500000000,I2C,0x69 + ACK
6.121702250000000,I2C,0xBD + ACK
6.121733250000000,I2C,0x2E + NAK
6.122559500000000,I2C,Setup Write to [0x3A] + ACK
6.122592000000000,I2C,0x00 + ACK
6.123316000000000,I2C,Setup Read to [0x3A] + ACK
6.123347500000000,I2C,0x69 + ACK
6.123378250000000,I2C,0xBD + ACK
6.123409250000000,I2C,0x2E + NAK
6.124244750000000,I2C,Setup Write to [0x3A] + ACK
6.124277500000000,I2C,0x00 + ACK
6.125001750000000,I2C,Setup Read to [0x3A] + ACK
6.125034000000000,I2C,0x69 + ACK
6.125065500000000,I2C,0xBD + ACK
6.125096750000000,I2C,0x2E + NAK
6.125922500000000,I2C,Setup Write to [0x3A] + ACK
6.125955000000000,I2C,0x1D + ACK
6.125987000000000,I2C,0xF0 + ACK
6.127196750000000,I2C,Setup Write to [0x3A] + ACK
6.127229750000000,I2C,0x01 + ACK
6.127261500000000,I2C,0x0C + ACK
6.128198000000000,I2C,Setup Write to [0x3A] + ACK
6.128230750000000,I2C,0x1E + ACK
6.128262500000000,I2C,0x27 + ACK
6.129202000000000,I2C,Setup Write to [0x3A] + ACK
6.129234750000000,I2C,0x00 + ACK
6.129266750000000,I2C,0x13 + ACK
6.130204250000000,I2C,Setup Write to [0x3A] + ACK
6.130236750000000,I2C,0x00 + ACK
6.130268750000000,I2C,0x93 + ACK
6.131205250000000,I2C,Setup Write to [0x3A] + ACK
6.131238250000000,I2C,0x04 + ACK
6.131270250000000,I2C,0x05 + ACK
6.132206000000000,I2C,Setup Write to [0x3A] + ACK
6.132238750000000,I2C,0x1B + ACK
6.132270750000000,I2C,0xC3 + ACK
6.133200250000000,I2C,Setup Write to [0x3A] + ACK
6.133233000000000,I2C,0x0D + ACK
6.133264750000000,I2C,0xA5 + ACK
6.134205750000000,I2C,Setup Write to [0x3A] + ACK
6.134238500000000,I2C,0x1C + ACK
6.134270500000000,I2C,0x25 + ACK
6.135203250000000,I2C,Setup Write to [0x3A] + ACK
6.135235750000000,I2C,0x0E + ACK
6.135267750000000,I2C,0x95 + Missing ACK/NAK
6.136207250000000,I2C,Setup Write to [0x3A] + ACK
6.136240000000000,I2C,0x1A + ACK
6.136272000000000,I2C,0x4F + ACK
6.137202000000000,I2C,Setup Write to [0x3A] + ACK
6.137234750000000,I2C,0x1C + ACK
6.137266750000000,I2C,0x95 + ACK
6.138202000000000,I2C,Setup Write to [0x3A] + ACK
6.138234500000000,I2C,0x1B + ACK
6.138266500000000,I2C,0xC3 + ACK
6.139202250000000,I2C,Setup Write to [0x3A] + ACK
6.139235000000000,I2C,0x01 + ACK
6.139267000000000,I2C,0x0C + ACK
6.140205750000000,I2C,Setup Write to [0x3A] + ACK
6.140238500000000,I2C,0x17 + ACK
6.140270250000000,I2C,0x08 + ACK
6.141208000000000,I2C,Setup Write to [0x3A] + ACK
6.141241000000000,I2C,0x07 + ACK
6.141272750000000,I2C,0xF5 + ACK
6.142203750000000,I2C,Setup Write to [0x3A] + ACK
6.142236750000000,I2C,0x1E + ACK
6.142268500000000,I2C,0x27 + ACK
6.143204500000000,I2C,Setup Write to [0x3A] + ACK
6.143237250000000,I2C,0x06 + ACK
6.143269000000000,I2C,0x13 + ACK
6.144217000000000,I2C,Setup Write to [0x3A] + ACK
6.144250000000000,I2C,0x1B + ACK
6.144282000000000,I2C,0xC3 + ACK
6.145208250000000,I2C,Setup Write to [0x3A] + ACK
6.145240750000000,I2C,0x1F + ACK
6.145272750000000,I2C,0x27 + ACK
6.246248250000000,I2C,Setup Write to [0x3A] + ACK
6.246281750000000,I2C,0x1B + ACK
6.246314000000000,I2C,0xE3 + ACK
6.247243750000000,I2C,Setup Write to [0x3A] + ACK
6.247276750000000,I2C,0x03 + ACK
6.247308750000000,I2C,0xC0 + ACK
6.248244000000000,I2C,Setup Write to [0x3A] + ACK
6.248276750000000,I2C,0x02 + ACK
6.248308750000000,I2C,0x40 + ACK
