Time [s], Analyzer Name, Decoded Protocol Result
0.000011250000000,I2C,Setup Write to [0x3A] + ACK
0.000044750000000,I2C,0x00 + ACK
0.000077000000000,I2C,0x02 + ACK
0.000109000000000,I2C,0x44 + ACK
0.000141000000000,I2C,0x40 + ACK
0.000187000000000,I2C,0x40 + ACK
0.000218750000000,I2C,0x05 + ACK
0.000250750000000,I2C,0x69 + ACK
0.000282500000000,I2C,0x17 + ACK
0.000314500000000,I2C,0x75 + ACK
0.000346250000000,I2C,0x40 + ACK
0.000378250000000,I2C,0x40 + ACK
0.000410250000000,I2C,0x06 + ACK
0.000442000000000,I2C,0x08 + ACK
0.000474000000000,I2C,0x89 + ACK
0.000505750000000,I2C,0xA4 + ACK
0.000537750000000,I2C,0x95 + ACK
0.000569750000000,I2C,0x9C + ACK
0.000601500000000,I2C,0x73 + ACK
0.000633500000000,I2C,0x02 + ACK
0.000665250000000,I2C,0x72 + ACK
0.000697250000000,I2C,0x20 + ACK
0.000729000000000,I2C,0x0B + ACK
0.000761000000000,I2C,0xAA + ACK
0.000793000000000,I2C,0xAA + ACK
0.000824750000000,I2C,0x28 + ACK
0.000856750000000,I2C,0x30 + ACK
0.000888500000000,I2C,0x40 + ACK
0.000920500000000,I2C,0x87 + ACK
0.000952250000000,I2C,0xC2 + ACK
0.000984250000000,I2C,0x25 + ACK
0.001016250000000,I2C,0x30 + ACK
0.001048000000000,I2C,0x26 + ACK
0.001080000000000,I2C,0x47 + ACK
0.002881250000000,I2C,Setup Write to [0x3A] + ACK
0.002914000000000,I2C,0x0B + ACK
0.002945750000000,I2C,0x18 + ACK
0.003877750000000,I2C,Setup Write to [0x3A] + ACK
0.003910500000000,I2C,0x0A + ACK
0.003942500000000,I2C,0x0C + ACK
0.004897250000000,I2C,Setup Write to [0x3A] + ACK
0.004930250000000,I2C,0x0B + ACK
0.004962250000000,I2C,0x18 + ACK
0.005880000000000,I2C,Setup Write to [0x3A] + ACK
0.005912750000000,I2C,0x0B + ACK
0.005944500000000,I2C,0x18 + ACK
0.006877500000000,I2C,Setup Write to [0x3A] + ACK
0.006910000000000,I2C,0x03 + ACK
0.006942000000000,I2C,0x40 + ACK
0.007878250000000,I2C,Setup Write to [0x3A] + ACK
0.007911000000000,I2C,0x0A + ACK
0.007942750000000,I2C,0x0C + ACK
0.008878000000000,I2C,Setup Write to [0x3A] + ACK
0.008910750000000,I2C,0x04 + ACK
0.008942750000000,I2C,0x05 + ACK
0.009885750000000,I2C,Setup Write to [0x3A] + ACK
0.009918500000000,I2C,0x1E + ACK
0.009950250000000,I2C,0x26 + ACK
0.010881250000000,I2C,Setup Write to [0x3A] + ACK
0.010913750000000,I2C,0x1E + ACK
0.010945750000000,I2C,0x26 + ACK
0.011880500000000,I2C,Setup Write to [0x3A] + ACK
0.011913000000000,I2C,0x1E + ACK
0.011945000000000,I2C,0x27 + ACK
0.012881000000000,I2C,Setup Write to [0x3A] + ACK
0.012913500000000,I2C,0x12 + ACK
0.012945500000000,I2C,0x72 + ACK
0.013881250000000,I2C,Setup Write to [0x3A] + ACK
0.013914000000000,I2C,0x1E + ACK
0.013945750000000,I2C,0x27 + ACK
0.014895250000000,I2C,Setup Write to [0x3A] + ACK
0.014928000000000,I2C,0x1F + ACK
0.014960000000000,I2C,0x66 + ACK
0.015884000000000,I2C,Setup Write to [0x3A] + ACK
0.015916750000000,I2C,0x1B + ACK
0.015948750000000,I2C,0xC2 + ACK
0.016882250000000,I2C,Setup Write to [0x3A] + ACK
0.016915000000000,I2C,0x04 + ACK
0.016947000000000,I2C,0x05 + ACK
0.017881750000000,I2C,Setup Write to [0x3A] + ACK
0.017914500000000,I2C,0x0C + ACK
0.017946500000000,I2C,0x85 + ACK
0.018897250000000,I2C,Setup Write to [0x3A] + ACK
0.018929750000000,I2C,0x1A + ACK
0.018962000000000,I2C,0x8F + ACK
0.019900000000000,I2C,Setup Write to [0x3A] + ACK
0.019932750000000,I2C,0x05 + ACK
0.019965000000000,I2C,0x49 + ACK
0.020888250000000,I2C,Setup Write to [0x3A] + ACK
0.020921250000000,I2C,0x19 + ACK
0.020953250000000,I2C,0x40 + ACK
0.021883750000000,I2C,Setup Write to [0x3A] + ACK
0.021916250000000,I2C,0x01 + ACK
0.021948250000000,I2C,0x0C + ACK
0.022883500000000,I2C,Setup Write to [0x3A] + ACK
0.022916250000000,I2C,0x02 + ACK
0.022948250000000,I2C,0x40 + ACK
0.023884750000000,I2C,Setup Write to [0x3A] + ACK
0.023917500000000,I2C,0x08 + ACK
0.023949250000000,I2C,0x62 + ACK
0.024950000000000,I2C,Setup Write to [0x3A] + ACK
0.024983500000000,I2C,0x09 + ACK
0.025015750000000,I2C,0x40 + ACK
0.025892750000000,I2C,Setup Write to [0x3A] + ACK
0.025925750000000,I2C,0x03 + ACK
0.025957500000000,I2C,0x40 + ACK
0.026886750000000,I2C,Setup Write to [0x3A] + ACK
0.026919500000000,I2C,0x01 + ACK
0.026951500000000,I2C,0x0D + ACK
0.027887750000000,I2C,Setup Write to [0x3A] + ACK
0.027920250000000,I2C,0x1E + ACK
0.027952250000000,I2C,0xA7 + ACK
0.028888000000000,I2C,Setup Write to [0x3A] + ACK
0.028920500000000,I2C,0x11 + ACK
0.028952750000000,I2C,0x02 + ACK
0.029896750000000,I2C,Setup Write to [0x3A] + ACK
0.029929750000000,I2C,0x12 + ACK
0.029962000000000,I2C,0x72 + ACK
0.030890500000000,I2C,Setup Write to [0x3A] + ACK
0.030923250000000,I2C,0x0F + ACK
0.030955000000000,I2C,0xA4 + ACK
0.031889500000000,I2C,Setup Write to [0x3A] + ACK
0.031922250000000,I2C,0x10 + ACK
0.031954000000000,I2C,0x63 + ACK
0.032887500000000,I2C,Setup Write to [0x3A] + ACK
0.032920250000000,I2C,0x17 + ACK
0.032952000000000,I2C,0x28 + Missing ACK/NAK
0.033888250000000,I2C,Setup Write to [0x3A] + ACK
0.033921000000000,I2C,0x1D + ACK
0.033952750000000,I2C,0x30 + ACK
0.034895750000000,I2C,Setup Write to [0x3A] + ACK
0.034928500000000,I2C,0x13 + Missing ACK/NAK
0.034960250000000,I2C,Setup Write to [0x1C] + ACK
0.035891250000000,I2C,Setup Write to [0x3A] + ACK
0.035924000000000,I2C,0x10 + ACK
0.035956000000000,I2C,0x67 + ACK
0.036888750000000,I2C,Setup Write to [0x3A] + ACK
0.036921500000000,I2C,0x10 + ACK
0.036953500000000,I2C,0x67 + ACK
0.037890500000000,I2C,Setup Write to [0x3A] + ACK
0.037923250000000,I2C,0x14 + ACK
0.037955250000000,I2C,0xAE + ACK
0.038903500000000,I2C,Setup Write to [0x3A] + ACK
0.038936500000000,I2C,0x12 + ACK
0.038968750000000,I2C,0x72 + ACK
0.039901000000000,I2C,Setup Write to [0x3A] + ACK
0.039933750000000,I2C,0x16 + ACK
0.039965750000000,I2C,0x7F + ACK
0.040892500000000,I2C,Setup Write to [0x3A] + ACK
0.040925250000000,I2C,0x15 + ACK
0.040957000000000,I2C,0xFE + ACK
0.061899500000000,I2C,Setup Write to [0x3A] + ACK
0.061933500000000,I2C,0x00 + ACK
0.062657750000000,I2C,Setup Read to [0x3A] + ACK
0.062691000000000,I2C,0x69 + ACK
0.062723000000000,I2C,0xBD + ACK
0.062754500000000,I2C,0xEE + NAK
0.063584750000000,I2C,Setup Write to [0x3A] + ACK
0.063617250000000,I2C,0x00 + ACK
0.064342500000000,I2C,Setup Read to [0x3A] + ACK
0.064375000000000,I2C,0x69 + ACK
0.064406000000000,I2C,0xBD + ACK
0.064437000000000,I2C,0xEE + NAK
0.065268500000000,I2C,Setup Write to [0x3A] + ACK
0.065301000000000,I2C,0x00 + ACK
0.066025000000000,I2C,Setup Read to [0x3A] + ACK
0.066075500000000,I2C,Setup Read to [0x2B] + NAK
0.066106250000000,I2C,0x5D + NAK
0.066946750000000,I2C,Setup Write to [0x3A] + ACK
0.066979500000000,I2C,0x00 + ACK
0.067703750000000,I2C,Setup Read to [0x3A] + ACK
0.067735750000000,I2C,0x69 + ACK
0.067766750000000,I2C,0xBD + ACK
0.068623250000000,I2C,Setup Write to [0x3A] + ACK
0.068656250000000,I2C,0x1D + ACK
0.068688500000000,I2C,0xF0 + ACK
0.069905750000000,I2C,Setup Write to [0x3A] + ACK
0.069938500000000,I2C,0x01 + ACK
0.069970250000000,I2C,0x0C + ACK
0.070902250000000,I2C,Setup Write to [0x3A] + ACK
0.070935000000000,I2C,0x1E + ACK
0.070967000000000,I2C,0x27 + ACK
0.071909750000000,I2C,Setup Write to [0x3A] + ACK
0.071942250000000,I2C,0x00 + ACK
0.071974250000000,I2C,0x12 + ACK
0.072905250000000,I2C,Setup Write to [0x3A] + ACK
0.072937750000000,I2C,0x00 + ACK
0.072969750000000,I2C,0x92 + ACK
0.073903750000000,I2C,Setup Write to [0x3A] + ACK
0.073936500000000,I2C,0x04 + ACK
0.073968500000000,I2C,0x05 + ACK
0.074918500000000,I2C,Setup Write to [0x3A] + ACK
0.074951250000000,I2C,0x1B + ACK
0.074983250000000,I2C,0xC3 + ACK
0.075904250000000,I2C,Setup Write to [0x3A] + ACK
0.075937000000000,I2C,0x0D + ACK
0.075969000000000,I2C,0xA5 + ACK
0.076906750000000,I2C,Setup Write to [0x3A] + ACK
0.076939250000000,I2C,0x1C + ACK
0.076971250000000,I2C,0x25 + ACK
0.077915750000000,I2C,Setup Write to [0x3A] + ACK
0.077948750000000,I2C,0x0E + ACK
0.077980750000000,I2C,0x95 + ACK
0.078918250000000,I2C,Setup Write to [0x3A] + ACK
0.078951000000000,I2C,0x1A + ACK
0.078983250000000,I2C,0x4F + ACK
0.079912000000000,I2C,Setup Write to [0x3A] + ACK
0.079944750000000,I2C,0x1C + ACK
0.079976750000000,I2C,0x95 + ACK
0.080906250000000,I2C,Setup Write to [0x3A] + ACK
0.080939000000000,I2C,0x1B + ACK
0.080971000000000,I2C,0xC3 + ACK
0.081908750000000,I2C,Setup Write to [0x3A] + ACK
0.081941500000000,I2C,0x01 + ACK
0.081973250000000,I2C,0x0C + ACK
0.082908750000000,I2C,Setup Write to [0x3A] + ACK
0.082941750000000,I2C,0x17 + ACK
0.082973500000000,I2C,0x08 + ACK
0.083906750000000,I2C,Setup Write to [0x3A] + ACK
0.083939500000000,I2C,0x07 + ACK
0.083971250000000,I2C,0xF5 + ACK
0.084910500000000,I2C,Setup Write to [0x3A] + ACK
0.084943250000000,I2C,0x1E + ACK
0.084975250000000,I2C,0x27 + ACK
0.085908750000000,I2C,Setup Write to [0x3A] + ACK
0.085941500000000,I2C,0x06 + ACK
0.085973250000000,I2C,0x13 + Missing ACK/NAK
0.086911750000000,I2C,Setup Write to [0x3A] + ACK
0.086944500000000,I2C,0x1B + ACK
0.086976250000000,I2C,0xC3 + ACK
0.087910250000000,I2C,Setup Write to [0x3A] + ACK
0.087943000000000,I2C,0x1F + Missing ACK/NAK
0.087974750000000,I2C,Setup Read to [0x13] + ACK
0.188949250000000,I2C,Setup Write to [0x3A] + ACK
0.188982500000000,I2C,0x1B + ACK
0.189014750000000,I2C,0xE3 + ACK
0.189951750000000,I2C,Setup Write to [0x3A] + ACK
0.189984500000000,I2C,0x03 + ACK
0.190016500000000,I2C,0xC0 + ACK
0.190949500000000,I2C,Setup Write to [0x3A] + ACK
0.190982250000000,I2C,0x02 + ACK
0.191014250000000,I2C,0x40 + ACK
1.112925000000000,I2C,Setup Write to [0x3A] + ACK
1.112958500000000,I2C,0x00 + ACK
1.112990750000000,I2C,0x02 + ACK
1.113022750000000,I2C,0x44 + ACK
1.113054500000000,I2C,0x40 + ACK
1.113086500000000,I2C,0x40 + ACK
1.113118250000000,I2C,0x05 + ACK
1.113150250000000,I2C,0x69 + ACK
1.113182250000000,I2C,0x17 + ACK
1.113214000000000,I2C,0x75 + ACK
1.113246000000000,I2C,0x40 + ACK
1.113277750000000,I2C,0x40 + ACK
1.113309750000000,I2C,0x06 + ACK
1.113341500000000,I2C,0x08 + ACK
1.113373500000000,I2C,0x89 + ACK
1.113405500000000,I2C,0xA4 + ACK
1.113437250000000,I2C,0x95 + ACK
1.113469250000000,I2C,0x9C + ACK
1.113501000000000,I2C,0x73 + ACK
1.113533000000000,I2C,0x02 + ACK
1.113565000000000,I2C,0x72 + ACK
1.113602500000000,I2C,0x20 + ACK
1.113634500000000,I2C,0x0B + ACK
1.113666500000000,I2C,0xAA + ACK
1.113698250000000,I2C,0xAA + ACK
1.113730250000000,I2C,0x28 + ACK
1.113762000000000,I2C,0x30 + ACK
1.113794000000000,I2C,0x40 + ACK
1.113826000000000,I2C,0x87 + ACK
1.113857750000000,I2C,0xC2 + ACK
1.113889750000000,I2C,0x25 + ACK
1.113921500000000,I2C,0x30 + ACK
1.113953500000000,I2C,0x26 + ACK
1.113985250000000,I2C,0x47 + ACK
1.115316250000000,I2C,Setup Write to [0x3A] + ACK
1.115349250000000,I2C,0x0B + ACK
1.115381000000000,I2C,0x18 + ACK
1.116304000000000,I2C,Setup Write to [0x3A] + ACK
1.116336750000000,I2C,0x0A + ACK
1.116368750000000,I2C,0x0C + ACK
1.117301750000000,I2C,Setup Write to [0x3A] + ACK
1.117334750000000,I2C,0x0B + ACK
1.117366500000000,I2C,0x18 + ACK
1.118300000000000,I2C,Setup Write to [0x3A] + ACK
1.118332750000000,I2C,0x0B + ACK
1.118364750000000,I2C,0x18 + ACK
1.119300250000000,I2C,Setup Write to [0x3A] + ACK
1.119333000000000,I2C,0x03 + ACK
1.119364750000000,I2C,0x40 + ACK
1.120304750000000,I2C,0x74 + Missing ACK/NAK
1.120337750000000,I2C,Setup Write to [0x05] + ACK
1.120369500000000,I2C,0x0C + ACK
1.121304750000000,I2C,Setup Write to [0x3A] + ACK
1.121337500000000,I2C,0x04 + ACK
1.121369250000000,I2C,0x05 + ACK
1.122317000000000,I2C,Setup Write to [0x3A] + ACK
1.122350000000000,I2C,0x1E + ACK
1.122382250000000,I2C,0x26 + ACK
1.123303500000000,I2C,Setup Write to [0x3A] + ACK
1.123336250000000,I2C,0x1E + ACK
1.123368000000000,I2C,0x26 + ACK
1.124302750000000,I2C,Setup Write to [0x3A] + ACK
1.124335500000000,I2C,0x1E + ACK
1.124367500000000,I2C,0x27 + ACK
1.125380500000000,I2C,Setup Write to [0x3A] + ACK
1.125413750000000,I2C,0x12 + ACK
1.125446000000000,I2C,0x72 + ACK
1.126314500000000,I2C,Setup Write to [0x3A] + ACK
1.126347250000000,I2C,0x1E + ACK
1.126379250000000,I2C,0x27 + ACK
1.127306000000000,I2C,Setup Write to [0x3A] + ACK
1.127338750000000,I2C,0x1F + ACK
1.127370500000000,I2C,0x66 + ACK
1.128305750000000,I2C,Setup Write to [0x3A] + ACK
1.128338500000000,I2C,0x1B + ACK
1.128370500000000,I2C,0xC2 + ACK
1.129304750000000,I2C,Setup Write to [0x3A] + ACK
1.129337500000000,I2C,0x04 + ACK
1.129369500000000,I2C,0x05 + ACK
1.130311000000000,I2C,Setup Write to [0x3A] + ACK
1.130343750000000,I2C,0x0C + ACK
1.130375500000000,I2C,0x85 + ACK
1.131309500000000,I2C,Setup Write to [0x3A] + ACK
1.131342250000000,I2C,0x1A + ACK
1.131374250000000,I2C,0x8F + ACK
1.132315250000000,I2C,Setup Write to [0x3A] + ACK
1.132348250000000,I2C,0x05 + ACK
1.132380500000000,I2C,0x49 + ACK
1.133310000000000,I2C,Setup Write to [0x3A] + ACK
1.133343000000000,I2C,0x19 + ACK
1.133374750000000,I2C,0x40 + ACK
1.134306750000000,I2C,Setup Write to [0x3A] + ACK
1.134339500000000,I2C,0x01 + ACK
1.134371250000000,I2C,0x0C + ACK
1.135310750000000,I2C,Setup Write to [0x3A] + ACK
1.135343500000000,I2C,0x02 + ACK
1.135375250000000,I2C,0x40 + ACK
1.136311000000000,I2C,Setup Write to [0x3A] + ACK
1.136343750000000,I2C,0x08 + ACK
1.136375750000000,I2C,0x62 + ACK
1.137309000000000,I2C,Setup Write to [0x3A] + ACK
1.137341750000000,I2C,0x09 + ACK
1.137373500000000,I2C,0x40 + ACK
1.138307750000000,I2C,Setup Write to [0x3A] + ACK
1.138340500000000,I2C,0x03 + ACK
1.138372500000000,I2C,0x40 + ACK
1.139309500000000,I2C,Setup Write to [0x3A] + ACK
1.139342250000000,I2C,0x01 + ACK
1.139374000000000,I2C,0x0D + Missing ACK/NAK
1.140314750000000,I2C,Setup Write to [0x3A] + ACK
1.140347500000000,I2C,0x1E + ACK
1.140379500000000,I2C,0xA7 + ACK
1.141313500000000,I2C,Setup Write to [0x3A] + ACK
1.141346000000000,I2C,0x11 + ACK
1.141378250000000,I2C,0x02 + ACK
1.142325250000000,I2C,Setup Write to [0x3A] + ACK
1.142358000000000,I2C,0x12 + ACK
1.142390250000000,I2C,0x72 + ACK
1.143313000000000,I2C,Setup Write to [0x3A] + ACK
1.143346000000000,I2C,0x0F + ACK
1.143378000000000,I2C,0xA4 + ACK
1.144311500000000,I2C,Setup Write to [0x3A] + ACK
1.144344000000000,I2C,0x10 + ACK
1.144376000000000,I2C,0x63 + ACK
1.145331250000000,I2C,Setup Write to [0x3A] + ACK
1.145364250000000,I2C,0x17 + ACK
1.145396000000000,I2C,0x28 + ACK
1.147094500000000,I2C,Setup Write to [0x3A] + ACK
1.147127750000000,I2C,0x1D + ACK
1.147159750000000,I2C,0x30 + ACK
1.148310750000000,I2C,Setup Write to [0x3A] + ACK
1.148343500000000,I2C,0x13 + ACK
1.148375250000000,I2C,0x38 + ACK
1.149313000000000,I2C,Setup Write to [0x3A] + ACK
1.149345750000000,I2C,0x10 + ACK
1.149377500000000,I2C,0x67 + ACK
1.150318500000000,I2C,Setup Write to [0x3A] + ACK
1.150351250000000,I2C,0x10 + ACK
1.150383250000000,I2C,0x67 + ACK
1.151315000000000,I2C,Setup Write to [0x3A] + ACK
1.151347500000000,I2C,0x14 + ACK
1.151379500000000,I2C,0xAE + ACK
1.152320250000000,I2C,Setup Write to [0x3A] + ACK
1.152353000000000,I2C,0x12 + ACK
1.152385000000000,I2C,0x72 + ACK
1.153318250000000,I2C,Setup Write to [0x3A] + ACK
1.153351000000000,I2C,0x16 + ACK
1.153382750000000,I2C,0x7F + Missing ACK/NAK
1.154314250000000,I2C,Setup Write to [0x3A] + ACK
1.154347000000000,I2C,0x15 + ACK
1.154379000000000,I2C,0xFE + ACK
1.175327250000000,I2C,Setup Write to [0x3A] + ACK
1.175360500000000,I2C,0x00 + ACK
1.176085250000000,I2C,Setup Read to [0x3A] + ACK
1.176118500000000,I2C,0x69 + ACK
1.176172500000000,I2C,Setup Read to [0x5D] + NAK
1.177011000000000,I2C,Setup Write to [0x3A] + ACK
1.177043750000000,I2C,0x00 + ACK
1.177768000000000,I2C,Setup Read to [0x3A] + ACK
1.177799750000000,I2C,0x69 + ACK
1.177830500000000,I2C,0xBD + ACK
1.177861500000000,I2C,0xEE + NAK
1.178686250000000,I2C,Setup Write to [0x3A] + ACK
1.178718750000000,I2C,0x00 + ACK
1.179442750000000,I2C,Setup Read to [0x3A] + ACK
1.179493250000000,I2C,Setup Read to [0x2B] + NAK
1.179524000000000,I2C,0x5D + NAK
1.180365000000000,I2C,Setup Write to [0x3A] + ACK
1.180397500000000,I2C,0x00 + ACK
1.181121750000000,I2C,Setup Read to [0x3A] + ACK
1.181153750000000,I2C,0x69 + ACK
1.181184500000000,I2C,0xBD + ACK
1.182040250000000,I2C,Setup Write to [0x3A] + ACK
1.182072750000000,I2C,0x1D + ACK
1.182104750000000,I2C,0xF0 + ACK
1.183325750000000,I2C,Setup Write to [0x3A] + ACK
1.183358500000000,I2C,0x01 + ACK
1.183390750000000,I2C,0x0C + ACK
1.184328250000000,I2C,Setup Write to [0x3A] + ACK
1.184361000000000,I2C,0x1E + ACK
1.184393000000000,I2C,0x27 + ACK
1.185341500000000,I2C,Setup Write to [0x3A] + ACK
1.185374250000000,I2C,0x00 + ACK
1.185406250000000,I2C,0x12 + ACK
1.186329250000000,I2C,Setup Write to [0x3A] + ACK
1.186362000000000,I2C,0x00 + ACK
1.186393750000000,I2C,0x92 + ACK
1.187327250000000,I2C,Setup Write to [0x3A] + ACK
1.187360000000000,I2C,0x04 + ACK
1.187391750000000,I2C,0x05 + ACK
1.188332500000000,I2C,Setup Write to [0x3A] + ACK
1.188365250000000,I2C,0x1B + ACK
1.188397000000000,I2C,0xC3 + ACK
1.189330000000000,I2C,Setup Write to [0x3A] + ACK
1.189362500000000,I2C,0x0D + ACK
1.189394500000000,I2C,0xA5 + ACK
1.190333000000000,I2C,Setup Write to [0x3A] + ACK
1.190365750000000,I2C,0x1C + ACK
1.190397750000000,I2C,0x25 + ACK
1.191328250000000,I2C,Setup Write to [0x3A] + ACK
1.191361000000000,I2C,0x0E + ACK
1.191393000000000,I2C,0x95 + ACK
1.192328500000000,I2C,Setup Write to [0x3A] + ACK
1.192361250000000,I2C,0x1A + ACK
1.192393250000000,I2C,0x4F + ACK
1.193328500000000,I2C,Setup Write to [0x3A] + ACK
1.193361250000000,I2C,0x1C + ACK
1.193393250000000,I2C,0x95 + ACK
1.194332500000000,I2C,Setup Write to [0x3A] + ACK
1.194365000000000,I2C,0x1B + ACK
1.194397000000000,I2C,0xC3 + ACK
1.195335250000000,I2C,Setup Write to [0x3A] + ACK
1.195368250000000,I2C,0x01 + ACK
1.195400250000000,I2C,0x0C + ACK
1.196330750000000,I2C,Setup Write to [0x3A] + ACK
1.196363500000000,I2C,0x17 + Missing ACK/NAK
1.196395250000000,I2C,Setup Write to [0x04] + ACK
1.197332000000000,I2C,Setup Write to [0x3A] + ACK
1.197364750000000,I2C,0x07 + ACK
1.197396750000000,I2C,0xF5 + ACK
1.198330750000000,I2C,Setup Write to [0x3A] + ACK
1.198363500000000,I2C,0x1E + ACK
1.198395500000000,I2C,0x27 + ACK
1.199334000000000,I2C,Setup Write to [0x3A] + ACK
1.199366750000000,I2C,0x06 + ACK
1.199398500000000,I2C,0x13 + ACK
1.200349000000000,I2C,Setup Write to [0x3A] + ACK
1.200381750000000,I2C,0x1B + ACK
1.200414000000000,I2C,0xC3 + ACK
1.201334000000000,I2C,Setup Write to [0x3A] + ACK
1.201366500000000,I2C,0x1F + ACK
1.201398500000000,I2C,0x27 + Missing ACK/NAK
1.202345750000000,I2C,Setup Write to [0x3A] + ACK
1.202378750000000,I2C,0x03 + ACK
1.202411000000000,I2C,0x40 + ACK
1.203334000000000,I2C,Setup Write to [0x3A] + ACK
1.203366500000000,I2C,0x02 + ACK
1.203398500000000,I2C,0x40 + ACK
3.032176500000000,I2C,Setup Write to [0x3A] + ACK
3.032209750000000,I2C,0x00 + ACK
3.032242000000000,I2C,0x02 + ACK
3.032273750000000,I2C,0x44 + ACK
3.032305750000000,I2C,0x40 + ACK
3.032338000000000,I2C,0x40 + ACK
3.032369750000000,I2C,0x05 + ACK
3.032401750000000,I2C,0x69 + ACK
3.032433750000000,I2C,0x17 + ACK
3.032465500000000,I2C,0x75 + ACK
3.032497500000000,I2C,0x40 + ACK
3.032529250000000,I2C,0x40 + ACK
3.032561250000000,I2C,0x06 + ACK
3.032593250000000,I2C,0x08 + ACK
3.032625000000000,I2C,0x89 + ACK
3.032657000000000,I2C,0xA4 + ACK
3.032688750000000,I2C,0x95 + ACK
3.032720750000000,I2C,0x9C + ACK
3.032752500000000,I2C,0x73 + ACK
3.032784500000000,I2C,0x02 + ACK
3.032816500000000,I2C,0x72 + ACK
3.032848250000000,I2C,0x20 + ACK
3.032880250000000,I2C,0x0B + ACK
3.032912000000000,I2C,0xAA + ACK
3.032944000000000,I2C,0xAA + ACK
3.032975750000000,I2C,0x28 + ACK
3.033007750000000,I2C,0x30 + ACK
3.033039750000000,I2C,0x40 + ACK
3.033071500000000,I2C,0x87 + ACK
