Time [s], Analyzer Name, Decoded Protocol Result
0.000011250000000,I2C,Setup Write to [0x3A] + ACK
0.000044750000000,I2C,0x00 + ACK
0.000077000000000,I2C,0x02 + ACK
0.000109000000000,I2C,0x44 + ACK
0.000141000000000,I2C,0x40 + ACK
0.000187000000000,I2C,0x40 + ACK
0.000218750000000,I2C,0x05 + ACK
0.000250750000000,I2C,0x69 + ACK
0.000282500000000,I2C,0x17 + ACK
0.000314500000000,I2C,0x75 + ACK
0.000346250000000,I2C,0x40 + ACK
0.000378250000000,I2C,0x40 + ACK
0.000410250000000,I2C,0x06 + ACK
0.000442000000000,I2C,0x08 + ACK
0.000474000000000,I2C,0x89 + ACK
0.000505750000000,I2C,0xA4 + ACK
0.000537750000000,I2C,0x95 + ACK
0.000569750000000,I2C,0x9C + ACK
0.000601500000000,I2C,0x73 + ACK
0.000633500000000,I2C,0x02 + ACK
0.000665250000000,I2C,0x72 + ACK
0.000697250000000,I2C,0x20 + ACK
0.000729000000000,I2C,0x0B + ACK
0.000761000000000,I2C,0xAA + ACK
0.000793000000000,I2C,0xAA + ACK
0.000824750000000,I2C,0x28 + ACK
0.000856750000000,I2C,0x30 + ACK
0.000888500000000,I2C,0x40 + ACK
0.000920500000000,I2C,0x87 + ACK
0.000952250000000,I2C,0xC2 + ACK
0.000984250000000,I2C,0x25 + ACK
0.001016250000000,I2C,0x30 + ACK
0.001048000000000,I2C,0x26 + ACK
0.001080000000000,I2C,0x47 + ACK
0.002881250000000,I2C,Setup Write to [0x3A] + ACK
0.002914000000000,I2C,0x0B + ACK
0.002945750000000,I2C,0x18 + ACK
0.003877750000000,I2C,Setup Write to [0x3A] + ACK
0.003910500000000,I2C,0x0A + ACK
0.003942500000000,I2C,0x0C + ACK
0.004897250000000,I2C,Setup Write to [0x3A] + ACK
0.004930250000000,I2C,0x0B + ACK
0.004962250000000,I2C,0x18 + ACK
0.005880000000000,I2C,Setup Write to [0x3A] + ACK
0.005912750000000,I2C,0x0B + ACK
0.005944500000000,I2C,0x18 + ACK
0.006877500000000,I2C,Setup Write to [0x3A] + ACK
0.006910000000000,I2C,0x03 + ACK
0.006942000000000,I2C,0x40 + ACK
0.007878250000000,I2C,Setup Write to [0x3A] + ACK
0.007911000000000,I2C,0x0A + ACK
0.007942750000000,I2C,0x0C + ACK
0.008878000000000,I2C,Setup Write to [0x3A] + ACK
0.008910750000000,I2C,0x04 + ACK
0.008942750000000,I2C,0x05 + ACK
0.009885750000000,I2C,Setup Write to [0x3A] + ACK
0.009918500000000,I2C,0x1E + ACK
0.009950250000000,I2C,0x26 + ACK
0.010881250000000,I2C,Setup Write to [0x3A] + ACK
0.010913750000000,I2C,0x1E + ACK
0.010945750000000,I2C,0x26 + ACK
0.011880500000000,I2C,Setup Write to [0x3A] + ACK
0.011913000000000,I2C,0x1E + ACK
0.011945000000000,I2C,0x27 + ACK
0.012881000000000,I2C,Setup Write to [0x3A] + ACK
0.012913500000000,I2C,0x12 + ACK
0.012945500000000,I2C,0x72 + ACK
0.013881250000000,I2C,Setup Write to [0x3A] + ACK
0.013914000000000,I2C,0x1E + ACK
0.013945750000000,I2C,0x27 + ACK
0.014895250000000,I2C,Setup Write to [0x3A] + ACK
0.014928000000000,I2C,0x1F + ACK
0.014960000000000,I2C,0x66 + ACK
0.015884000000000,I2C,Setup Write to [0x3A] + ACK
0.015916750000000,I2C,0x1B + ACK
0.015948750000000,I2C,0xC2 + ACK
0.016882250000000,I2C,Setup Write to [0x3A] + ACK
0.016915000000000,I2C,0x04 + ACK
0.016947000000000,I2C,0x05 + ACK
0.017881750000000,I2C,Setup Write to [0x3A] + ACK
0.017914500000000,I2C,0x0C + ACK
0.017946500000000,I2C,0x85 + ACK
0.018897250000000,I2C,Setup Write to [0x3A] + ACK
0.018929750000000,I2C,0x1A + ACK
0.018962000000000,I2C,0x8F + ACK
0.019900000000000,I2C,Setup Write to [0x3A] + ACK
0.019932750000000,I2C,0x05 + ACK
0.019965000000000,I2C,0x49 + ACK
0.020888250000000,I2C,Setup Write to [0x3A] + ACK
0.020921250000000,I2C,0x19 + ACK
0.020953250000000,I2C,0x40 + ACK
0.021883750000000,I2C,Setup Write to [0x3A] + ACK
0.021916250000000,I2C,0x01 + ACK
0.021948250000000,I2C,0x0C + ACK
0.022883500000000,I2C,Setup Write to [0x3A] + ACK
0.022916250000000,I2C,0x02 + ACK
0.022948250000000,I2C,0x40 + ACK
0.023884750000000,I2C,Setup Write to [0x3A] + ACK
0.023917500000000,I2C,0x08 + ACK
0.023949250000000,I2C,0x62 + ACK
0.024950000000000,I2C,Setup Write to [0x3A] + ACK
0.024983500000000,I2C,0x09 + ACK
0.025015750000000,I2C,0x40 + ACK
0.025892750000000,I2C,Setup Write to [0x3A] + ACK
0.025925750000000,I2C,0x03 + ACK
0.025957500000000,I2C,0x40 + ACK
0.026886750000000,I2C,Setup Write to [0x3A] + ACK
0.026919500000000,I2C,0x01 + ACK
0.026951500000000,I2C,0x0D + ACK
0.027887750000000,I2C,Setup Write to [0x3A] + ACK
0.027920250000000,I2C,0x1E + ACK
0.027952250000000,I2C,0xA7 + ACK
0.028888000000000,I2C,Setup Write to [0x3A] + ACK
0.028920500000000,I2C,0x11 + ACK
0.028952750000000,I2C,0x02 + ACK
0.029896750000000,I2C,Setup Write to [0x3A] + ACK
0.029929750000000,I2C,0x12 + ACK
0.029962000000000,I2C,0x72 + ACK
0.030890500000000,I2C,Setup Write to [0x3A] + ACK
0.030923250000000,I2C,0x0F + ACK
0.030955000000000,I2C,0xA4 + ACK
0.031889500000000,I2C,Setup Write to [0x3A] + ACK
0.031922250000000,I2C,0x10 + ACK
0.031954000000000,I2C,0x63 + ACK
0.032887500000000,I2C,Setup Write to [0x3A] + ACK
0.032920250000000,I2C,0x17 + ACK
0.032952000000000,I2C,0x28 + Missing ACK/NAK
0.033888250000000,I2C,Setup Write to [0x3A] + ACK
0.033921000000000,I2C,0x1D + ACK
0.033952750000000,I2C,0x30 + ACK
0.034895750000000,I2C,Setup Write to [0x3A] + ACK
0.034928500000000,I2C,0x13 + Missing ACK/NAK
0.034960250000000,I2C,Setup Write to [0x1C] + ACK
0.035891250000000,I2C,Setup Write to [0x3A] + ACK
0.035924000000000,I2C,0x10 + ACK
0.035956000000000,I2C,0x67 + ACK
0.036888750000000,I2C,Setup Write to [0x3A] + ACK
0.036921500000000,I2C,0x10 + ACK
0.036953500000000,I2C,0x67 + ACK
0.037890500000000,I2C,Setup Write to [0x3A] + ACK
0.037923250000000,I2C,0x14 + ACK
0.037955250000000,I2C,0xAE + ACK
0.038903500000000,I2C,Setup Write to [0x3A] + ACK
0.038936500000000,I2C,0x12 + ACK
0.038968750000000,I2C,0x72 + ACK
0.039901000000000,I2C,Setup Write to [0x3A] + ACK
0.039933750000000,I2C,0x16 + ACK
0.039965750000000,I2C,0x7F + ACK
0.040892500000000,I2C,Setup Write to [0x3A] + ACK
0.040925250000000,I2C,0x15 + ACK
0.040957000000000,I2C,0xFE + ACK
0.061899500000000,I2C,Setup Write to [0x3A] + ACK
0.061933500000000,I2C,0x00 + ACK
0.062657750000000,I2C,Setup Read to [0x3A] + ACK
0.062691000000000,I2C,0x69 + ACK
0.062723000000000,I2C,0xBD + ACK
0.062754500000000,I2C,0xEE + NAK
0.063584750000000,I2C,Setup Write to [0x3A] + ACK
0.063617250000000,I2C,0x00 + ACK
0.064342500000000,I2C,Setup Read to [0x3A] + ACK
0.064375000000000,I2C,0x69 + ACK
0.064406000000000,I2C,0xBD + ACK
0.064437000000000,I2C,0xEE + NAK
0.065268500000000,I2C,Setup Write to [0x3A] + ACK
0.065301000000000,I2C,0x00 + ACK
0.066025000000000,I2C,Setup Read to [0x3A] + ACK
0.066075500000000,I2C,Setup Read to [0x2B] + NAK
0.066106250000000,I2C,0x5D + NAK
0.066946750000000,I2C,Setup Write to [0x3A] + ACK
0.066979500000000,I2C,0x00 + ACK
0.067703750000000,I2C,Setup Read to [0x3A] + ACK
0.067735750000000,I2C,0x69 + ACK
0.067766750000000,I2C,0xBD + ACK
0.068623250000000,I2C,Setup Write to [0x3A] + ACK
0.068656250000000,I2C,0x1D + ACK
0.068688500000000,I2C,0xF0 + ACK
0.069905750000000,I2C,Setup Write to [0x3A] + ACK
0.069938500000000,I2C,0x01 + ACK
0.069970250000000,I2C,0x0C + ACK
0.070902250000000,I2C,Setup Write to [0x3A] + ACK
0.070935000000000,I2C,0x1E + ACK
0.070967000000000,I2C,0x27 + ACK
0.071909750000000,I2C,Setup Write to [0x3A] + ACK
0.071942250000000,I2C,0x00 + ACK
0.071974250000000,I2C,0x12 + ACK
0.072905250000000,I2C,Setup Write to [0x3A] + ACK
0.072937750000000,I2C,0x00 + ACK
0.072969750000000,I2C,0x92 + ACK
0.073903750000000,I2C,Setup Write to [0x3A] + ACK
0.073936500000000,I2C,0x04 + ACK
0.073968500000000,I2C,0x05 + ACK
0.074918500000000,I2C,Setup Write to [0x3A] + ACK
0.074951250000000,I2C,0x1B + ACK
0.074983250000000,I2C,0xC3 + ACK
0.075904250000000,I2C,Setup Write to [0x3A] + ACK
0.075937000000000,I2C,0x0D + ACK
0.075969000000000,I2C,0xA5 + ACK
0.076906750000000,I2C,Setup Write to [0x3A] + ACK
0.076939250000000,I2C,0x1C + ACK
0.076971250000000,I2C,0x25 + ACK
0.077915750000000,I2C,Setup Write to [0x3A] + ACK
0.077948750000000,I2C,0x0E + ACK
0.077980750000000,I2C,0x95 + ACK
0.078918250000000,I2C,Setup Write to [0x3A] + ACK
0.078951000000000,I2C,0x1A + ACK
0.078983250000000,I2C,0x4F + ACK
0.079912000000000,I2C,Setup Write to [0x3A] + ACK
0.079944750000000,I2C,0x1C + ACK
0.079976750000000,I2C,0x95 + ACK
0.080906250000000,I2C,Setup Write to [0x3A] + ACK
0.080939000000000,I2C,0x1B + ACK
0.080971000000000,I2C,0xC3 + ACK
0.081908750000000,I2C,Setup Write to [0x3A] + ACK
0.081941500000000,I2C,0x01 + ACK
0.081973250000000,I2C,0x0C + ACK
0.082908750000000,I2C,Setup Write to [0x3A] + ACK
0.082941750000000,I2C,0x17 + ACK
0.082973500000000,I2C,0x08 + ACK
0.083906750000000,I2C,Setup Write to [0x3A] + ACK
0.083939500000000,I2C,0x07 + ACK
0.083971250000000,I2C,0xF5 + ACK
0.084910500000000,I2C,Setup Write to [0x3A] + ACK
0.084943250000000,I2C,0x1E + ACK
0.084975250000000,I2C,0x27 + ACK
0.085908750000000,I2C,Setup Write to [0x3A] + ACK
0.085941500000000,I2C,0x06 + ACK
0.085973250000000,I2C,0x13 + Missing ACK/NAK
0.086911750000000,I2C,Setup Write to [0x3A] + ACK
0.086944500000000,I2C,0x1B + ACK
0.086976250000000,I2C,0xC3 + ACK
0.087910250000000,I2C,Setup Write to [0x3A] + ACK
0.087943000000000,I2C,0x1F + Missing ACK/NAK
0.087974750000000,I2C,Setup Read to [0x13] + ACK
0.188949250000000,I2C,Setup Write to [0x3A] + ACK
0.188982500000000,I2C,0x1B + ACK
0.189014750000000,I2C,0xE3 + ACK
0.189951750000000,I2C,Setup Write to [0x3A] + ACK
0.189984500000000,I2C,0x03 + ACK
0.190016500000000,I2C,0xC0 + ACK
0.190949500000000,I2C,Setup Write to [0x3A] + ACK
0.190982250000000,I2C,0x02 + ACK
0.191014250000000,I2C,0x40 + ACK
1.112925000000000,I2C,Setup Write to [0x3A] + ACK
1.112958500000000,I2C,0x00 + ACK
1.112990750000000,I2C,0x02 + ACK
1.113022750000000,I2C,0x44 + ACK
1.113054500000000,I2C,0x40 + ACK
1.113086500000000,I2C,0x40 + ACK
1.113118250000000,I2C,0x05 + ACK
1.113150250000000,I2C,0x69 + ACK
1.113182250000000,I2C,0x17 + ACK
1.113214000000000,I2C,0x75 + ACK
1.113246000000000,I2C,0x40 + ACK
1.113277750000000,I2C,0x40 + ACK
1.113309750000000,I2C,0x06 + ACK
1.113341500000000,I2C,0x08 + ACK
1.113373500000000,I2C,0x89 + ACK
1.113405500000000,I2C,0xA4 + ACK
1.113437250000000,I2C,0x95 + ACK
1.113469250000000,I2C,0x9C + ACK
1.113501000000000,I2C,0x73 + ACK
1.113533000000000,I2C,0x02 + ACK
1.113565000000000,I2C,0x72 + ACK
1.113602500000000,I2C,0x20 + ACK
1.113634500000000,I2C,0x0B + ACK
1.113666500000000,I2C,0xAA + ACK
1.113698250000000,I2C,0xAA + ACK
1.113730250000000,I2C,0x28 + ACK
1.113762000000000,I2C,0x30 + ACK
1.113794000000000,I2C,0x40 + ACK
1.113826000000000,I2C,0x87 + ACK
1.113857750000000,I2C,0xC2 + ACK
1.113889750000000,I2C,0x25 + ACK
1.113921500000000,I2C,0x30 + ACK
1.113953500000000,I2C,0x26 + ACK
1.113985250000000,I2C,0x47 + ACK
1.115316250000000,I2C,Setup Write to [0x3A] + ACK
1.115349250000000,I2C,0x0B + ACK
1.115381000000000,I2C,0x18 + ACK
1.116304000000000,I2C,Setup Write to [0x3A] + ACK
1.116336750000000,I2C,0x0A + ACK
1.116368750000000,I2C,0x0C + ACK
1.117301750000000,I2C,Setup Write to [0x3A] + ACK
1.117334750000000,I2C,0x0B + ACK
1.117366500000000,I2C,0x18 + ACK
1.118300000000000,I2C,Setup Write to [0x3A] + ACK
1.118332750000000,I2C,0x0B + ACK
1.118364750000000,I2C,0x18 + ACK
1.119300250000000,I2C,Setup Write to [0x3A] + ACK
1.119333000000000,I2C,0x03 + ACK
1.119364750000000,I2C,0x40 + ACK
1.120304750000000,I2C,0x74 + Missing ACK/NAK
1.120337750000000,I2C,Setup Write to [0x05] + ACK
1.120369500000000,I2C,0x0C + ACK
1.121304750000000,I2C,Setup Write to [0x3A] + ACK
1.121337500000000,I2C,0x04 + ACK
1.121369250000000,I2C,0x05 + ACK
1.122317000000000,I2C,Setup Write to [0x3A] + ACK
1.122350000000000,I2C,0x1E + ACK
1.122382250000000,I2C,0x26 + ACK
1.123303500000000,I2C,Setup Write to [0x3A] + ACK
1.123336250000000,I2C,0x1E + ACK
1.123368000000000,I2C,0x26 + ACK
1.124302750000000,I2C,Setup Write to [0x3A] + ACK
1.124335500000000,I2C,0x1E + ACK
1.124367500000000,I2C,0x27 + ACK
1.125380500000000,I2C,Setup Write to [0x3A] + ACK
1.125413750000000,I2C,0x12 + ACK
1.125446000000000,I2C,0x72 + ACK
1.126314500000000,I2C,Setup Write to [0x3A] + ACK
1.126347250000000,I2C,0x1E + ACK
1.126379250000000,I2C,0x27 + ACK
1.127306000000000,I2C,Setup Write to [0x3A] + ACK
1.127338750000000,I2C,0x1F + ACK
1.127370500000000,I2C,0x66 + ACK
1.128305750000000,I2C,Setup Write to [0x3A] + ACK
1.128338500000000,I2C,0x1B + ACK
1.128370500000000,I2C,0xC2 + ACK
1.129304750000000,I2C,Setup Write to [0x3A] + ACK
1.129337500000000,I2C,0x04 + ACK
1.129369500000000,I2C,0x05 + ACK
1.130311000000000,I2C,Setup Write to [0x3A] + ACK
1.130343750000000,I2C,0x0C + ACK
1.130375500000000,I2C,0x85 + ACK
1.131309500000000,I2C,Setup Write to [0x3A] + ACK
1.131342250000000,I2C,0x1A + ACK
1.131374250000000,I2C,0x8F + ACK
1.132315250000000,I2C,Setup Write to [0x3A] + ACK
1.132348250000000,I2C,0x05 + ACK
1.132380500000000,I2C,0x49 + ACK
1.133310000000000,I2C,Setup Write to [0x3A] + ACK
1.133343000000000,I2C,0x19 + ACK
1.133374750000000,I2C,0x40 + ACK
1.134306750000000,I2C,Setup Write to [0x3A] + ACK
1.134339500000000,I2C,0x01 + ACK
1.134371250000000,I2C,0x0C + ACK
1.135310750000000,I2C,Setup Write to [0x3A] + ACK
1.135343500000000,I2C,0x02 + ACK
1.135375250000000,I2C,0x40 + ACK
1.136311000000000,I2C,Setup Write to [0x3A] + ACK
1.136343750000000,I2C,0x08 + ACK
1.136375750000000,I2C,0x62 + ACK
1.137309000000000,I2C,Setup Write to [0x3A] + ACK
1.137341750000000,I2C,0x09 + ACK
1.137373500000000,I2C,0x40 + ACK
1.138307750000000,I2C,Setup Write to [0x3A] + ACK
1.138340500000000,I2C,0x03 + ACK
1.138372500000000,I2C,0x40 + ACK
1.139309500000000,I2C,Setup Write to [0x3A] + ACK
1.139342250000000,I2C,0x01 + ACK
1.139374000000000,I2C,0x0D + Missing ACK/NAK
1.140314750000000,I2C,Setup Write to [0x3A] + ACK
1.140347500000000,I2C,0x1E + ACK
1.140379500000000,I2C,0xA7 + ACK
1.141313500000000,I2C,Setup Write to [0x3A] + ACK
1.141346000000000,I2C,0x11 + ACK
1.141378250000000,I2C,0x02 + ACK
1.142325250000000,I2C,Setup Write to [0x3A] + ACK
1.142358000000000,I2C,0x12 + ACK
1.142390250000000,I2C,0x72 + ACK
1.143313000000000,I2C,Setup Write to [0x3A] + ACK
1.143346000000000,I2C,0x0F + ACK
1.143378000000000,I2C,0xA4 + ACK
1.144311500000000,I2C,Setup Write to [0x3A] + ACK
1.144344000000000,I2C,0x10 + ACK
1.144376000000000,I2C,0x63 + ACK
1.145331250000000,I2C,Setup Write to [0x3A] + ACK
1.145364250000000,I2C,0x17 + ACK
1.145396000000000,I2C,0x28 + ACK
1.147094500000000,I2C,Setup Write to [0x3A] + ACK
1.147127750000000,I2C,0x1D + ACK
1.147159750000000,I2C,0x30 + ACK
1.148310750000000,I2C,Setup Write to [0x3A] + ACK
1.148343500000000,I2C,0x13 + ACK
1.148375250000000,I2C,0x38 + ACK
1.149313000000000,I2C,Setup Write to [0x3A] + ACK
1.149345750000000,I2C,0x10 + ACK
1.149377500000000,I2C,0x67 + ACK
1.150318500000000,I2C,Setup Write to [0x3A] + ACK
1.150351250000000,I2C,0x10 + ACK
1.150383250000000,I2C,0x67 + ACK
1.151315000000000,I2C,Setup Write to [0x3A] + ACK
1.151347500000000,I2C,0x14 + ACK
1.151379500000000,I2C,0xAE + ACK
1.152320250000000,I2C,Setup Write to [0x3A] + ACK
1.152353000000000,I2C,0x12 + ACK
1.152385000000000,I2C,0x72 + ACK
1.153318250000000,I2C,Setup Write to [0x3A] + ACK
1.153351000000000,I2C,0x16 + ACK
1.153382750000000,I2C,0x7F + Missing ACK/NAK
1.154314250000000,I2C,Setup Write to [0x3A] + ACK
1.154347000000000,I2C,0x15 + ACK
1.154379000000000,I2C,0xFE + ACK
1.175327250000000,I2C,Setup Write to [0x3A] + ACK
1.175360500000000,I2C,0x00 + ACK
1.176085250000000,I2C,Setup Read to [0x3A] + ACK
1.176118500000000,I2C,0x69 + ACK
1.176172500000000,I2C,Setup Read to [0x5D] + NAK
1.177011000000000,I2C,Setup Write to [0x3A] + ACK
1.177043750000000,I2C,0x00 + ACK
1.177768000000000,I2C,Setup Read to [0x3A] + ACK
1.177799750000000,I2C,0x69 + ACK
1.177830500000000,I2C,0xBD + ACK
1.177861500000000,I2C,0xEE + NAK
1.178686250000000,I2C,Setup Write to [0x3A] + ACK
1.178718750000000,I2C,0x00 + ACK
1.179442750000000,I2C,Setup Read to [0x3A] + ACK
1.179493250000000,I2C,Setup Read to [0x2B] + NAK
1.179524000000000,I2C,0x5D + NAK
1.180365000000000,I2C,Setup Write to [0x3A] + ACK
1.180397500000000,I2C,0x00 + ACK
1.181121750000000,I2C,Setup Read to [0x3A] + ACK
1.181153750000000,I2C,0x69 + ACK
1.181184500000000,I2C,0xBD + ACK
1.182040250000000,I2C,Setup Write to [0x3A] + ACK
1.182072750000000,I2C,0x1D + ACK
1.182104750000000,I2C,0xF0 + ACK
1.183325750000000,I2C,Setup Write to [0x3A] + ACK
1.183358500000000,I2C,0x01 + ACK
1.183390750000000,I2C,0x0C + ACK
1.184328250000000,I2C,Setup Write to [0x3A] + ACK
1.184361000000000,I2C,0x1E + ACK
1.184393000000000,I2C,0x27 + ACK
1.185341500000000,I2C,Setup Write to [0x3A] + ACK
1.185374250000000,I2C,0x00 + ACK
1.185406250000000,I2C,0x12 + ACK
1.186329250000000,I2C,Setup Write to [0x3A] + ACK
1.186362000000000,I2C,0x00 + ACK
1.186393750000000,I2C,0x92 + ACK
1.187327250000000,I2C,Setup Write to [0x3A] + ACK
1.187360000000000,I2C,0x04 + ACK
1.187391750000000,I2C,0x05 + ACK
1.188332500000000,I2C,Setup Write to [0x3A] + ACK
1.188365250000000,I2C,0x1B + ACK
1.188397000000000,I2C,0xC3 + ACK
1.189330000000000,I2C,Setup Write to [0x3A] + ACK
1.189362500000000,I2C,0x0D + ACK
1.189394500000000,I2C,0xA5 + ACK
1.190333000000000,I2C,Setup Write to [0x3A] + ACK
1.190365750000000,I2C,0x1C + ACK
1.190397750000000,I2C,0x25 + ACK
1.191328250000000,I2C,Setup Write to [0x3A] + ACK
1.191361000000000,I2C,0x0E + ACK
1.191393000000000,I2C,0x95 + ACK
1.192328500000000,I2C,Setup Write to [0x3A] + ACK
1.192361250000000,I2C,0x1A + ACK
1.192393250000000,I2C,0x4F + ACK
1.193328500000000,I2C,Setup Write to [0x3A] + ACK
1.193361250000000,I2C,0x1C + ACK
1.193393250000000,I2C,0x95 + ACK
1.194332500000000,I2C,Setup Write to [0x3A] + ACK
1.194365000000000,I2C,0x1B + ACK
1.194397000000000,I2C,0xC3 + ACK
1.195335250000000,I2C,Setup Write to [0x3A] + ACK
1.195368250000000,I2C,0x01 + ACK
1.195400250000000,I2C,0x0C + ACK
1.196330750000000,I2C,Setup Write to [0x3A] + ACK
1.196363500000000,I2C,0x17 + Missing ACK/NAK
1.196395250000000,I2C,Setup Write to [0x04] + ACK
1.197332000000000,I2C,Setup Write to [0x3A] + ACK
1.197364750000000,I2C,0x07 + ACK
1.197396750000000,I2C,0xF5 + ACK
1.198330750000000,I2C,Setup Write to [0x3A] + ACK
1.198363500000000,I2C,0x1E + ACK
1.198395500000000,I2C,0x27 + ACK
1.199334000000000,I2C,Setup Write to [0x3A] + ACK
1.199366750000000,I2C,0x06 + ACK
1.199398500000000,I2C,0x13 + ACK
1.200349000000000,I2C,Setup Write to [0x3A] + ACK
1.200381750000000,I2C,0x1B + ACK
1.200414000000000,I2C,0xC3 + ACK
1.201334000000000,I2C,Setup Write to [0x3A] + ACK
1.201366500000000,I2C,0x1F + ACK
1.201398500000000,I2C,0x27 + Missing ACK/NAK
1.202345750000000,I2C,Setup Write to [0x3A] + ACK
1.202378750000000,I2C,0x03 + ACK
1.202411000000000,I2C,0x40 + ACK
1.203334000000000,I2C,Setup Write to [0x3A] + ACK
1.203366500000000,I2C,0x02 + ACK
1.203398500000000,I2C,0x40 + ACK
3.032176500000000,I2C,Setup Write to [0x3A] + ACK
3.032209750000000,I2C,0x00 + ACK
3.032242000000000,I2C,0x02 + ACK
3.032273750000000,I2C,0x44 + ACK
3.032305750000000,I2C,0x40 + ACK
3.032338000000000,I2C,0x40 + ACK
3.032369750000000,I2C,0x05 + ACK
3.032401750000000,I2C,0x69 + ACK
3.032433750000000,I2C,0x17 + ACK
3.032465500000000,I2C,0x75 + ACK
3.032497500000000,I2C,0x40 + ACK
3.032529250000000,I2C,0x40 + ACK
3.032561250000000,I2C,0x06 + ACK
3.032593250000000,I2C,0x08 + ACK
3.032625000000000,I2C,0x89 + ACK
3.032657000000000,I2C,0xA4 + ACK
3.032688750000000,I2C,0x95 + ACK
3.032720750000000,I2C,0x9C + ACK
3.032752500000000,I2C,0x73 + ACK
3.032784500000000,I2C,0x02 + ACK
3.032816500000000,I2C,0x72 + ACK
3.032848250000000,I2C,0x20 + ACK
3.032880250000000,I2C,0x0B + ACK
3.032912000000000,I2C,0xAA + ACK
3.032944000000000,I2C,0xAA + ACK
3.032975750000000,I2C,0x28 + ACK
3.033007750000000,I2C,0x30 + ACK
3.033039750000000,I2C,0x40 + ACK
3.033071500000000,I2C,0x87 + ACK
3.033103500000000,I2C,0xC2 + ACK
3.033135250000000,I2C,0x25 + ACK
3.033167250000000,I2C,0x30 + ACK
3.033199000000000,I2C,0x26 + ACK
3.033231000000000,I2C,0x47 + ACK
3.035036000000000,I2C,Setup Write to [0x3A] + ACK
3.035068750000000,I2C,0x0B + ACK
3.035100750000000,I2C,0x18 + ACK
3.036038250000000,I2C,Setup Write to [0x3A] + ACK
3.036071000000000,I2C,0x0A + ACK
3.036103000000000,I2C,0x0C + ACK
3.037030750000000,I2C,Setup Write to [0x3A] + ACK
3.037063500000000,I2C,0x0B + ACK
3.037095250000000,I2C,0x18 + ACK
3.038034250000000,I2C,Setup Write to [0x3A] + ACK
3.038067000000000,I2C,0x0B + ACK
3.038099000000000,I2C,0x18 + ACK
3.039032250000000,I2C,Setup Write to [0x3A] + ACK
3.039064750000000,I2C,0x03 + ACK
3.039096750000000,I2C,0x40 + ACK
3.040031000000000,I2C,Setup Write to [0x3A] + ACK
3.040063750000000,I2C,0x0A + ACK
3.040095750000000,I2C,0x0C + ACK
3.041035500000000,I2C,Setup Write to [0x3A] + ACK
3.041068500000000,I2C,0x04 + ACK
3.041100250000000,I2C,0x05 + ACK
3.042032000000000,I2C,Setup Write to [0x3A] + ACK
3.042064750000000,I2C,0x1E + ACK
3.042096750000000,I2C,0x26 + ACK
3.043034250000000,I2C,Setup Write to [0x3A] + ACK
3.043067000000000,I2C,0x1E + ACK
3.043099000000000,I2C,0x26 + ACK
3.044034250000000,I2C,Setup Write to [0x3A] + ACK
3.044067000000000,I2C,0x1E + ACK
3.044098750000000,I2C,0x27 + ACK
3.045033750000000,I2C,Setup Write to [0x3A] + ACK
3.045066250000000,I2C,0x12 + ACK
3.045098250000000,I2C,0x72 + ACK
3.046044000000000,I2C,Setup Write to [0x3A] + ACK
3.046077000000000,I2C,0x1E + ACK
3.046108750000000,I2C,0x27 + ACK
3.047035000000000,I2C,Setup Write to [0x3A] + ACK
3.047067750000000,I2C,0x1F + ACK
3.047099750000000,I2C,0x66 + ACK
3.048037750000000,I2C,Setup Write to [0x3A] + ACK
3.048070250000000,I2C,0x1B + ACK
3.048102250000000,I2C,0xC2 + ACK
3.049036500000000,I2C,Setup Write to [0x3A] + ACK
3.049069000000000,I2C,0x04 + ACK
3.049101000000000,I2C,0x05 + ACK
3.050035000000000,I2C,Setup Write to [0x3A] + ACK
3.050067750000000,I2C,0x0C + ACK
3.050099750000000,I2C,0x85 + ACK
3.051053750000000,I2C,Setup Write to [0x3A] + ACK
3.051086500000000,I2C,0x1A + ACK
3.051118750000000,I2C,0x8F + ACK
3.052049750000000,I2C,Setup Write to [0x3A] + ACK
3.052082500000000,I2C,0x05 + ACK
3.052114750000000,I2C,0x49 + ACK
3.053047500000000,I2C,Setup Write to [0x3A] + ACK
3.053080250000000,I2C,0x19 + ACK
3.053112000000000,I2C,0x40 + ACK
3.054038000000000,I2C,Setup Write to [0x3A] + ACK
3.054071000000000,I2C,0x01 + ACK
3.054102750000000,I2C,0x0C + ACK
3.055036750000000,I2C,Setup Write to [0x3A] + ACK
3.055069500000000,I2C,0x02 + ACK
3.055101500000000,I2C,0x40 + ACK
3.056042750000000,I2C,Setup Write to [0x3A] + ACK
3.056075750000000,I2C,0x08 + ACK
3.056107500000000,I2C,0x62 + ACK
3.057038750000000,I2C,Setup Write to [0x3A] + ACK
3.057071500000000,I2C,0x09 + Missing ACK/NAK
3.057103250000000,I2C,Setup Write to [0x20] + ACK
3.058040250000000,I2C,Setup Write to [0x3A] + ACK
3.058072750000000,I2C,0x03 + ACK
3.058104750000000,I2C,0x40 + ACK
3.059041000000000,I2C,Setup Write to [0x3A] + ACK
3.059073750000000,I2C,0x01 + ACK
3.059105500000000,I2C,0x0D + ACK
3.060040250000000,I2C,Setup Write to [0x3A] + ACK
3.060072750000000,I2C,0x1E + ACK
3.060104750000000,I2C,0xA7 + ACK
3.061044500000000,I2C,Setup Write to [0x3A] + ACK
3.061077500000000,I2C,0x11 + ACK
3.061109750000000,I2C,0x02 + ACK
3.062041000000000,I2C,Setup Write to [0x3A] + ACK
3.062073500000000,I2C,0x12 + ACK
3.062105750000000,I2C,0x72 + ACK
3.063044500000000,I2C,Setup Write to [0x3A] + ACK
3.063077250000000,I2C,0x0F + ACK
3.063109000000000,I2C,0xA4 + ACK
3.064042750000000,I2C,Setup Write to [0x3A] + ACK
3.064075500000000,I2C,0x10 + ACK
3.064107500000000,I2C,0x63 + ACK
3.065040750000000,I2C,Setup Write to [0x3A] + ACK
3.065073500000000,I2C,0x17 + ACK
3.065105500000000,I2C,0x28 + ACK
3.066057000000000,I2C,Setup Write to [0x3A] + ACK
3.066089750000000,I2C,0x1D + ACK
3.066121750000000,I2C,0x30 + ACK
3.067043500000000,I2C,Setup Write to [0x3A] + ACK
3.067076250000000,I2C,0x13 + ACK
3.067108250000000,I2C,0x38 + ACK
3.068045250000000,I2C,Setup Write to [0x3A] + ACK
3.068078000000000,I2C,0x10 + ACK
3.068109750000000,I2C,0x67 + ACK
3.069044000000000,I2C,Setup Write to [0x3A] + ACK
3.069076750000000,I2C,0x10 + ACK
3.069108500000000,I2C,0x67 + ACK
3.070043500000000,I2C,Setup Write to [0x3A] + ACK
3.070076000000000,I2C,0x14 + ACK
3.070108000000000,I2C,0xAE + ACK
3.071059250000000,I2C,Setup Write to [0x3A] + ACK
3.071092500000000,I2C,0x12 + ACK
3.071124500000000,I2C,0x72 + ACK
3.072047500000000,I2C,Setup Write to [0x3A] + ACK
3.072080000000000,I2C,0x16 + ACK
3.072112000000000,I2C,0x7F + ACK
3.073046250000000,I2C,Setup Write to [0x3A] + ACK
3.073079000000000,I2C,0x15 + ACK
3.073110750000000,I2C,0xFE + ACK
3.094054000000000,I2C,Setup Write to [0x3A] + ACK
3.094087500000000,I2C,0x00 + ACK
3.094812250000000,I2C,Setup Read to [0x3A] + ACK
3.094845250000000,I2C,0x69 + ACK
3.094877250000000,I2C,0xBD + ACK
3.094909250000000,I2C,0xEE + NAK
3.095739000000000,I2C,Setup Write to [0x3A] + ACK
3.095771500000000,I2C,0x00 + ACK
3.096495750000000,I2C,Setup Read to [0x3A] + ACK
3.096527750000000,I2C,0x69 + ACK
3.096558500000000,I2C,0xBD + ACK
3.096589500000000,I2C,0xEE + NAK
3.097415750000000,I2C,Setup Write to [0x3A] + ACK
3.097448250000000,I2C,0x00 + ACK
3.098172250000000,I2C,Setup Read to [0x3A] + ACK
3.098203750000000,I2C,0x69 + ACK
3.098234750000000,I2C,0xBD + ACK
3.099095250000000,I2C,Setup Write to [0x3A] + ACK
3.099127750000000,I2C,0x00 + ACK
3.099851750000000,I2C,Setup Read to [0x3A] + ACK
3.099884000000000,I2C,0x69 + ACK
3.099915000000000,I2C,0xBD + ACK
3.099946000000000,I2C,0xEE + NAK
3.100771250000000,I2C,Setup Write to [0x3A] + ACK
3.100804000000000,I2C,0x1D + ACK
3.100836250000000,I2C,0xF0 + ACK
3.102056250000000,I2C,Setup Write to [0x3A] + ACK
3.102088750000000,I2C,0x01 + ACK
3.102120750000000,I2C,0x0C + ACK
3.103055000000000,I2C,Setup Write to [0x3A] + ACK
3.103087500000000,I2C,0x1E + ACK
3.103119500000000,I2C,0x27 + ACK
3.104059000000000,I2C,Setup Write to [0x3A] + ACK
3.104092000000000,I2C,0x00 + ACK
3.104123750000000,I2C,0x12 + ACK
3.105061500000000,I2C,Setup Write to [0x3A] + ACK
3.105094000000000,I2C,0x00 + ACK
3.105126000000000,I2C,0x92 + ACK
3.106066750000000,I2C,Setup Write to [0x3A] + ACK
3.106099750000000,I2C,0x04 + ACK
3.106131500000000,I2C,0x05 + ACK
3.107062250000000,I2C,Setup Write to [0x3A] + ACK
3.107095000000000,I2C,0x1B + ACK
3.107127000000000,I2C,0xC3 + ACK
3.108056750000000,I2C,Setup Write to [0x3A] + ACK
3.108089500000000,I2C,0x0D + ACK
3.108121250000000,I2C,0xA5 + ACK
3.109057500000000,I2C,Setup Write to [0x3A] + ACK
3.109090250000000,I2C,0x1C + ACK
3.109122000000000,I2C,0x25 + ACK
3.110060250000000,I2C,Setup Write to [0x3A] + ACK
3.110093000000000,I2C,0x0E + ACK
3.110125000000000,I2C,0x95 + ACK
3.111077250000000,I2C,Setup Write to [0x3A] + ACK
3.111110000000000,I2C,0x1A + ACK
3.111142250000000,I2C,0x4F + ACK
3.112060250000000,I2C,Setup Write to [0x3A] + ACK
3.112093000000000,I2C,0x1C + ACK
3.112125000000000,I2C,0x95 + ACK
3.113058750000000,I2C,Setup Write to [0x3A] + ACK
3.113091500000000,I2C,0x1B + ACK
3.113123500000000,I2C,0xC3 + ACK
3.114059000000000,I2C,Setup Write to [0x3A] + ACK
3.114091750000000,I2C,0x01 + ACK
3.114123750000000,I2C,0x0C + ACK
3.115062500000000,I2C,Setup Write to [0x3A] + ACK
3.115095250000000,I2C,0x17 + ACK
3.115127000000000,I2C,0x08 + ACK
3.116065500000000,I2C,Setup Write to [0x3A] + ACK
3.116098750000000,I2C,0x07 + ACK
3.116130500000000,I2C,0xF5 + ACK
3.117061000000000,I2C,Setup Write to [0x3A] + ACK
3.117093750000000,I2C,0x1E + ACK
3.117125500000000,I2C,0x27 + ACK
3.118061000000000,I2C,Setup Write to [0x3A] + ACK
3.118093750000000,I2C,0x06 + ACK
3.118125500000000,I2C,0x13 + ACK
3.119060750000000,I2C,Setup Write to [0x3A] + ACK
3.119093500000000,I2C,0x1B + ACK
3.119125250000000,I2C,0xC3 + ACK
3.120064250000000,I2C,Setup Write to [0x3A] + ACK
3.120097000000000,I2C,0x1F + ACK
3.120129000000000,I2C,0x27 + ACK
3.221103250000000,I2C,Setup Write to [0x3A] + ACK
3.221136750000000,I2C,0x1B + ACK
3.221169000000000,I2C,0xE3 + ACK
3.222101250000000,I2C,Setup Write to [0x3A] + ACK
3.222134000000000,I2C,0x03 + ACK
3.222166000000000,I2C,0xC0 + ACK
3.223101250000000,I2C,Setup Write to [0x3A] + ACK
3.223133750000000,I2C,0x02 + ACK
3.223165750000000,I2C,0x40 + ACK
4.145080750000000,I2C,Setup Write to [0x3A] + ACK
4.145114250000000,I2C,0x00 + ACK
4.145146750000000,I2C,0x02 + ACK
4.145178500000000,I2C,0x44 + ACK
4.145210500000000,I2C,0x40 + ACK
4.145242500000000,I2C,0x40 + ACK
4.145274250000000,I2C,0x05 + ACK
4.145306250000000,I2C,0x69 + ACK
4.145338000000000,I2C,0x17 + ACK
4.145370000000000,I2C,0x75 + ACK
4.145402000000000,I2C,0x40 + ACK
4.145433750000000,I2C,0x40 + ACK
4.145465750000000,I2C,0x06 + ACK
4.145497500000000,I2C,0x08 + ACK
4.145529500000000,I2C,0x89 + ACK
4.145561500000000,I2C,0xA4 + ACK
4.145593250000000,I2C,0x95 + ACK
4.145625250000000,I2C,0x9C + ACK
4.145657000000000,I2C,0x73 + ACK
4.145689000000000,I2C,0x02 + ACK
4.145721000000000,I2C,0x72 + ACK
4.145795750000000,I2C,0x20 + ACK
4.145827750000000,I2C,0x0B + ACK
4.145859750000000,I2C,0xAA + ACK
4.145891500000000,I2C,0xAA + ACK
4.145923500000000,I2C,0x28 + ACK
4.145955250000000,I2C,0x30 + ACK
4.145987250000000,I2C,0x40 + ACK
4.146019000000000,I2C,0x87 + ACK
4.146051000000000,I2C,0xC2 + ACK
4.146083000000000,I2C,0x25 + ACK
4.146114750000000,I2C,0x30 + ACK
4.146146750000000,I2C,0x26 + ACK
4.146178500000000,I2C,0x47 + ACK
4.147459000000000,I2C,Setup Write to [0x3A] + ACK
4.147491750000000,I2C,0x0B + ACK
4.147523500000000,I2C,0x18 + ACK
4.148453000000000,I2C,Setup Write to [0x3A] + ACK
4.148486000000000,I2C,0x0A + ACK
4.148518000000000,I2C,0x0C + ACK
4.149453250000000,I2C,Setup Write to [0x3A] + ACK
4.149486000000000,I2C,0x0B + ACK
4.149517750000000,I2C,0x18 + ACK
4.150453250000000,I2C,Setup Write to [0x3A] + ACK
4.150485750000000,I2C,0x0B + ACK
4.150517750000000,I2C,0x18 + ACK
4.151461500000000,I2C,Setup Write to [0x3A] + ACK
4.151494250000000,I2C,0x03 + ACK
4.151526000000000,I2C,0x40 + ACK
4.152456250000000,I2C,Setup Write to [0x3A] + ACK
4.152488750000000,I2C,0x0A + ACK
4.152520750000000,I2C,0x0C + ACK
4.153475000000000,I2C,Setup Write to [0x3A] + ACK
4.153507750000000,I2C,0x04 + ACK
4.153540250000000,I2C,0x05 + ACK
4.154456750000000,I2C,Setup Write to [0x3A] + ACK
4.154489500000000,I2C,0x1E + ACK
4.154521250000000,I2C,0x26 + ACK
4.155455250000000,I2C,Setup Write to [0x3A] + ACK
4.155488000000000,I2C,0x1E + ACK
4.155519750000000,I2C,0x26 + ACK
4.156474750000000,I2C,Setup Write to [0x3A] + ACK
4.156507500000000,I2C,0x1E + ACK
4.156539250000000,I2C,0x27 + ACK
4.157459000000000,I2C,Setup Write to [0x3A] + ACK
4.157491500000000,I2C,0x12 + ACK
4.157523500000000,I2C,0x72 + ACK
4.158457250000000,I2C,Setup Write to [0x3A] + ACK
4.158489750000000,I2C,0x1E + ACK
4.158521750000000,I2C,0x27 + ACK
4.159457750000000,I2C,Setup Write to [0x3A] + ACK
4.159490500000000,I2C,0x1F + ACK
4.159522500000000,I2C,0x66 + ACK
4.160457500000000,I2C,Setup Write to [0x3A] + ACK
4.160490250000000,I2C,0x1B + ACK
4.160522000000000,I2C,0xC2 + ACK
4.161464500000000,I2C,Setup Write to [0x3A] + ACK
4.161497250000000,I2C,0x04 + ACK
4.161529250000000,I2C,0x05 + ACK
4.162460250000000,I2C,Setup Write to [0x3A] + ACK
4.162492750000000,I2C,0x0C + ACK
4.162524750000000,I2C,0x85 + ACK
4.163458750000000,I2C,Setup Write to [0x3A] + ACK
4.163491250000000,I2C,0x1A + ACK
4.163523250000000,I2C,0x8F + ACK
4.164470250000000,I2C,Setup Write to [0x3A] + ACK
4.164503000000000,I2C,0x05 + ACK
4.164535250000000,I2C,0x49 + ACK
4.165461500000000,I2C,Setup Write to [0x3A] + ACK
4.165494250000000,I2C,0x19 + Missing ACK/NAK
4.165526250000000,I2C,Setup Write to [0x20] + ACK
4.166466000000000,I2C,Setup Write to [0x3A] + ACK
4.166498750000000,I2C,0x01 + ACK
4.166530750000000,I2C,0x0C + ACK
4.167461500000000,I2C,Setup Write to [0x3A] + ACK
4.167494000000000,I2C,0x02 + ACK
4.167526000000000,I2C,0x40 + ACK
4.168460750000000,I2C,Setup Write to [0x3A] + ACK
4.168493500000000,I2C,0x08 + ACK
4.168525250000000,I2C,0x62 + ACK
4.169460250000000,I2C,Setup Write to [0x3A] + ACK
4.169493000000000,I2C,0x09 + ACK
4.169525000000000,I2C,0x40 + ACK
4.170460750000000,I2C,Setup Write to [0x3A] + ACK
4.170493500000000,I2C,0x03 + ACK
4.170525250000000,I2C,0x40 + ACK
4.171468750000000,I2C,Setup Write to [0x3A] + ACK
4.171501750000000,I2C,0x01 + ACK
4.171533750000000,I2C,0x0D + ACK
4.172465500000000,I2C,Setup Write to [0x3A] + ACK
4.172498250000000,I2C,0x1E + ACK
4.172530000000000,I2C,0xA7 + Missing ACK/NAK
4.173475500000000,I2C,Setup Write to [0x3A] + ACK
4.173508250000000,I2C,0x11 + ACK
4.173540500000000,I2C,0x02 + ACK
4.174465000000000,I2C,Setup Write to [0x3A] + ACK
4.174498000000000,I2C,0x12 + Missing ACK/NAK
4.174530250000000,I2C,Setup Write to [0x39] + ACK
4.175465250000000,I2C,Setup Write to [0x3A] + ACK
4.175498000000000,I2C,0x0F + ACK
4.175530000000000,I2C,0xA4 + ACK
4.176473500000000,I2C,Setup Write to [0x3A] + ACK
4.176506500000000,I2C,0x10 + ACK
4.176538500000000,I2C,0x63 + ACK
4.177465000000000,I2C,Setup Write to [0x3A] + ACK
4.177497750000000,I2C,0x17 + ACK
4.177529750000000,I2C,0x28 + ACK
4.178463250000000,I2C,Setup Write to [0x3A] + ACK
4.178496000000000,I2C,0x1D + ACK
4.178527750000000,I2C,0x30 + ACK
4.179465000000000,I2C,Setup Write to [0x3A] + ACK
4.179497750000000,I2C,0x13 + ACK
4.179529500000000,I2C,0x38 + ACK
4.180465500000000,I2C,Setup Write to [0x3A] + ACK
4.180498250000000,I2C,0x10 + ACK
4.180530000000000,I2C,0x67 + ACK
4.181471500000000,I2C,Setup Write to [0x3A] + ACK
4.181504250000000,I2C,0x10 + ACK
4.181536000000000,I2C,0x67 + ACK
4.182469000000000,I2C,Setup Write to [0x3A] + ACK
4.182502000000000,I2C,0x14 + ACK
4.182533750000000,I2C,0xAE + ACK
4.183466250000000,I2C,Setup Write to [0x3A] + ACK
4.183499000000000,I2C,0x12 + ACK
4.183530750000000,I2C,0x72 + ACK
4.184468750000000,I2C,Setup Write to [0x3A] + ACK
4.184501500000000,I2C,0x16 + ACK
4.184533500000000,I2C,0x7F + ACK
4.185467000000000,I2C,Setup Write to [0x3A] + ACK
4.185499750000000,I2C,0x15 + ACK
4.185531750000000,I2C,0xFE + ACK
4.206492000000000,I2C,Setup Write to [0x3A] + ACK
4.206525500000000,I2C,0x00 + ACK
4.207250000000000,I2C,Setup Read to [0x3A] + ACK
4.207283250000000,I2C,0x69 + ACK
4.207315000000000,I2C,0xBD + ACK
4.207346500000000,I2C,0xEE + NAK
4.208175750000000,I2C,Setup Write to [0x3A] + ACK
4.208208500000000,I2C,0x00 + ACK
4.208932500000000,I2C,Setup Read to [0x3A] + ACK
4.208964500000000,I2C,0x69 + ACK
4.208995500000000,I2C,0xBD + ACK
4.209026250000000,I2C,0xEE + NAK
4.209850500000000,I2C,Setup Write to [0x3A] + ACK
4.209883000000000,I2C,0x00 + ACK
4.210607000000000,I2C,Setup Read to [0x3A] + ACK
4.210675750000000,I2C,Setup Read to [0x7A] + NAK
4.211530250000000,I2C,Setup Write to [0x3A] + ACK
4.211562750000000,I2C,0x00 + ACK
4.212287000000000,I2C,Setup Read to [0x3A] + ACK
4.212319000000000,I2C,0x69 + ACK
4.212350000000000,I2C,0xBD + ACK
4.212380750000000,I2C,0xEE + NAK
4.213206000000000,I2C,Setup Write to [0x3A] + ACK
4.213238500000000,I2C,0x1D + ACK
4.213270750000000,I2C,0xF0 + ACK
4.214478500000000,I2C,Setup Write to [0x3A] + ACK
4.214511000000000,I2C,0x01 + ACK
4.214543250000000,I2C,0x0C + ACK
4.215478500000000,I2C,Setup Write to [0x3A] + ACK
4.215511000000000,I2C,0x1E + ACK
4.215543000000000,I2C,0x27 + ACK
4.216495000000000,I2C,Setup Write to [0x3A] + ACK
4.216528000000000,I2C,0x00 + ACK
4.216559750000000,I2C,0x12 + ACK
4.217481250000000,I2C,Setup Write to [0x3A] + ACK
4.217514000000000,I2C,0x00 + ACK
4.217546000000000,I2C,0x92 + ACK
4.218482750000000,I2C,Setup Write to [0x3A] + ACK
4.218515500000000,I2C,0x04 + ACK
4.218547500000000,I2C,0x05 + Missing ACK/NAK
4.219485750000000,I2C,Setup Write to [0x3A] + ACK
4.219518250000000,I2C,0x1B + ACK
4.219550250000000,I2C,0xC3 + ACK
4.220479500000000,I2C,Setup Write to [0x3A] + ACK
4.220512250000000,I2C,0x0D + ACK
4.220544250000000,I2C,0xA5 + ACK
4.221484000000000,I2C,Setup Write to [0x3A] + ACK
4.221516750000000,I2C,0x1C + ACK
4.221548750000000,I2C,0x25 + ACK
4.222481000000000,I2C,Setup Write to [0x3A] + ACK
4.222513750000000,I2C,0x0E + ACK
4.222545750000000,I2C,0x95 + ACK
4.223484000000000,I2C,Setup Write to [0x3A] + ACK
4.223516750000000,I2C,0x1A + ACK
4.223548500000000,I2C,0x4F + ACK
4.224482750000000,I2C,Setup Write to [0x3A] + ACK
4.224515500000000,I2C,0x1C + ACK
4.224547500000000,I2C,0x95 + ACK
4.225481500000000,I2C,Setup Write to [0x3A] + ACK
4.225514250000000,I2C,0x1B + ACK
4.225546000000000,I2C,0xC3 + Missing ACK/NAK
4.226549250000000,I2C,Setup Write to [0x3A] + ACK
4.226582750000000,I2C,0x01 + ACK
4.226615000000000,I2C,0x0C + ACK
4.228271750000000,I2C,Setup Write to [0x3A] + ACK
4.228304750000000,I2C,0x17 + ACK
4.228336750000000,I2C,0x08 + ACK
4.229484500000000,I2C,Setup Write to [0x3A] + ACK
4.229517250000000,I2C,0x07 + ACK
4.229549250000000,I2C,0xF5 + ACK
4.230485500000000,I2C,Setup Write to [0x3A] + ACK
4.230518250000000,I2C,0x1E + ACK
4.230550000000000,I2C,0x27 + ACK
4.231491000000000,I2C,Setup Write to [0x3A] + ACK
4.231523750000000,I2C,0x06 + ACK
4.231555750000000,I2C,0x13 + ACK
4.232485250000000,I2C,Setup Write to [0x3A] + ACK
4.232518000000000,I2C,0x1B + ACK
4.232549750000000,I2C,0xC3 + ACK
4.233499500000000,I2C,Setup Write to [0x3A] + ACK
4.233532250000000,I2C,0x1F + ACK
4.233564500000000,I2C,0x27 + ACK
4.234491500000000,I2C,Setup Write to [0x3A] + ACK
4.234524000000000,I2C,0x03 + ACK
4.234556000000000,I2C,0x40 + ACK
4.235487000000000,I2C,Setup Write to [0x3A] + ACK
4.235519750000000,I2C,0x02 + ACK
4.235551750000000,I2C,0x40 + ACK
6.063286750000000,I2C,Setup Write to [0x3A] + ACK
6.063320500000000,I2C,0x00 + ACK
6.063352750000000,I2C,0x02 + ACK
6.063384500000000,I2C,0x44 + ACK
6.063416500000000,I2C,0x40 + ACK
6.063448500000000,I2C,0x40 + ACK
6.063490500000000,I2C,0x05 + ACK
6.063522500000000,I2C,0x69 + ACK
6.063554250000000,I2C,0x17 + ACK
6.063586250000000,I2C,0x75 + ACK
6.063618250000000,I2C,0x40 + ACK
6.063650000000000,I2C,0x40 + ACK
6.063682000000000,I2C,0x06 + ACK
6.063713750000000,I2C,0x08 + ACK
6.063745750000000,I2C,0x89 + Missing ACK/NAK
6.063777500000000,I2C,Setup Write to [0x52] + ACK
6.063809500000000,I2C,0x95 + ACK
6.063841500000000,I2C,0x9C + ACK
6.063873250000000,I2C,0x73 + ACK
6.063905250000000,I2C,0x02 + ACK
6.063937000000000,I2C,0x72 + ACK
6.063969000000000,I2C,0x20 + ACK
6.064000750000000,I2C,0x0B + ACK
6.064032750000000,I2C,0xAA + ACK
6.064064750000000,I2C,0xAA + ACK
6.064096500000000,I2C,0x28 + ACK
6.064128500000000,I2C,0x30 + ACK
6.064160250000000,I2C,0x40 + ACK
6.064192250000000,I2C,0x87 + ACK
6.064224250000000,I2C,0xC2 + ACK
6.064256000000000,I2C,0x25 + ACK
6.064288000000000,I2C,0x30 + ACK
6.064319750000000,I2C,0x26 + ACK
6.064351750000000,I2C,0x47 + ACK
6.066189000000000,I2C,Setup Write to [0x3A] + ACK
6.066221750000000,I2C,0x0B + ACK
6.066253750000000,I2C,0x18 + ACK
6.067206250000000,I2C,Setup Write to [0x3A] + ACK
6.067239250000000,I2C,0x0A + Missing ACK/NAK
6.067271250000000,I2C,Setup Write to [0x06] + ACK
6.068185750000000,I2C,Setup Write to [0x3A] + ACK
6.068218500000000,I2C,0x0B + ACK
6.068250250000000,I2C,0x18 + ACK
6.069183000000000,I2C,Setup Write to [0x3A] + ACK
6.069215750000000,I2C,0x0B + ACK
6.069247500000000,I2C,0x18 + ACK
6.070183750000000,I2C,Setup Write to [0x3A] + ACK
6.070216500000000,I2C,0x03 + ACK
6.070248250000000,I2C,0x40 + ACK
6.071183750000000,I2C,Setup Write to [0x3A] + ACK
6.071216500000000,I2C,0x0A + ACK
6.071248500000000,I2C,0x0C + ACK
6.072190250000000,I2C,Setup Write to [0x3A] + ACK
6.072223000000000,I2C,0x04 + ACK
6.072255000000000,I2C,0x05 + ACK
6.073186000000000,I2C,Setup Write to [0x3A] + ACK
6.073218750000000,I2C,0x1E + ACK
6.073250750000000,I2C,0x26 + ACK
6.074184750000000,I2C,Setup Write to [0x3A] + ACK
6.074217250000000,I2C,0x1E + ACK
6.074249250000000,I2C,0x26 + Missing ACK/NAK
6.075185500000000,I2C,Setup Write to [0x3A] + ACK
6.075218250000000,I2C,0x1E + ACK
6.075250000000000,I2C,0x27 + ACK
6.076186750000000,I2C,Setup Write to [0x3A] + ACK
6.076219250000000,I2C,0x12 + ACK
6.076251250000000,I2C,0x72 + ACK
6.077215000000000,I2C,Setup Write to [0x3A] + ACK
6.077248250000000,I2C,0x1E + ACK
6.077280500000000,I2C,0x27 + ACK
6.078190500000000,I2C,Setup Write to [0x3A] + ACK
6.078223500000000,I2C,0x1F + ACK
6.078255250000000,I2C,0x66 + ACK
6.079187250000000,I2C,Setup Write to [0x3A] + ACK
6.079220000000000,I2C,0x1B + ACK
6.079252000000000,I2C,0xC2 + ACK
6.080197500000000,I2C,Setup Write to [0x3A] + ACK
6.080230250000000,I2C,0x04 + ACK
6.080262250000000,I2C,0x05 + ACK
6.081187500000000,I2C,Setup Write to [0x3A] + ACK
6.081220250000000,I2C,0x0C + ACK
6.081252000000000,I2C,0x85 + ACK
6.082195000000000,I2C,Setup Write to [0x3A] + ACK
6.082228000000000,I2C,0x1A + ACK
6.082259750000000,I2C,0x8F + ACK
6.083201000000000,I2C,Setup Write to [0x3A] + ACK
6.083234000000000,I2C,0x05 + ACK
6.083266250000000,I2C,0x49 + ACK
6.084191500000000,I2C,Setup Write to [0x3A] + ACK
6.084224250000000,I2C,0x19 + ACK
6.084256250000000,I2C,0x40 + ACK
6.085189250000000,I2C,Setup Write to [0x3A] + ACK
6.085222000000000,I2C,0x01 + ACK
6.085253750000000,I2C,0x0C + ACK
6.086189250000000,I2C,Setup Write to [0x3A] + ACK
6.086222000000000,I2C,0x02 + ACK
6.086253750000000,I2C,0x40 + ACK
6.087196750000000,I2C,Setup Write to [0x3A] + ACK
6.087229500000000,I2C,0x08 + ACK
6.087261500000000,I2C,0x62 + ACK
6.088192250000000,I2C,Setup Write to [0x3A] + ACK
6.088225250000000,I2C,0x09 + ACK
6.088257000000000,I2C,0x40 + ACK
6.089190250000000,I2C,Setup Write to [0x3A] + ACK
6.089223000000000,I2C,0x03 + ACK
6.089254750000000,I2C,0x40 + ACK
6.090192000000000,I2C,Setup Write to [0x3A] + ACK
6.090225000000000,I2C,0x01 + ACK
6.090256750000000,I2C,0x0D + Missing ACK/NAK
6.091193000000000,I2C,Setup Write to [0x3A] + ACK
6.091225750000000,I2C,0x1E + ACK
6.091257750000000,I2C,0xA7 + ACK
6.092200750000000,I2C,Setup Write to [0x3A] + ACK
6.092233750000000,I2C,0x11 + Missing ACK/NAK
6.092266000000000,I2C,Setup Write to [0x01] + ACK
6.093195000000000,I2C,Setup Write to [0x3A] + ACK
6.093227750000000,I2C,0x12 + ACK
6.093260000000000,I2C,0x72 + ACK
6.094194750000000,I2C,Setup Write to [0x3A] + ACK
6.094227250000000,I2C,0x0F + ACK
6.094259250000000,I2C,0xA4 + ACK
6.095195500000000,I2C,Setup Write to [0x3A] + ACK
6.095228250000000,I2C,0x10 + ACK
6.095260000000000,I2C,0x63 + ACK
6.096193500000000,I2C,Setup Write to [0x3A] + ACK
6.096226250000000,I2C,0x17 + ACK
6.096258250000000,I2C,0x28 + ACK
6.097214000000000,I2C,Setup Write to [0x3A] + ACK
6.097247000000000,I2C,0x1D + ACK
6.097279000000000,I2C,0x30 + ACK
6.098199000000000,I2C,Setup Write to [0x3A] + ACK
6.098231750000000,I2C,0x13 + ACK
6.098263500000000,I2C,0x38 + ACK
6.099197250000000,I2C,Setup Write to [0x3A] + ACK
6.099230000000000,I2C,0x10 + ACK
6.099261750000000,I2C,0x67 + ACK
6.100194750000000,I2C,Setup Write to [0x3A] + ACK
6.100227500000000,I2C,0x10 + ACK
6.100259250000000,I2C,0x67 + ACK
6.101196250000000,I2C,Setup Write to [0x3A] + ACK
6.101229000000000,I2C,0x14 + ACK
6.101260750000000,I2C,0xAE + ACK
6.102215750000000,I2C,Setup Write to [0x3A] + ACK
6.102248500000000,I2C,0x12 + ACK
6.102280500000000,I2C,0x72 + ACK
6.103201500000000,I2C,Setup Write to [0x3A] + ACK
6.103234250000000,I2C,0x16 + ACK
6.103266250000000,I2C,0x7F + ACK
6.104196500000000,I2C,Setup Write to [0x3A] + ACK
6.104229250000000,I2C,0x15 + ACK
6.104261250000000,I2C,0xFE + ACK
6.125206500000000,I2C,Setup Write to [0x3A] + ACK
6.125240000000000,I2C,0x00 + ACK
6.125964500000000,I2C,0x75 + Missing ACK/NAK
6.126010250000000,I2C,Setup Read to [0x4A] + NAK
6.126042000000000,I2C,0xD7 + ACK
6.126892000000000,I2C,Setup Write to [0x3A] + ACK
6.126925750000000,I2C,0x00 + ACK
6.127650500000000,I2C,Setup Read to [0x3A] + ACK
6.127683250000000,I2C,0x69 + ACK
6.127736750000000,I2C,Setup Read to [0x5D] + NAK
6.128578750000000,I2C,Setup Write to [0x3A] + ACK
6.128611250000000,I2C,0x00 + ACK
6.129335250000000,I2C,Setup Read to [0x3A] + ACK
6.129366750000000,I2C,0x69 + ACK
6.129397750000000,I2C,0xBD + ACK
6.129428750000000,I2C,0xEE + NAK
6.130257250000000,I2C,Setup Write to [0x3A] + ACK
6.130289750000000,I2C,0x00 + ACK
6.131014250000000,I2C,Setup Read to [0x3A] + ACK
6.131046250000000,I2C,0x69 + ACK
6.131077250000000,I2C,0xBD + ACK
6.131108250000000,I2C,0xEE + NAK
6.131934250000000,I2C,Setup Write to [0x3A] + ACK
6.131967000000000,I2C,0x1D + ACK
6.131999250000000,I2C,0xF0 + ACK
6.133208750000000,I2C,0x74 + Missing ACK/NAK
6.133241500000000,I2C,Setup Read to [0x00] + ACK
6.133273500000000,I2C,0x0C + ACK
6.134211250000000,I2C,Setup Write to [0x3A] + ACK
6.134243750000000,I2C,0x1E + ACK
6.134275750000000,I2C,0x27 + ACK
6.135213500000000,I2C,Setup Write to [0x3A] + ACK
6.135246250000000,I2C,0x00 + ACK
6.135278250000000,I2C,0x12 + ACK
6.136211000000000,I2C,Setup Write to [0x3A] + ACK
6.136243500000000,I2C,0x00 + ACK
6.136275500000000,I2C,0x92 + ACK
6.137233000000000,I2C,Setup Write to [0x3A] + ACK
6.137265750000000,I2C,0x04 + ACK
6.137298000000000,I2C,0x05 + ACK
6.138215750000000,I2C,Setup Write to [0x3A] + ACK
6.138248500000000,I2C,0x1B + ACK
6.138280250000000,I2C,0xC3 + ACK
6.139213000000000,I2C,Setup Write to [0x3A] + ACK
6.139245750000000,I2C,0x0D + ACK
6.139277750000000,I2C,0xA5 + ACK
6.140211250000000,I2C,Setup Write to [0x3A] + ACK
6.140244000000000,I2C,0x1C + ACK
6.140276000000000,I2C,0x25 + ACK
6.141210250000000,I2C,Setup Write to [0x3A] + ACK
6.141242750000000,I2C,0x0E + ACK
6.141274750000000,I2C,0x95 + ACK
6.142214750000000,I2C,Setup Write to [0x3A] + ACK
6.142248000000000,I2C,0x1A + ACK
6.142279750000000,I2C,0x4F + ACK
6.143211750000000,I2C,Setup Write to [0x3A] + ACK
6.143244500000000,I2C,0x1C + ACK
6.143276250000000,I2C,0x95 + ACK
6.144214250000000,I2C,Setup Write to [0x3A] + ACK
6.144247000000000,I2C,0x1B + ACK
6.144278750000000,I2C,0xC3 + ACK
6.145213500000000,I2C,Setup Write to [0x3A] + ACK
6.145246250000000,I2C,0x01 + ACK
6.145278000000000,I2C,0x0C + ACK
6.146212000000000,I2C,Setup Write to [0x3A] + ACK
6.146244750000000,I2C,0x17 + ACK
6.146276500000000,I2C,0x08 + ACK
6.147216250000000,I2C,Setup Write to [0x3A] + ACK
6.147249000000000,I2C,0x07 + ACK
6.147281000000000,I2C,0xF5 + ACK
6.148213750000000,I2C,Setup Write to [0x3A] + ACK
6.148246500000000,I2C,0x1E + ACK
6.148278250000000,I2C,0x27 + ACK
6.149216750000000,I2C,Setup Write to [0x3A] + ACK
6.149249500000000,I2C,0x06 + ACK
6.149281500000000,I2C,0x13 + ACK
6.150215500000000,I2C,Setup Write to [0x3A] + ACK
6.150248000000000,I2C,0x1B + ACK
6.150280000000000,I2C,0xC3 + ACK
6.151214500000000,I2C,Setup Write to [0x3A] + ACK
6.151247250000000,I2C,0x1F + ACK
6.151279250000000,I2C,0x27 + ACK
6.252258750000000,I2C,Setup Write to [0x3A] + ACK
6.252292250000000,I2C,0x1B + ACK
6.252324250000000,I2C,0xE3 + ACK
6.253254000000000,I2C,Setup Write to [0x3A] + ACK
6.253286750000000,I2C,0x03 + ACK
6.253318500000000,I2C,0xC0 + ACK
6.254260500000000,I2C,Setup Write to [0x3A] + ACK
6.254293500000000,I2C,0x02 + ACK
6.254325250000000,I2C,0x40 + ACK
