Time [s], Analyzer Name, Decoded Protocol Result
0.000010500000000,I2C,Setup Write to [0x3A] + ACK
0.000044000000000,I2C,0x00 + ACK
0.000076250000000,I2C,0x02 + ACK
0.000108250000000,I2C,0x44 + ACK
0.000140000000000,I2C,0x40 + ACK
0.000172000000000,I2C,0x40 + ACK
0.000205250000000,I2C,0x05 + ACK
0.000237000000000,I2C,0x69 + Missing ACK/NAK
0.000269000000000,I2C,Setup Read to [0x0B] + ACK
0.000300750000000,I2C,0x75 + ACK
0.000332750000000,I2C,0x40 + ACK
0.000364750000000,I2C,0x40 + ACK
0.000396500000000,I2C,0x06 + ACK
0.000428500000000,I2C,0x08 + ACK
0.000460250000000,I2C,0x89 + Missing ACK/NAK
0.000492250000000,I2C,Setup Write to [0x52] + ACK
0.000524250000000,I2C,0x95 + ACK
0.000556000000000,I2C,0x9C + ACK
0.000588000000000,I2C,0x73 + ACK
0.000619750000000,I2C,0x02 + ACK
0.000651750000000,I2C,0x72 + ACK
0.000683500000000,I2C,0x20 + ACK
0.000715500000000,I2C,0x0B + ACK
0.000747500000000,I2C,0xAA + ACK
0.000779250000000,I2C,0xAA + ACK
0.000811250000000,I2C,0x28 + ACK
0.000843000000000,I2C,0x30 + ACK
0.000875000000000,I2C,0x40 + ACK
0.000906750000000,I2C,0x87 + ACK
0.000938750000000,I2C,0xC2 + ACK
0.000970750000000,I2C,0x25 + ACK
0.001002500000000,I2C,0x30 + ACK
0.001034500000000,I2C,0x26 + ACK
0.001066250000000,I2C,0x47 + ACK
0.002902250000000,I2C,Setup Write to [0x3A] + ACK
0.002935250000000,I2C,0x0B + ACK
0.002967250000000,I2C,0x18 + ACK
0.003919500000000,I2C,Setup Write to [0x3A] + ACK
0.003952750000000,I2C,0x0A + ACK
0.003985000000000,I2C,0x0C + ACK
0.004899500000000,I2C,Setup Write to [0x3A] + ACK
0.004932250000000,I2C,0x0B + ACK
0.004964250000000,I2C,0x18 + ACK
0.005897500000000,I2C,Setup Write to [0x3A] + ACK
0.005930000000000,I2C,0x0B + ACK
0.005962000000000,I2C,0x18 + ACK
0.006905250000000,I2C,Setup Write to [0x3A] + ACK
0.006938000000000,I2C,0x03 + ACK
0.006969750000000,I2C,0x40 + ACK
0.007901250000000,I2C,Setup Write to [0x3A] + ACK
0.007933750000000,I2C,0x0A + ACK
0.007965750000000,I2C,0x0C + ACK
0.008905000000000,I2C,Setup Write to [0x3A] + ACK
0.008937750000000,I2C,0x04 + ACK
0.008969750000000,I2C,0x05 + ACK
0.009900250000000,I2C,Setup Write to [0x3A] + ACK
0.009933000000000,I2C,0x1E + ACK
0.009965000000000,I2C,0x26 + ACK
0.010899750000000,I2C,Setup Write to [0x3A] + ACK
0.010932500000000,I2C,0x1E + ACK
0.010964250000000,I2C,0x26 + ACK
0.011900500000000,I2C,Setup Write to [0x3A] + ACK
0.011933250000000,I2C,0x1E + ACK
0.011965250000000,I2C,0x27 + ACK
0.012904000000000,I2C,Setup Write to [0x3A] + ACK
0.012936500000000,I2C,0x12 + ACK
0.012968500000000,I2C,0x72 + ACK
0.013907500000000,I2C,Setup Write to [0x3A] + ACK
0.013940250000000,I2C,0x1E + ACK
0.013972250000000,I2C,0x27 + ACK
0.014903250000000,I2C,Setup Write to [0x3A] + ACK
0.014936250000000,I2C,0x1F + Missing ACK/NAK
0.014968000000000,I2C,Setup Write to [0x33] + ACK
0.015903500000000,I2C,Setup Write to [0x3A] + ACK
0.015936000000000,I2C,0x1B + ACK
0.015968000000000,I2C,0xC2 + ACK
0.016902250000000,I2C,Setup Write to [0x3A] + ACK
0.016935250000000,I2C,0x04 + ACK
0.016967250000000,I2C,0x05 + ACK
0.017905500000000,I2C,Setup Write to [0x3A] + ACK
0.017938000000000,I2C,0x0C + ACK
0.017970000000000,I2C,0x85 + ACK
0.018908750000000,I2C,Setup Write to [0x3A] + ACK
0.018941750000000,I2C,0x1A + ACK
0.018973500000000,I2C,0x8F + ACK
0.019968750000000,I2C,Setup Write to [0x3A] + ACK
0.020002250000000,I2C,0x05 + ACK
0.020034500000000,I2C,0x29 + ACK
0.020914000000000,I2C,Setup Write to [0x3A] + ACK
0.020946750000000,I2C,0x19 + ACK
0.020978750000000,I2C,0x00 + ACK
0.021903750000000,I2C,Setup Write to [0x3A] + ACK
0.021936500000000,I2C,0x01 + ACK
0.021968250000000,I2C,0x04 + ACK
0.022907000000000,I2C,Setup Write to [0x3A] + ACK
0.022939750000000,I2C,0x02 + ACK
0.022971500000000,I2C,0x40 + ACK
0.023924750000000,I2C,Setup Write to [0x3A] + ACK
0.023957750000000,I2C,0x08 + ACK
0.023990000000000,I2C,0x61 + ACK
0.024907000000000,I2C,Setup Write to [0x3A] + ACK
0.024939750000000,I2C,0x09 + ACK
0.024971500000000,I2C,0x40 + ACK
0.025905000000000,I2C,Setup Write to [0x3A] + ACK
0.025937750000000,I2C,0x03 + ACK
0.025969750000000,I2C,0x42 + ACK
0.026920500000000,I2C,Setup Write to [0x3A] + ACK
0.026953000000000,I2C,0x01 + ACK
0.026985250000000,I2C,0x05 + ACK
0.027910500000000,I2C,Setup Write to [0x3A] + ACK
0.027943000000000,I2C,0x1E + ACK
0.027975000000000,I2C,0xA7 + ACK
0.028914000000000,I2C,Setup Write to [0x3A] + ACK
0.028946750000000,I2C,0x11 + ACK
0.028979000000000,I2C,0x02 + ACK
0.030689000000000,I2C,Setup Write to [0x3A] + ACK
0.030722250000000,I2C,0x12 + ACK
0.030754500000000,I2C,0x72 + ACK
0.031908000000000,I2C,Setup Write to [0x3A] + ACK
0.031940500000000,I2C,0x0F + ACK
0.031972500000000,I2C,0xA4 + ACK
0.032910000000000,I2C,Setup Write to [0x3A] + ACK
0.032942750000000,I2C,0x10 + ACK
0.032974750000000,I2C,0x63 + ACK
0.033916250000000,I2C,Setup Write to [0x3A] + ACK
0.033949250000000,I2C,0x17 + ACK
0.033981250000000,I2C,0x28 + ACK
0.034910750000000,I2C,Setup Write to [0x3A] + ACK
0.034943500000000,I2C,0x1D + ACK
0.034975500000000,I2C,0x30 + ACK
0.035910250000000,I2C,Setup Write to [0x3A] + ACK
0.035943000000000,I2C,0x13 + ACK
0.035974750000000,I2C,0x20 + ACK
0.036917250000000,I2C,Setup Write to [0x3A] + ACK
0.036950000000000,I2C,0x10 + ACK
0.036982000000000,I2C,0x63 + ACK
0.037911000000000,I2C,Setup Write to [0x3A] + ACK
0.037943500000000,I2C,0x10 + ACK
0.037975500000000,I2C,0x23 + ACK
0.038918250000000,I2C,Setup Write to [0x3A] + ACK
0.038951250000000,I2C,0x14 + ACK
0.038983250000000,I2C,0x8B + ACK
0.039913000000000,I2C,Setup Write to [0x3A] + ACK
0.039945750000000,I2C,0x12 + ACK
0.039977750000000,I2C,0x72 + ACK
0.040913500000000,I2C,Setup Write to [0x3A] + ACK
0.040946250000000,I2C,0x16 + ACK
0.040978250000000,I2C,0xDF + ACK
0.041912000000000,I2C,Setup Write to [0x3A] + ACK
0.041944750000000,I2C,0x15 + ACK
0.041976500000000,I2C,0xFE + ACK
0.052919750000000,I2C,Setup Write to [0x3A] + ACK
0.052953250000000,I2C,0x00 + ACK
0.053678000000000,I2C,Setup Read to [0x3A] + ACK
0.053711500000000,I2C,0x69 + ACK
0.053743250000000,I2C,0xBD + ACK
0.053775000000000,I2C,0x32 + NAK
0.054605250000000,I2C,Setup Write to [0x3A] + ACK
0.054637750000000,I2C,0x00 + ACK
0.055362250000000,I2C,Setup Read to [0x3A] + ACK
0.055394000000000,I2C,0x69 + ACK
0.055425000000000,I2C,0xBD + ACK
0.055455750000000,I2C,0x32 + NAK
0.056279750000000,I2C,Setup Write to [0x3A] + ACK
0.056312250000000,I2C,0x00 + ACK
0.057036250000000,I2C,Setup Read to [0x3A] + ACK
0.057068000000000,I2C,0x69 + ACK
0.057099000000000,I2C,0xBD + ACK
0.057129750000000,I2C,0x32 + NAK
0.057958250000000,I2C,Setup Write to [0x3A] + ACK
0.057991000000000,I2C,0x00 + ACK
0.058715500000000,I2C,Setup Read to [0x3A] + ACK
0.058747750000000,I2C,0x69 + ACK
0.058800750000000,I2C,Setup Write to [0x46] + NAK
0.059636500000000,I2C,Setup Write to [0x3A] + ACK
0.059669000000000,I2C,0x1D + ACK
0.059701250000000,I2C,0xF0 + ACK
0.060920000000000,I2C,Setup Write to [0x3A] + ACK
0.060952750000000,I2C,0x01 + ACK
0.060984500000000,I2C,0x04 + ACK
0.061920000000000,I2C,Setup Write to [0x3A] + ACK
0.061952750000000,I2C,0x1E + ACK
0.061984750000000,I2C,0x27 + ACK
0.062925000000000,I2C,Setup Write to [0x3A] + ACK
0.062957500000000,I2C,0x00 + ACK
0.062989500000000,I2C,0x0B + ACK
0.063938250000000,I2C,Setup Write to [0x3A] + ACK
0.063971000000000,I2C,0x00 + ACK
0.064003500000000,I2C,0x0B + ACK
0.064922750000000,I2C,Setup Write to [0x3A] + ACK
0.064955500000000,I2C,0x04 + ACK
0.064987500000000,I2C,0x05 + ACK
0.065928250000000,I2C,Setup Write to [0x3A] + ACK
0.065961250000000,I2C,0x1B + ACK
0.065993000000000,I2C,0xC3 + Missing ACK/NAK
0.066927500000000,I2C,Setup Write to [0x3A] + ACK
0.066960250000000,I2C,0x0D + ACK
0.066992250000000,I2C,0xA5 + ACK
0.067921000000000,I2C,Setup Write to [0x3A] + ACK
0.067953750000000,I2C,0x1C + ACK
0.067985750000000,I2C,0x25 + ACK
0.068926000000000,I2C,Setup Write to [0x3A] + ACK
0.068959000000000,I2C,0x0E + ACK
0.068990750000000,I2C,0x95 + ACK
0.069922750000000,I2C,Setup Write to [0x3A] + ACK
0.069955500000000,I2C,0x1A + ACK
0.069987500000000,I2C,0x4F + ACK
0.070925250000000,I2C,Setup Write to [0x3A] + ACK
0.070958000000000,I2C,0x1C + ACK
0.070989750000000,I2C,0x95 + ACK
0.071924250000000,I2C,Setup Write to [0x3A] + ACK
0.071957000000000,I2C,0x1B + ACK
0.071989000000000,I2C,0xC3 + ACK
0.072923000000000,I2C,Setup Write to [0x3A] + ACK
0.072955750000000,I2C,0x01 + ACK
0.072987750000000,I2C,0x00 + ACK
0.073927750000000,I2C,Setup Write to [0x3A] + ACK
0.073960750000000,I2C,0x17 + ACK
0.073992750000000,I2C,0x08 + ACK
0.074925000000000,I2C,Setup Write to [0x3A] + ACK
0.074957750000000,I2C,0x07 + Missing ACK/NAK
0.074989500000000,I2C,Setup Read to [0x7A] + ACK
0.075931750000000,I2C,Setup Write to [0x3A] + ACK
0.075964500000000,I2C,0x1E + ACK
0.075996250000000,I2C,0x27 + ACK
0.076927250000000,I2C,Setup Write to [0x3A] + ACK
0.076959750000000,I2C,0x06 + ACK
0.076991750000000,I2C,0x13 + ACK
0.077925500000000,I2C,Setup Write to [0x3A] + ACK
0.077958000000000,I2C,0x1B + ACK
0.077990000000000,I2C,0xC3 + ACK
0.078930000000000,I2C,Setup Write to [0x3A] + ACK
0.078962750000000,I2C,0x1F + ACK
0.078994750000000,I2C,0x27 + ACK
0.179966750000000,I2C,Setup Write to [0x3A] + ACK
0.180000250000000,I2C,0x1B + ACK
0.180032500000000,I2C,0xE3 + ACK
0.180966750000000,I2C,Setup Write to [0x3A] + ACK
0.180999750000000,I2C,0x03 + ACK
0.181031500000000,I2C,0xC2 + ACK
0.181966000000000,I2C,Setup Write to [0x3A] + ACK
0.181998750000000,I2C,0x02 + ACK
0.182030750000000,I2C,0x40 + ACK
1.102945000000000,I2C,Setup Write to [0x3A] + ACK
1.102978500000000,I2C,0x00 + ACK
1.103010750000000,I2C,0x02 + ACK
1.103042750000000,I2C,0x44 + ACK
1.103074750000000,I2C,0x40 + ACK
1.103106500000000,I2C,0x40 + ACK
1.103138500000000,I2C,0x05 + ACK
1.103170500000000,I2C,0x69 + ACK
1.103202250000000,I2C,0x17 + ACK
1.103234250000000,I2C,0x75 + ACK
1.103266000000000,I2C,0x40 + ACK
1.103298000000000,I2C,0x40 + ACK
1.103329750000000,I2C,0x06 + ACK
1.103361750000000,I2C,0x08 + ACK
1.103393750000000,I2C,0x89 + ACK
1.103425500000000,I2C,0xA4 + ACK
1.103457500000000,I2C,0x95 + ACK
1.103489250000000,I2C,0x9C + ACK
1.103521250000000,I2C,0x73 + ACK
1.103553000000000,I2C,0x02 + ACK
1.103585000000000,I2C,0x72 + ACK
1.103626750000000,I2C,0x20 + ACK
1.103658750000000,I2C,0x0B + ACK
1.103690750000000,I2C,0xAA + ACK
1.103722500000000,I2C,0xAA + ACK
1.103754500000000,I2C,0x28 + ACK
1.103786250000000,I2C,0x30 + ACK
1.103818250000000,I2C,0x40 + ACK
1.103850250000000,I2C,0x87 + ACK
1.103882000000000,I2C,0xC2 + ACK
1.103914000000000,I2C,0x25 + ACK
1.103945750000000,I2C,0x30 + ACK
1.103977750000000,I2C,0x26 + ACK
1.104009750000000,I2C,0x47 + ACK
1.105325500000000,I2C,Setup Write to [0x3A] + ACK
1.105358250000000,I2C,0x0B + ACK
1.105390250000000,I2C,0x18 + ACK
1.106320750000000,I2C,Setup Write to [0x3A] + ACK
1.106353500000000,I2C,0x0A + ACK
1.106385500000000,I2C,0x0C + ACK
1.107318000000000,I2C,Setup Write to [0x3A] + ACK
1.107350750000000,I2C,0x0B + ACK
1.107382500000000,I2C,0x18 + ACK
1.108316750000000,I2C,Setup Write to [0x3A] + ACK
1.108349500000000,I2C,0x0B + ACK
1.108381500000000,I2C,0x18 + ACK
1.109321750000000,I2C,Setup Write to [0x3A] + ACK
1.109354750000000,I2C,0x03 + ACK
1.109386500000000,I2C,0x40 + ACK
1.110318500000000,I2C,Setup Write to [0x3A] + ACK
1.110351250000000,I2C,0x0A + ACK
1.110383250000000,I2C,0x0C + ACK
1.111335000000000,I2C,Setup Write to [0x3A] + ACK
1.111367750000000,I2C,0x04 + ACK
1.111400000000000,I2C,0x05 + ACK
1.112321250000000,I2C,Setup Write to [0x3A] + ACK
1.112354250000000,I2C,0x1E + ACK
1.112386000000000,I2C,0x26 + ACK
1.113318750000000,I2C,Setup Write to [0x3A] + ACK
1.113351500000000,I2C,0x1E + ACK
1.113383500000000,I2C,0x26 + ACK
1.114325000000000,I2C,Setup Write to [0x3A] + ACK
1.114357750000000,I2C,0x1E + ACK
1.114389750000000,I2C,0x27 + ACK
1.115321750000000,I2C,Setup Write to [0x3A] + ACK
1.115354500000000,I2C,0x12 + ACK
1.115386250000000,I2C,0x72 + ACK
1.116323250000000,I2C,Setup Write to [0x3A] + ACK
1.116356000000000,I2C,0x1E + ACK
1.116388000000000,I2C,0x27 + ACK
1.117331750000000,I2C,Setup Write to [0x3A] + ACK
1.117364750000000,I2C,0x1F + ACK
1.117396500000000,I2C,0x66 + ACK
1.118322500000000,I2C,Setup Write to [0x3A] + ACK
1.118355250000000,I2C,0x1B + ACK
1.118387250000000,I2C,0xC2 + ACK
1.119326000000000,I2C,Setup Write to [0x3A] + ACK
1.119358750000000,I2C,0x04 + ACK
1.119390750000000,I2C,0x05 + ACK
1.120386500000000,I2C,Setup Write to [0x3A] + ACK
1.120420000000000,I2C,0x0C + ACK
1.120452250000000,I2C,0x85 + ACK
1.121334000000000,I2C,Setup Write to [0x3A] + ACK
1.121366500000000,I2C,0x1A + ACK
1.121398500000000,I2C,0x8F + ACK
1.122332000000000,I2C,Setup Write to [0x3A] + ACK
1.122365000000000,I2C,0x05 + ACK
1.122397250000000,I2C,0x29 + ACK
1.123326250000000,I2C,Setup Write to [0x3A] + ACK
1.123359000000000,I2C,0x19 + ACK
1.123390750000000,I2C,0x00 + ACK
1.124328250000000,I2C,Setup Write to [0x3A] + ACK
1.124361000000000,I2C,0x01 + ACK
1.124393000000000,I2C,0x04 + ACK
1.125324000000000,I2C,Setup Write to [0x3A] + ACK
1.125357000000000,I2C,0x02 + ACK
1.125389000000000,I2C,0x40 + ACK
1.126326750000000,I2C,Setup Write to [0x3A] + ACK
1.126359500000000,I2C,0x08 + ACK
1.126391500000000,I2C,0x61 + ACK
1.127341250000000,I2C,Setup Write to [0x3A] + ACK
1.127374000000000,I2C,0x09 + ACK
1.127406250000000,I2C,0x40 + ACK
1.128325500000000,I2C,Setup Write to [0x3A] + ACK
1.128358500000000,I2C,0x03 + ACK
1.128390250000000,I2C,0x42 + ACK
1.129330000000000,I2C,Setup Write to [0x3A] + ACK
1.129362750000000,I2C,0x01 + ACK
1.129394750000000,I2C,0x05 + ACK
1.131109250000000,I2C,Setup Write to [0x3A] + ACK
1.131142500000000,I2C,0x1E + ACK
1.131174500000000,I2C,0xA7 + ACK
1.132346750000000,I2C,Setup Write to [0x3A] + ACK
1.132379750000000,I2C,0x11 + ACK
1.132412000000000,I2C,0x02 + ACK
1.133329250000000,I2C,Setup Write to [0x3A] + ACK
1.133361750000000,I2C,0x12 + ACK
1.133394000000000,I2C,0x72 + ACK
1.134334500000000,I2C,Setup Write to [0x3A] + ACK
1.134368000000000,I2C,0x0F + ACK
1.134399750000000,I2C,0xA4 + ACK
1.135329250000000,I2C,Setup Write to [0x3A] + ACK
1.135362250000000,I2C,0x10 + ACK
1.135394000000000,I2C,0x63 + ACK
1.136328000000000,I2C,Setup Write to [0x3A] + ACK
1.136360500000000,I2C,0x17 + ACK
1.136392500000000,I2C,0x28 + ACK
1.137330750000000,I2C,Setup Write to [0x3A] + ACK
1.137363500000000,I2C,0x1D + ACK
1.137395250000000,I2C,0x30 + ACK
1.138330750000000,I2C,Setup Write to [0x3A] + ACK
1.138363250000000,I2C,0x13 + Missing ACK/NAK
1.138395250000000,I2C,Setup Write to [0x10] + ACK
1.139334250000000,I2C,Setup Write to [0x3A] + ACK
1.139367000000000,I2C,0x10 + ACK
1.139399000000000,I2C,0x63 + ACK
1.140329500000000,I2C,Setup Write to [0x3A] + ACK
1.140362250000000,I2C,0x10 + ACK
1.140394250000000,I2C,0x23 + ACK
1.141330750000000,I2C,Setup Write to [0x3A] + ACK
1.141363250000000,I2C,0x14 + ACK
1.141395250000000,I2C,0x8B + ACK
1.142332500000000,I2C,Setup Write to [0x3A] + ACK
1.142365250000000,I2C,0x12 + ACK
1.142397000000000,I2C,0x72 + ACK
1.143333750000000,I2C,Setup Write to [0x3A] + ACK
1.143366250000000,I2C,0x16 + ACK
1.143398250000000,I2C,0xDF + Missing ACK/NAK
1.144335000000000,I2C,Setup Write to [0x3A] + ACK
1.144367750000000,I2C,0x15 + ACK
1.144399750000000,I2C,0xFE + ACK
1.155338750000000,I2C,Setup Write to [0x3A] + ACK
1.155372250000000,I2C,0x00 + ACK
1.156096750000000,I2C,Setup Read to [0x3A] + ACK
1.156148750000000,I2C,Setup Read to [0x2B] + NAK
1.156180750000000,I2C,0x46 + ACK
1.157022750000000,I2C,Setup Write to [0x3A] + ACK
1.157055250000000,I2C,0x00 + ACK
1.157779500000000,I2C,Setup Read to [0x3A] + ACK
1.157811500000000,I2C,0x69 + ACK
1.157842250000000,I2C,0xBD + ACK
1.157873000000000,I2C,0x32 + NAK
1.158697750000000,I2C,Setup Write to [0x3A] + ACK
1.158730500000000,I2C,0x00 + ACK
1.159454500000000,I2C,Setup Read to [0x3A] + ACK
1.159486000000000,I2C,0x69 + ACK
1.159517000000000,I2C,0xBD + ACK
1.159548000000000,I2C,0x32 + NAK
1.160376750000000,I2C,Setup Write to [0x3A] + ACK
1.160409250000000,I2C,0x00 + ACK
1.161133500000000,I2C,0x75 + Missing ACK/NAK
1.161178250000000,I2C,Setup Read to [0x4A] + NAK
1.161209250000000,I2C,0xD1 + NAK
1.162051750000000,I2C,Setup Write to [0x3A] + ACK
1.162084500000000,I2C,0x1D + ACK
1.162116750000000,I2C,0xF0 + ACK
1.163336500000000,I2C,0x74 + Missing ACK/NAK
1.163369250000000,I2C,Setup Read to [0x00] + ACK
1.163401000000000,I2C,0x04 + ACK
1.164345000000000,I2C,Setup Write to [0x3A] + ACK
1.164377750000000,I2C,0x1E + ACK
1.164409750000000,I2C,0x27 + ACK
1.165345250000000,I2C,Setup Write to [0x3A] + ACK
1.165378250000000,I2C,0x00 + ACK
1.165410000000000,I2C,0x0B + ACK
1.166341000000000,I2C,Setup Write to [0x3A] + ACK
1.166373750000000,I2C,0x00 + ACK
1.166405500000000,I2C,0x0B + Missing ACK/NAK
1.167340000000000,I2C,Setup Write to [0x3A] + ACK
1.167372750000000,I2C,0x04 + ACK
1.167404500000000,I2C,0x05 + ACK
1.168344250000000,I2C,Setup Write to [0x3A] + ACK
1.168377000000000,I2C,0x1B + ACK
1.168409000000000,I2C,0xC3 + ACK
1.169346500000000,I2C,Setup Write to [0x3A] + ACK
1.169379250000000,I2C,0x0D + ACK
1.169411250000000,I2C,0xA5 + ACK
1.170342500000000,I2C,Setup Write to [0x3A] + ACK
1.170375250000000,I2C,0x1C + ACK
1.170407250000000,I2C,0x25 + ACK
1.171353750000000,I2C,Setup Write to [0x3A] + ACK
1.171386500000000,I2C,0x0E + ACK
1.171418750000000,I2C,0x95 + ACK
1.172343250000000,I2C,Setup Write to [0x3A] + ACK
1.172376000000000,I2C,0x1A + ACK
1.172408000000000,I2C,0x4F + ACK
1.173342000000000,I2C,Setup Write to [0x3A] + ACK
1.173374500000000,I2C,0x1C + ACK
1.173406500000000,I2C,0x95 + Missing ACK/NAK
1.174349500000000,I2C,Setup Write to [0x3A] + ACK
1.174382500000000,I2C,0x1B + ACK
1.174414250000000,I2C,0xC3 + ACK
1.175345000000000,I2C,Setup Write to [0x3A] + ACK
1.175377750000000,I2C,0x01 + Missing ACK/NAK
1.175409750000000,I2C,Setup Write to [0x00] + ACK
1.176347000000000,I2C,Setup Write to [0x3A] + ACK
1.176379750000000,I2C,0x17 + ACK
1.176411500000000,I2C,0x08 + ACK
1.177349250000000,I2C,Setup Write to [0x3A] + ACK
1.177382250000000,I2C,0x07 + Missing ACK/NAK
1.177414250000000,I2C,Setup Read to [0x7A] + ACK
1.178344000000000,I2C,Setup Write to [0x3A] + ACK
1.178376750000000,I2C,0x1E + ACK
1.178408500000000,I2C,0x27 + ACK
1.179351750000000,I2C,Setup Write to [0x3A] + ACK
1.179384750000000,I2C,0x06 + ACK
1.179416750000000,I2C,0x13 + ACK
1.180346250000000,I2C,Setup Write to [0x3A] + ACK
1.180379000000000,I2C,0x1B + ACK
1.180411000000000,I2C,0xC3 + ACK
1.181344750000000,I2C,Setup Write to [0x3A] + ACK
1.181377750000000,I2C,0x1F + ACK
1.181409500000000,I2C,0x27 + ACK
1.182347000000000,I2C,Setup Write to [0x3A] + ACK
1.182379750000000,I2C,0x03 + ACK
1.182411750000000,I2C,0x42 + ACK
1.183345750000000,I2C,Setup Write to [0x3A] + ACK
1.183378250000000,I2C,0x02 + ACK
1.183410250000000,I2C,0x40 + ACK
3.011142750000000,I2C,Setup Write to [0x3A] + ACK
3.011176250000000,I2C,0x00 + ACK
3.011208500000000,I2C,0x02 + ACK
3.011240500000000,I2C,0x44 + ACK
3.011272250000000,I2C,0x40 + ACK
3.011304250000000,I2C,0x40 + ACK
3.011346000000000,I2C,0x05 + ACK
3.011377750000000,I2C,0x69 + ACK
3.011409750000000,I2C,0x17 + ACK
3.011441750000000,I2C,0x75 + ACK
3.011473500000000,I2C,0x40 + ACK
3.011505500000000,I2C,0x40 + ACK
3.011537250000000,I2C,0x06 + ACK
3.011569250000000,I2C,0x08 + ACK
3.011601250000000,I2C,0x89 + ACK
3.011633000000000,I2C,0xA4 + ACK
3.011665000000000,I2C,0x95 + ACK
3.011696750000000,I2C,0x9C + ACK
3.011728750000000,I2C,0x73 + ACK
3.011760750000000,I2C,0x02 + ACK
3.011792500000000,I2C,0x72 + ACK
3.011824500000000,I2C,0x20 + ACK
3.011856250000000,I2C,0x0B + ACK
3.011888250000000,I2C,0xAA + ACK
3.011920000000000,I2C,0xAA + ACK
3.011952000000000,I2C,0x28 + ACK
3.011984000000000,I2C,0x30 + ACK
3.012015750000000,I2C,0x40 + ACK
3.012047750000000,I2C,0x87 + ACK
3.012079500000000,I2C,0xC2 + ACK
3.012111500000000,I2C,0x25 + ACK
3.012143250000000,I2C,0x30 + ACK
3.012175250000000,I2C,0x26 + ACK
3.012207250000000,I2C,0x47 + ACK
3.014047750000000,I2C,Setup Write to [0x3A] + ACK
3.014080500000000,I2C,0x0B + ACK
3.014112500000000,I2C,0x18 + ACK
3.015064500000000,I2C,Setup Write to [0x3A] + ACK
3.015097750000000,I2C,0x0A + ACK
3.015130000000000,I2C,0x0C + ACK
3.016045000000000,I2C,Setup Write to [0x3A] + ACK
3.016077750000000,I2C,0x0B + ACK
3.016109750000000,I2C,0x18 + ACK
3.017043000000000,I2C,Setup Write to [0x3A] + ACK
3.017075750000000,I2C,0x0B + ACK
3.017107750000000,I2C,0x18 + ACK
3.018047250000000,I2C,Setup Write to [0x3A] + ACK
3.018079750000000,I2C,0x03 + ACK
3.018111750000000,I2C,0x40 + ACK
3.019045000000000,I2C,Setup Write to [0x3A] + ACK
3.019077750000000,I2C,0x0A + ACK
3.019109750000000,I2C,0x0C + ACK
3.020048500000000,I2C,Setup Write to [0x3A] + ACK
3.020081250000000,I2C,0x04 + ACK
3.020113250000000,I2C,0x05 + ACK
3.021102250000000,I2C,Setup Write to [0x3A] + ACK
3.021135250000000,I2C,0x1E + ACK
3.021167500000000,I2C,0x26 + ACK
3.022053000000000,I2C,Setup Write to [0x3A] + ACK
3.022086000000000,I2C,0x1E + ACK
3.022118000000000,I2C,0x26 + ACK
3.023048250000000,I2C,Setup Write to [0x3A] + ACK
3.023081000000000,I2C,0x1E + ACK
3.023113000000000,I2C,0x27 + ACK
3.024047500000000,I2C,Setup Write to [0x3A] + ACK
3.024080000000000,I2C,0x12 + ACK
3.024112000000000,I2C,0x72 + ACK
3.025052000000000,I2C,Setup Write to [0x3A] + ACK
3.025084750000000,I2C,0x1E + ACK
3.025116500000000,I2C,0x27 + ACK
3.026047000000000,I2C,Setup Write to [0x3A] + ACK
3.026079750000000,I2C,0x1F + ACK
3.026111750000000,I2C,0x66 + ACK
3.027047500000000,I2C,Setup Write to [0x3A] + ACK
3.027080250000000,I2C,0x1B + ACK
3.027112250000000,I2C,0xC2 + ACK
3.028063500000000,I2C,Setup Write to [0x3A] + ACK
3.028096000000000,I2C,0x04 + ACK
3.028128250000000,I2C,0x05 + ACK
3.029050250000000,I2C,Setup Write to [0x3A] + ACK
3.029083000000000,I2C,0x0C + ACK
3.029115000000000,I2C,0x85 + ACK
3.030052000000000,I2C,Setup Write to [0x3A] + ACK
3.030084750000000,I2C,0x1A + ACK
3.030116750000000,I2C,0x8F + ACK
3.031057500000000,I2C,Setup Write to [0x3A] + ACK
3.031090250000000,I2C,0x05 + ACK
3.031122500000000,I2C,0x29 + ACK
3.032051250000000,I2C,Setup Write to [0x3A] + ACK
3.032084250000000,I2C,0x19 + ACK
3.032116250000000,I2C,0x00 + ACK
3.033051500000000,I2C,Setup Write to [0x3A] + ACK
3.033084250000000,I2C,0x01 + ACK
3.033116250000000,I2C,0x04 + ACK
3.034050500000000,I2C,Setup Write to [0x3A] + ACK
3.034083000000000,I2C,0x02 + ACK
3.034115000000000,I2C,0x40 + ACK
3.035068500000000,I2C,Setup Write to [0x3A] + ACK
3.035101500000000,I2C,0x08 + ACK
3.035133750000000,I2C,0x61 + ACK
3.036052500000000,I2C,Setup Write to [0x3A] + ACK
3.036085250000000,I2C,0x09 + ACK
3.036117000000000,I2C,0x40 + ACK
3.037050500000000,I2C,Setup Write to [0x3A] + ACK
3.037083000000000,I2C,0x03 + ACK
3.037115000000000,I2C,0x42 + ACK
3.038060500000000,I2C,Setup Write to [0x3A] + ACK
3.038093250000000,I2C,0x01 + ACK
3.038125000000000,I2C,0x05 + ACK
3.039053500000000,I2C,Setup Write to [0x3A] + ACK
3.039086250000000,I2C,0x1E + ACK
3.039118000000000,I2C,0xA7 + ACK
3.040058250000000,I2C,Setup Write to [0x3A] + ACK
3.040091000000000,I2C,0x11 + ACK
3.040123250000000,I2C,0x02 + ACK
3.041054000000000,I2C,Setup Write to [0x3A] + ACK
3.041086500000000,I2C,0x12 + ACK
3.041118750000000,I2C,0x72 + ACK
3.042054000000000,I2C,Setup Write to [0x3A] + ACK
3.042086500000000,I2C,0x0F + ACK
3.042118500000000,I2C,0xA4 + ACK
3.043057250000000,I2C,Setup Write to [0x3A] + ACK
3.043090250000000,I2C,0x10 + ACK
3.043122250000000,I2C,0x63 + ACK
3.044054750000000,I2C,Setup Write to [0x3A] + ACK
3.044087250000000,I2C,0x17 + ACK
3.044119250000000,I2C,0x28 + ACK
3.045057500000000,I2C,Setup Write to [0x3A] + ACK
3.045090500000000,I2C,0x1D + ACK
3.045122500000000,I2C,0x30 + ACK
3.046054500000000,I2C,Setup Write to [0x3A] + ACK
3.046087500000000,I2C,0x13 + ACK
3.046119250000000,I2C,0x20 + ACK
3.047054750000000,I2C,Setup Write to [0x3A] + ACK
3.047087500000000,I2C,0x10 + ACK
3.047119250000000,I2C,0x63 + ACK
3.048057250000000,I2C,Setup Write to [0x3A] + ACK
3.048090000000000,I2C,0x10 + ACK
3.048121750000000,I2C,0x23 + ACK
3.049057250000000,I2C,Setup Write to [0x3A] + ACK
3.049090000000000,I2C,0x14 + ACK
3.049121750000000,I2C,0x8B + ACK
3.050058750000000,I2C,Setup Write to [0x3A] + ACK
3.050091500000000,I2C,0x12 + ACK
3.050123500000000,I2C,0x72 + ACK
3.051059000000000,I2C,Setup Write to [0x3A] + ACK
3.051091750000000,I2C,0x16 + ACK
3.051123500000000,I2C,0xDF + ACK
3.052056750000000,I2C,Setup Write to [0x3A] + ACK
3.052089500000000,I2C,0x15 + ACK
3.052121500000000,I2C,0xFE + ACK
3.063064250000000,I2C,Setup Write to [0x3A] + ACK
3.063097500000000,I2C,0x00 + ACK
3.063822250000000,I2C,Setup Read to [0x3A] + ACK
3.063855250000000,I2C,0x69 + ACK
3.063909250000000,I2C,Setup Write to [0x46] + NAK
3.064747500000000,I2C,Setup Write to [0x3A] + ACK
3.064780000000000,I2C,0x00 + ACK
3.065504500000000,I2C,Setup Read to [0x3A] + ACK
3.065536250000000,I2C,0x69 + ACK
3.065567250000000,I2C,0xBD + ACK
3.065598000000000,I2C,0x32 + NAK
3.066424250000000,I2C,Setup Write to [0x3A] + ACK
3.066456750000000,I2C,0x00 + ACK
3.067180750000000,I2C,Setup Read to [0x3A] + ACK
3.067212250000000,I2C,0x69 + ACK
3.067243250000000,I2C,0xBD + ACK
3.067274250000000,I2C,0x32 + NAK
3.068107000000000,I2C,Setup Write to [0x3A] + ACK
3.068139750000000,I2C,0x00 + ACK
3.068864000000000,I2C,Setup Read to [0x3A] + ACK
3.068896500000000,I2C,0x69 + ACK
3.068949750000000,I2C,Setup Write to [0x46] + NAK
3.069784250000000,I2C,Setup Write to [0x3A] + ACK
3.069816500000000,I2C,0x1D + ACK
3.069848750000000,I2C,0xF0 + ACK
3.071062250000000,I2C,Setup Write to [0x3A] + ACK
3.071095000000000,I2C,0x01 + ACK
3.071126750000000,I2C,0x04 + ACK
3.072063500000000,I2C,Setup Write to [0x3A] + ACK
3.072096250000000,I2C,0x1E + ACK
3.072128250000000,I2C,0x27 + ACK
3.073069250000000,I2C,Setup Write to [0x3A] + ACK
3.073102000000000,I2C,0x00 + ACK
3.073134000000000,I2C,0x0B + ACK
3.074066750000000,I2C,Setup Write to [0x3A] + ACK
3.074099250000000,I2C,0x00 + ACK
3.074131250000000,I2C,0x0B + Missing ACK/NAK
3.075085250000000,I2C,Setup Write to [0x3A] + ACK
3.075118000000000,I2C,0x04 + ACK
3.075150250000000,I2C,0x05 + ACK
3.076073250000000,I2C,Setup Write to [0x3A] + ACK
3.076106000000000,I2C,0x1B + ACK
3.076137750000000,I2C,0xC3 + ACK
3.077069500000000,I2C,Setup Write to [0x3A] + ACK
3.077102250000000,I2C,0x0D + ACK
3.077134250000000,I2C,0xA5 + ACK
3.078065750000000,I2C,Setup Write to [0x3A] + ACK
3.078098500000000,I2C,0x1C + ACK
3.078130500000000,I2C,0x25 + ACK
3.079065750000000,I2C,Setup Write to [0x3A] + ACK
3.079098500000000,I2C,0x0E + ACK
3.079130500000000,I2C,0x95 + ACK
3.080075000000000,I2C,Setup Write to [0x3A] + ACK
3.080107750000000,I2C,0x1A + ACK
3.080139750000000,I2C,0x4F + ACK
3.081069250000000,I2C,Setup Write to [0x3A] + ACK
3.081102000000000,I2C,0x1C + ACK
3.081134000000000,I2C,0x95 + ACK
3.082067250000000,I2C,Setup Write to [0x3A] + ACK
3.082100000000000,I2C,0x1B + ACK
3.082132000000000,I2C,0xC3 + ACK
3.083068500000000,I2C,Setup Write to [0x3A] + ACK
3.083101250000000,I2C,0x01 + ACK
3.083133250000000,I2C,0x00 + ACK
3.084068250000000,I2C,Setup Write to [0x3A] + ACK
3.084101250000000,I2C,0x17 + ACK
3.084133250000000,I2C,0x08 + ACK
3.085074750000000,I2C,Setup Write to [0x3A] + ACK
3.085107500000000,I2C,0x07 + ACK
3.085139500000000,I2C,0xF5 + ACK
3.086071000000000,I2C,Setup Write to [0x3A] + ACK
3.086104000000000,I2C,0x1E + ACK
3.086135750000000,I2C,0x27 + ACK
3.087070500000000,I2C,Setup Write to [0x3A] + ACK
3.087103250000000,I2C,0x06 + ACK
3.087135250000000,I2C,0x13 + ACK
3.088070000000000,I2C,Setup Write to [0x3A] + ACK
3.088103000000000,I2C,0x1B + ACK
3.088135000000000,I2C,0xC3 + ACK
3.089070250000000,I2C,Setup Write to [0x3A] + ACK
3.089103000000000,I2C,0x1F + ACK
3.089135000000000,I2C,0x27 + ACK
3.190112500000000,I2C,Setup Write to [0x3A] + ACK
3.190146000000000,I2C,0x1B + ACK
3.190178250000000,I2C,0xE3 + ACK
3.191111000000000,I2C,Setup Write to [0x3A] + ACK
3.191143500000000,I2C,0x03 + ACK
3.191175500000000,I2C,0xC2 + ACK
3.192109750000000,I2C,Setup Write to [0x3A] + ACK
3.192142750000000,I2C,0x02 + ACK
3.192174750000000,I2C,0x40 + ACK
4.114089750000000,I2C,Setup Write to [0x3A] + ACK
4.114123250000000,I2C,0x00 + ACK
4.114155500000000,I2C,0x02 + ACK
4.114187250000000,I2C,0x44 + ACK
4.114219250000000,I2C,0x40 + ACK
4.114251000000000,I2C,0x40 + ACK
4.114283000000000,I2C,0x05 + ACK
4.114315000000000,I2C,0x69 + ACK
4.114346750000000,I2C,0x17 + ACK
4.114378750000000,I2C,0x75 + ACK
4.114410500000000,I2C,0x40 + ACK
4.114442500000000,I2C,0x40 + ACK
4.114474500000000,I2C,0x06 + ACK
4.114506250000000,I2C,0x08 + ACK
4.114538250000000,I2C,0x89 + ACK
4.114570000000000,I2C,0xA4 + ACK
4.114602000000000,I2C,0x95 + ACK
4.114634000000000,I2C,0x9C + ACK
4.114665750000000,I2C,0x73 + ACK
4.114697750000000,I2C,0x02 + ACK
4.114729500000000,I2C,0x72 + ACK
4.114771750000000,I2C,0x20 + ACK
4.114803750000000,I2C,0x0B + ACK
4.114835500000000,I2C,0xAA + ACK
4.114867500000000,I2C,0xAA + ACK
4.114899250000000,I2C,0x28 + ACK
4.114931250000000,I2C,0x30 + ACK
4.114963000000000,I2C,0x40 + ACK
4.114995000000000,I2C,0x87 + ACK
4.115027000000000,I2C,0xC2 + ACK
4.115058750000000,I2C,0x25 + ACK
4.115090750000000,I2C,0x30 + ACK
4.115122500000000,I2C,0x26 + ACK
4.115154500000000,I2C,0x47 + ACK
4.116471750000000,I2C,Setup Write to [0x3A] + ACK
4.116504500000000,I2C,0x0B + Missing ACK/NAK
4.116536250000000,I2C,Setup Write to [0x0C] + ACK
4.117465000000000,I2C,Setup Write to [0x3A] + ACK
4.117498000000000,I2C,0x0A + ACK
4.117530000000000,I2C,0x0C + ACK
4.118472750000000,I2C,Setup Write to [0x3A] + ACK
4.118505750000000,I2C,0x0B + ACK
4.118537750000000,I2C,0x18 + ACK
4.119462250000000,I2C,Setup Write to [0x3A] + ACK
4.119494750000000,I2C,0x0B + ACK
4.119526750000000,I2C,0x18 + ACK
4.120466750000000,I2C,Setup Write to [0x3A] + ACK
4.120499500000000,I2C,0x03 + ACK
4.120531500000000,I2C,0x40 + ACK
4.121530750000000,I2C,Setup Write to [0x3A] + ACK
4.121564250000000,I2C,0x0A + ACK
4.121596750000000,I2C,0x0C + ACK
4.122487500000000,I2C,Setup Write to [0x3A] + ACK
4.122520500000000,I2C,0x04 + ACK
4.122552750000000,I2C,0x05 + ACK
4.123464750000000,I2C,Setup Write to [0x3A] + ACK
4.123497500000000,I2C,0x1E + ACK
4.123529500000000,I2C,0x26 + ACK
4.124463750000000,I2C,Setup Write to [0x3A] + ACK
4.124496250000000,I2C,0x1E + ACK
4.124528250000000,I2C,0x26 + ACK
4.125469500000000,I2C,Setup Write to [0x3A] + ACK
4.125502250000000,I2C,0x1E + ACK
4.125534250000000,I2C,0x27 + ACK
4.126468750000000,I2C,Setup Write to [0x3A] + ACK
4.126501500000000,I2C,0x12 + ACK
4.126533500000000,I2C,0x72 + ACK
4.127467500000000,I2C,Setup Write to [0x3A] + ACK
4.127500000000000,I2C,0x1E + ACK
4.127532000000000,I2C,0x27 + ACK
4.128481500000000,I2C,Setup Write to [0x3A] + ACK
4.128514750000000,I2C,0x1F + ACK
4.128546750000000,I2C,0x66 + ACK
4.129467500000000,I2C,Setup Write to [0x3A] + ACK
4.129500500000000,I2C,0x1B + ACK
4.129532250000000,I2C,0xC2 + ACK
4.130470500000000,I2C,Setup Write to [0x3A] + ACK
4.130503250000000,I2C,0x04 + ACK
4.130535000000000,I2C,0x05 + ACK
4.131469750000000,I2C,Setup Write to [0x3A] + ACK
4.131502500000000,I2C,0x0C + ACK
4.131534500000000,I2C,0x85 + ACK
4.132469250000000,I2C,Setup Write to [0x3A] + ACK
4.132501750000000,I2C,0x1A + Missing ACK/NAK
4.132533750000000,I2C,Setup Read to [0x47] + ACK
4.133493000000000,I2C,Setup Write to [0x3A] + ACK
4.133525750000000,I2C,0x05 + ACK
4.133558000000000,I2C,0x29 + ACK
4.134470250000000,I2C,0x74 + Missing ACK/NAK
4.134503000000000,I2C,Setup Read to [0x0C] + ACK
4.134534750000000,I2C,0x00 + ACK
4.135473000000000,I2C,Setup Write to [0x3A] + ACK
4.135505750000000,I2C,0x01 + ACK
4.135537750000000,I2C,0x04 + ACK
4.136472250000000,I2C,Setup Write to [0x3A] + ACK
4.136505250000000,I2C,0x02 + ACK
4.136537000000000,I2C,0x40 + ACK
4.137471000000000,I2C,Setup Write to [0x3A] + ACK
4.137503750000000,I2C,0x08 + ACK
4.137535750000000,I2C,0x61 + ACK
4.138469500000000,I2C,Setup Write to [0x3A] + ACK
4.138502000000000,I2C,0x09 + ACK
4.138534000000000,I2C,0x40 + ACK
4.139470000000000,I2C,Setup Write to [0x3A] + ACK
4.139502750000000,I2C,0x03 + ACK
4.139534500000000,I2C,0x42 + ACK
4.140476250000000,I2C,Setup Write to [0x3A] + ACK
4.140509000000000,I2C,0x01 + ACK
4.140541000000000,I2C,0x05 + ACK
4.141475250000000,I2C,Setup Write to [0x3A] + ACK
4.141508000000000,I2C,0x1E + ACK
4.141540000000000,I2C,0xA7 + ACK
4.142484750000000,I2C,Setup Write to [0x3A] + ACK
4.142517500000000,I2C,0x11 + ACK
4.142549750000000,I2C,0x02 + ACK
4.143473000000000,I2C,Setup Write to [0x3A] + ACK
4.143505750000000,I2C,0x12 + ACK
4.143538000000000,I2C,0x72 + ACK
4.144473250000000,I2C,Setup Write to [0x3A] + ACK
4.144506000000000,I2C,0x0F + ACK
4.144537750000000,I2C,0xA4 + ACK
4.145477500000000,I2C,Setup Write to [0x3A] + ACK
4.145510250000000,I2C,0x10 + ACK
4.145542250000000,I2C,0x63 + ACK
4.146474750000000,I2C,Setup Write to [0x3A] + ACK
4.146507500000000,I2C,0x17 + ACK
4.146539250000000,I2C,0x28 + ACK
4.147473500000000,I2C,Setup Write to [0x3A] + ACK
4.147506250000000,I2C,0x1D + ACK
4.147538000000000,I2C,0x30 + ACK
4.148480500000000,I2C,Setup Write to [0x3A] + ACK
4.148513250000000,I2C,0x13 + ACK
4.148545000000000,I2C,0x20 + ACK
4.149474250000000,I2C,Setup Write to [0x3A] + ACK
4.149507000000000,I2C,0x10 + ACK
4.149539000000000,I2C,0x63 + ACK
4.150477500000000,I2C,Setup Write to [0x3A] + ACK
4.150510250000000,I2C,0x10 + ACK
4.150542250000000,I2C,0x23 + ACK
4.151478750000000,I2C,Setup Write to [0x3A] + ACK
4.151511500000000,I2C,0x14 + ACK
4.151543250000000,I2C,0x8B + ACK
4.152476250000000,I2C,Setup Write to [0x3A] + ACK
4.152509000000000,I2C,0x12 + ACK
4.152541000000000,I2C,0x72 + ACK
4.153477500000000,I2C,Setup Write to [0x3A] + ACK
4.153510000000000,I2C,0x16 + ACK
4.153542000000000,I2C,0xDF + Missing ACK/NAK
4.154475750000000,I2C,Setup Write to [0x3A] + ACK
4.154508500000000,I2C,0x15 + ACK
4.154540500000000,I2C,0xFE + ACK
4.165484000000000,I2C,Setup Write to [0x3A] + ACK
4.165517500000000,I2C,0x00 + ACK
4.166242000000000,I2C,Setup Read to [0x3A] + ACK
4.166275250000000,I2C,0x69 + ACK
4.166307000000000,I2C,0xBD + ACK
4.166338500000000,I2C,0x32 + NAK
4.167167500000000,I2C,Setup Write to [0x3A] + ACK
4.167200250000000,I2C,0x00 + ACK
4.167924500000000,I2C,Setup Read to [0x3A] + ACK
4.167956250000000,I2C,0x69 + ACK
4.167987250000000,I2C,0xBD + ACK
4.168018000000000,I2C,0x32 + NAK
4.168842750000000,I2C,Setup Write to [0x3A] + ACK
4.168875500000000,I2C,0x00 + ACK
4.169599500000000,I2C,Setup Read to [0x3A] + ACK
4.169631000000000,I2C,0x69 + ACK
4.169661750000000,I2C,0xBD + ACK
4.169692500000000,I2C,0x32 + NAK
4.170522000000000,I2C,Setup Write to [0x3A] + ACK
4.170554500000000,I2C,0x00 + ACK
4.171278500000000,I2C,Setup Read to [0x3A] + ACK
4.171310750000000,I2C,0x69 + ACK
4.171341500000000,I2C,0xBD + ACK
4.171372500000000,I2C,0x32 + NAK
4.172196750000000,I2C,Setup Write to [0x3A] + ACK
4.172229250000000,I2C,0x1D + ACK
4.172261500000000,I2C,0xF0 + ACK
4.173484500000000,I2C,Setup Write to [0x3A] + ACK
4.173517500000000,I2C,0x01 + ACK
4.173549500000000,I2C,0x04 + ACK
4.174484500000000,I2C,Setup Write to [0x3A] + ACK
4.174517250000000,I2C,0x1E + ACK
4.174549000000000,I2C,0x27 + ACK
4.175492500000000,I2C,Setup Write to [0x3A] + ACK
4.175525500000000,I2C,0x00 + ACK
4.175557500000000,I2C,0x0B + ACK
4.176486500000000,I2C,Setup Write to [0x3A] + ACK
4.176519500000000,I2C,0x00 + ACK
4.176551250000000,I2C,0x0B + ACK
4.177488750000000,I2C,Setup Write to [0x3A] + ACK
4.177521500000000,I2C,0x04 + ACK
4.177553250000000,I2C,0x05 + ACK
4.178498250000000,I2C,Setup Write to [0x3A] + ACK
4.178531250000000,I2C,0x1B + ACK
4.178563000000000,I2C,0xC3 + ACK
4.179486250000000,I2C,Setup Write to [0x3A] + ACK
4.179519000000000,I2C,0x0D + ACK
4.179551000000000,I2C,0xA5 + ACK
4.180490250000000,I2C,Setup Write to [0x3A] + ACK
4.180523000000000,I2C,0x1C + ACK
4.180555000000000,I2C,0x25 + ACK
4.181486250000000,I2C,Setup Write to [0x3A] + ACK
4.181519000000000,I2C,0x0E + ACK
4.181551000000000,I2C,0x95 + ACK
4.182498000000000,I2C,Setup Write to [0x3A] + ACK
4.182530750000000,I2C,0x1A + ACK
4.182563000000000,I2C,0x4F + ACK
4.183490500000000,I2C,Setup Write to [0x3A] + ACK
4.183523250000000,I2C,0x1C + ACK
4.183555000000000,I2C,0x95 + Missing ACK/NAK
4.184488000000000,I2C,Setup Write to [0x3A] + ACK
4.184520750000000,I2C,0x1B + ACK
4.184552750000000,I2C,0xC3 + ACK
4.185491000000000,I2C,Setup Write to [0x3A] + ACK
4.185524000000000,I2C,0x01 + ACK
4.185555750000000,I2C,0x00 + ACK
4.186487750000000,I2C,Setup Write to [0x3A] + ACK
4.186520750000000,I2C,0x17 + ACK
4.186552500000000,I2C,0x08 + ACK
4.187487750000000,I2C,Setup Write to [0x3A] + ACK
4.187520500000000,I2C,0x07 + ACK
4.187552500000000,I2C,0xF5 + ACK
4.188490750000000,I2C,Setup Write to [0x3A] + ACK
4.188523500000000,I2C,0x1E + ACK
4.188555250000000,I2C,0x27 + ACK
4.189490250000000,I2C,Setup Write to [0x3A] + ACK
4.189523000000000,I2C,0x06 + ACK
4.189555000000000,I2C,0x13 + ACK
4.190493000000000,I2C,Setup Write to [0x3A] + ACK
4.190525750000000,I2C,0x1B + ACK
4.190557500000000,I2C,0xC3 + ACK
4.191490000000000,I2C,Setup Write to [0x3A] + ACK
4.191522750000000,I2C,0x1F + ACK
4.191554750000000,I2C,0x27 + ACK
4.192492000000000,I2C,Setup Write to [0x3A] + ACK
4.192524500000000,I2C,0x03 + ACK
4.192556500000000,I2C,0x42 + ACK
4.193507250000000,I2C,Setup Write to [0x3A] + ACK
4.193540250000000,I2C,0x02 + ACK
4.193572000000000,I2C,0x40 + ACK
6.022338500000000,I2C,Setup Write to [0x3A] + ACK
6.022371750000000,I2C,0x00 + ACK
6.022404000000000,I2C,0x02 + ACK
6.022436000000000,I2C,0x44 + ACK
6.022467750000000,I2C,0x40 + ACK
6.022506250000000,I2C,0x40 + ACK
6.022538250000000,I2C,0x05 + ACK
6.022570000000000,I2C,0x69 + ACK
6.022602000000000,I2C,0x17 + ACK
6.022633750000000,I2C,0x75 + ACK
6.022665750000000,I2C,0x40 + ACK
6.022697500000000,I2C,0x40 + ACK
6.022729500000000,I2C,0x06 + ACK
6.022761500000000,I2C,0x08 + ACK
6.022793250000000,I2C,0x89 + ACK
6.022825250000000,I2C,0xA4 + ACK
6.022857000000000,I2C,0x95 + ACK
6.022889000000000,I2C,0x9C + ACK
6.022921000000000,I2C,0x73 + ACK
6.022952750000000,I2C,0x02 + ACK
6.022984750000000,I2C,0x72 + ACK
6.023016500000000,I2C,0x20 + ACK
6.023048500000000,I2C,0x0B + ACK
6.023080500000000,I2C,0xAA + ACK
6.023112250000000,I2C,0xAA + ACK
6.023144250000000,I2C,0x28 + ACK
6.023176000000000,I2C,0x30 + ACK
6.023208000000000,I2C,0x40 + ACK
6.023240000000000,I2C,0x87 + ACK
6.023271750000000,I2C,0xC2 + ACK
6.023303750000000,I2C,0x25 + ACK
6.023335500000000,I2C,0x30 + ACK
6.023367500000000,I2C,0x26 + ACK
6.023399250000000,I2C,0x47 + ACK
6.025192500000000,I2C,Setup Write to [0x3A] + ACK
6.025225250000000,I2C,0x0B + ACK
6.025257000000000,I2C,0x18 + ACK
6.026208500000000,I2C,Setup Write to [0x3A] + ACK
6.026241750000000,I2C,0x0A + ACK
6.026274000000000,I2C,0x0C + ACK
6.027188500000000,I2C,Setup Write to [0x3A] + ACK
6.027221250000000,I2C,0x0B + ACK
6.027253250000000,I2C,0x18 + ACK
6.028187500000000,I2C,Setup Write to [0x3A] + ACK
6.028220250000000,I2C,0x0B + ACK
6.028252250000000,I2C,0x18 + ACK
6.029205750000000,I2C,Setup Write to [0x3A] + ACK
6.029238500000000,I2C,0x03 + ACK
6.029270750000000,I2C,0x40 + ACK
6.030190750000000,I2C,Setup Write to [0x3A] + ACK
6.030223500000000,I2C,0x0A + ACK
6.030255500000000,I2C,0x0C + ACK
6.031193250000000,I2C,Setup Write to [0x3A] + ACK
6.031226250000000,I2C,0x04 + ACK
6.031258000000000,I2C,0x05 + Missing ACK/NAK
6.032190250000000,I2C,Setup Write to [0x3A] + ACK
6.032223250000000,I2C,0x1E + ACK
6.032255250000000,I2C,0x26 + ACK
6.033189750000000,I2C,Setup Write to [0x3A] + ACK
6.033222750000000,I2C,0x1E + Missing ACK/NAK
6.033254750000000,I2C,Setup Write to [0x13] + ACK
6.034192750000000,I2C,Setup Write to [0x3A] + ACK
6.034225750000000,I2C,0x1E + ACK
6.034257750000000,I2C,0x27 + ACK
6.035192250000000,I2C,Setup Write to [0x3A] + ACK
6.035224750000000,I2C,0x12 + ACK
6.035256750000000,I2C,0x72 + ACK
6.036196000000000,I2C,Setup Write to [0x3A] + ACK
6.036228750000000,I2C,0x1E + ACK
6.036260750000000,I2C,0x27 + ACK
6.037192750000000,I2C,Setup Write to [0x3A] + ACK
6.037225750000000,I2C,0x1F + ACK
6.037257750000000,I2C,0x66 + ACK
6.038193000000000,I2C,Setup Write to [0x3A] + ACK
6.038225500000000,I2C,0x1B + ACK
6.038257500000000,I2C,0xC2 + ACK
6.039201000000000,I2C,Setup Write to [0x3A] + ACK
6.039234000000000,I2C,0x04 + ACK
6.039266000000000,I2C,0x05 + ACK
6.040194500000000,I2C,Setup Write to [0x3A] + ACK
6.040227000000000,I2C,0x0C + ACK
6.040259000000000,I2C,0x85 + ACK
6.041197750000000,I2C,Setup Write to [0x3A] + ACK
6.041230500000000,I2C,0x1A + ACK
6.041262500000000,I2C,0x8F + ACK
6.042201750000000,I2C,Setup Write to [0x3A] + ACK
6.042234750000000,I2C,0x05 + ACK
6.042267000000000,I2C,0x29 + ACK
6.043196500000000,I2C,Setup Write to [0x3A] + ACK
6.043229250000000,I2C,0x19 + ACK
6.043261250000000,I2C,0x00 + ACK
6.044196250000000,I2C,Setup Write to [0x3A] + ACK
6.044229000000000,I2C,0x01 + ACK
6.044261000000000,I2C,0x04 + ACK
6.045195000000000,I2C,Setup Write to [0x3A] + ACK
6.045227750000000,I2C,0x02 + ACK
6.045259500000000,I2C,0x40 + ACK
6.046211000000000,I2C,Setup Write to [0x3A] + ACK
6.046243750000000,I2C,0x08 + ACK
6.046276000000000,I2C,0x61 + ACK
6.047197000000000,I2C,Setup Write to [0x3A] + ACK
6.047229750000000,I2C,0x09 + ACK
6.047261500000000,I2C,0x40 + ACK
6.048195500000000,I2C,Setup Write to [0x3A] + ACK
6.048228250000000,I2C,0x03 + ACK
6.048260000000000,I2C,0x42 + ACK
6.049199750000000,I2C,Setup Write to [0x3A] + ACK
6.049232500000000,I2C,0x01 + ACK
6.049264250000000,I2C,0x05 + ACK
6.050198750000000,I2C,Setup Write to [0x3A] + ACK
6.050231500000000,I2C,0x1E + ACK
6.050263500000000,I2C,0xA7 + ACK
6.051202500000000,I2C,Setup Write to [0x3A] + ACK
6.051235250000000,I2C,0x11 + ACK
6.051267750000000,I2C,0x02 + ACK
6.052199000000000,I2C,Setup Write to [0x3A] + ACK
6.052231750000000,I2C,0x12 + ACK
6.052264000000000,I2C,0x72 + ACK
6.053199500000000,I2C,Setup Write to [0x3A] + ACK
6.053232250000000,I2C,0x0F + ACK
6.053264250000000,I2C,0xA4 + ACK
6.054215500000000,I2C,Setup Write to [0x3A] + ACK
6.054248000000000,I2C,0x10 + ACK
6.054280000000000,I2C,0x63 + ACK
6.055199750000000,I2C,Setup Write to [0x3A] + ACK
6.055232500000000,I2C,0x17 + ACK
6.055264500000000,I2C,0x28 + ACK
6.056203500000000,I2C,Setup Write to [0x3A] + ACK
6.056236250000000,I2C,0x1D + Missing ACK/NAK
6.056268250000000,I2C,Setup Write to [0x18] + ACK
6.057200000000000,I2C,Setup Write to [0x3A] + ACK
6.057232750000000,I2C,0x13 + ACK
6.057264500000000,I2C,0x20 + ACK
6.058200250000000,I2C,Setup Write to [0x3A] + ACK
6.058233000000000,I2C,0x10 + ACK
6.058265000000000,I2C,0x63 + ACK
6.059202500000000,I2C,Setup Write to [0x3A] + ACK
6.059235250000000,I2C,0x10 + ACK
6.059267250000000,I2C,0x23 + ACK
6.060202250000000,I2C,Setup Write to [0x3A] + ACK
6.060235000000000,I2C,0x14 + ACK
6.060266750000000,I2C,0x8B + ACK
6.061204500000000,I2C,Setup Write to [0x3A] + ACK
6.061237250000000,I2C,0x12 + ACK
6.061269000000000,I2C,0x72 + ACK
6.062203750000000,I2C,Setup Write to [0x3A] + ACK
6.062236500000000,I2C,0x16 + ACK
6.062268500000000,I2C,0xDF + ACK
6.063201750000000,I2C,Setup Write to [0x3A] + ACK
6.063234500000000,I2C,0x15 + ACK
6.063266250000000,I2C,0xFE + ACK
6.074208250000000,I2C,Setup Write to [0x3A] + ACK
6.074241750000000,I2C,0x00 + ACK
6.074966500000000,I2C,Setup Read to [0x3A] + ACK
6.074999500000000,I2C,0x69 + ACK
6.075031500000000,I2C,0xBD + ACK
6.075063000000000,I2C,0x32 + NAK
6.075892250000000,I2C,Setup Write to [0x3A] + ACK
6.075924750000000,I2C,0x00 + ACK
6.076649000000000,I2C,Setup Read to [0x3A] + ACK
6.076680750000000,I2C,0x69 + ACK
6.076711750000000,I2C,0xBD + ACK
6.076742750000000,I2C,0x32 + NAK
6.077569500000000,I2C,Setup Write to [0x3A] + ACK
6.077602500000000,I2C,0x00 + ACK
6.078326500000000,I2C,Setup Read to [0x3A] + ACK
6.078395250000000,I2C,Setup Write to [0x7A] + ACK
6.079250750000000,I2C,0x74 + Missing ACK/NAK
6.079283250000000,I2C,Setup Write to [0x00] + ACK
6.080007500000000,I2C,Setup Read to [0x3A] + ACK
6.080039750000000,I2C,0x69 + ACK
6.080070500000000,I2C,0xBD + ACK
6.080101250000000,I2C,0x32 + NAK
6.080927250000000,I2C,Setup Write to [0x3A] + ACK
6.080959500000000,I2C,0x1D + ACK
6.080992000000000,I2C,0xF0 + ACK
6.082208000000000,I2C,Setup Write to [0x3A] + ACK
6.082240500000000,I2C,0x01 + ACK
6.082272500000000,I2C,0x04 + ACK
6.083208250000000,I2C,Setup Write to [0x3A] + ACK
6.083241000000000,I2C,0x1E + ACK
6.083273000000000,I2C,0x27 + ACK
6.084213750000000,I2C,Setup Write to [0x3A] + ACK
6.084246500000000,I2C,0x00 + ACK
6.084278500000000,I2C,0x0B + Missing ACK/NAK
6.085211500000000,I2C,Setup Write to [0x3A] + ACK
6.085244250000000,I2C,0x00 + ACK
6.085276250000000,I2C,0x0B + ACK
6.086230250000000,I2C,Setup Write to [0x3A] + ACK
6.086263000000000,I2C,0x04 + Missing ACK/NAK
6.086295250000000,I2C,Setup Read to [0x02] + ACK
6.087218000000000,I2C,Setup Write to [0x3A] + ACK
6.087250750000000,I2C,0x1B + ACK
6.087282750000000,I2C,0xC3 + ACK
6.088210750000000,I2C,Setup Write to [0x3A] + ACK
6.088243250000000,I2C,0x0D + ACK
6.088275250000000,I2C,0xA5 + ACK
6.089211000000000,I2C,Setup Write to [0x3A] + ACK
6.089244000000000,I2C,0x1C + ACK
6.089276000000000,I2C,0x25 + ACK
6.090211000000000,I2C,Setup Write to [0x3A] + ACK
6.090243750000000,I2C,0x0E + ACK
6.090275750000000,I2C,0x95 + ACK
6.091218750000000,I2C,Setup Write to [0x3A] + ACK
6.091251750000000,I2C,0x1A + ACK
6.091283500000000,I2C,0x4F + Missing ACK/NAK
6.092214750000000,I2C,Setup Write to [0x3A] + ACK
6.092247500000000,I2C,0x1C + ACK
6.092279250000000,I2C,0x95 + ACK
6.093212250000000,I2C,Setup Write to [0x3A] + ACK
6.093245000000000,I2C,0x1B + ACK
6.093277000000000,I2C,0xC3 + ACK
6.094213250000000,I2C,Setup Write to [0x3A] + ACK
6.094246000000000,I2C,0x01 + ACK
6.094278000000000,I2C,0x00 + ACK
6.095214000000000,I2C,Setup Write to [0x3A] + ACK
6.095246750000000,I2C,0x17 + ACK
6.095278500000000,I2C,0x08 + ACK
6.096220750000000,I2C,Setup Write to [0x3A] + ACK
6.096254000000000,I2C,0x07 + ACK
6.096285750000000,I2C,0xF5 + ACK
6.097216250000000,I2C,Setup Write to [0x3A] + ACK
6.097249000000000,I2C,0x1E + ACK
6.097281000000000,I2C,0x27 + ACK
6.098215000000000,I2C,Setup Write to [0x3A] + ACK
6.098247500000000,I2C,0x06 + ACK
6.098279500000000,I2C,0x13 + ACK
6.099220250000000,I2C,Setup Write to [0x3A] + ACK
6.099253250000000,I2C,0x1B + ACK
6.099285000000000,I2C,0xC3 + ACK
6.100215750000000,I2C,Setup Write to [0x3A] + ACK
6.100248500000000,I2C,0x1F + ACK
6.100280250000000,I2C,0x27 + Missing ACK/NAK
6.201258500000000,I2C,Setup Write to [0x3A] + ACK
6.201292000000000,I2C,0x1B + ACK
6.201324250000000,I2C,0xE3 + Missing ACK/NAK
6.202255750000000,I2C,Setup Write to [0x3A] + ACK
6.202288750000000,I2C,0x03 + ACK
6.202320500000000,I2C,0xC2 + ACK
6.203254500000000,I2C,Setup Write to [0x3A] + ACK
6.203287250000000,I2C,0x02 + ACK
6.203319250000000,I2C,0x40 + ACK
