Time [s],Packet ID,Address,Data,Read/Write,ACK/NAK
0.000044250000000,0,0x3A,0x00,Write,ACK
0.000076500000000,0,0x3A,0x02,Write,ACK
0.000108250000000,0,0x3A,0x44,Write,ACK
0.000140250000000,0,0x3A,0x40,Write,ACK
0.000172000000000,0,0x3A,0x40,Write,ACK
0.000204000000000,0,0x3A,0x05,Write,ACK
0.000236000000000,0,0x3A,0x69,Write,ACK
0.000267750000000,0,0x3A,0x17,Write,ACK
0.000299750000000,0,0x3A,0x75,Write,ACK
0.000331500000000,0,0x3A,0x40,Write,ACK
0.000363500000000,0,0x3A,0x40,Write,ACK
0.000395250000000,0,0x3A,0x06,Write,ACK
0.000427250000000,0,0x3A,0x08,Write,ACK
0.000459250000000,0,0x3A,0x89,Write,ACK
0.000491000000000,0,0x3A,0xA4,Write,ACK
0.000523000000000,0,0x3A,0x95,Write,ACK
0.000554750000000,0,0x3A,0x9C,Write,ACK
0.000650500000000,1,0x01,0x72,Write,ACK
0.000682500000000,1,0x01,0x20,Write,ACK
0.000714250000000,1,0x01,0x0B,Write,ACK
0.000746250000000,1,0x01,0xAA,Write,ACK
0.000778250000000,1,0x01,0xAA,Write,ACK
0.000812250000000,1,0x01,0x28,Write,ACK
0.000844000000000,1,0x01,0x30,Write,ACK
0.000876000000000,1,0x01,0x40,Write,ACK
0.000908000000000,1,0x01,0x87,Write,ACK
0.000939750000000,1,0x01,0xC2,Write,ACK
0.000971750000000,1,0x01,0x25,Write,ACK
0.001003500000000,1,0x01,0x30,Write,ACK
0.001035500000000,1,0x01,0x26,Write,ACK
0.001067250000000,1,0x01,0x47,Write,ACK
0.002549750000000,2,0x3A,0x04,Write,ACK
0.002581750000000,2,0x3A,0x05,Write,ACK
0.003544250000000,3,0x3A,0x06,Write,ACK
0.003576000000000,3,0x3A,0xF7,Write,ACK
0.005543750000000,6,0x3A,0x07,Write,ACK
0.005575500000000,6,0x3A,0x60,Write,ACK
0.006547000000000,7,0x3A,0x1A,Write,ACK
0.006579000000000,7,0x3A,0x90,Write,ACK
0.007546500000000,8,0x3A,0x1E,Write,ACK
0.007578500000000,8,0x3A,0xAE,Write,ACK
0.008544750000000,9,0x3A,0x03,Write,ACK
0.008576750000000,9,0x3A,0x40,Write,ACK
0.009545250000000,10,0x3A,0x01,Write,ACK
0.009577000000000,10,0x3A,0x45,Write,ACK
0.010545500000000,11,0x3A,0x18,Write,ACK
0.010577500000000,11,0x3A,0x20,Write,ACK
0.011548500000000,12,0x3A,0x0A,Write,ACK
0.011580250000000,12,0x3A,0x0F,Write,ACK
0.012548250000000,13,0x3A,0x0B,Write,ACK
0.012580250000000,13,0x3A,0x60,Write,ACK
0.013546500000000,14,0x3A,0x0C,Write,ACK
0.013578500000000,14,0x3A,0x3B,Write,ACK
0.014547000000000,15,0x3A,0x1D,Write,ACK
0.014579000000000,15,0x3A,0x32,Write,ACK
0.015564750000000,16,0x3A,0x18,Write,ACK
0.015596500000000,16,0x3A,0x8B,Write,ACK
0.016552500000000,17,0x3A,0x19,Write,ACK
0.016584500000000,17,0x3A,0x8B,Write,ACK
0.017559250000000,18,0x3A,0x05,Write,ACK
0.017591250000000,18,0x3A,0xE0,Write,ACK
0.018551750000000,19,0x3A,0x19,Write,ACK
0.018583500000000,19,0x3A,0x8B,Write,ACK
0.019549000000000,20,0x3A,0x01,Write,ACK
0.019581000000000,20,0x3A,0x45,Write,ACK
0.020549750000000,21,0x3A,0x02,Write,ACK
0.020581500000000,21,0x3A,0x44,Write,ACK
0.021552250000000,22,0x3A,0x08,Write,ACK
0.021584250000000,22,0x3A,0x40,Write,ACK
0.022551500000000,23,0x3A,0x09,Write,ACK
0.023550500000000,24,0x3A,0x03,Write,ACK
0.023582500000000,24,0x3A,0x40,Write,ACK
0.024552250000000,25,0x3A,0x01,Write,ACK
0.024584250000000,25,0x3A,0x45,Write,ACK
0.025552000000000,26,0x3A,0x1E,Write,ACK
0.025583750000000,26,0x3A,0xAE,Write,ACK
0.026556500000000,27,0x3A,0x11,Write,ACK
0.026588500000000,27,0x3A,0x02,Write,ACK
0.027554500000000,28,0x3A,0x12,Write,ACK
0.027586750000000,28,0x3A,0x72,Write,ACK
0.028554000000000,29,0x3A,0x0F,Write,ACK
0.028586000000000,29,0x3A,0x9C,Write,ACK
0.029554750000000,30,0x3A,0x10,Write,ACK
0.029586750000000,30,0x3A,0x73,Write,ACK
0.030552750000000,31,0x3A,0x17,Write,ACK
0.030584750000000,31,0x3A,0x28,Write,ACK
0.031555500000000,32,0x3A,0x1D,Write,ACK
0.031587500000000,32,0x3A,0x32,Write,ACK
0.032556500000000,33,0x3A,0x13,Write,ACK
0.032588500000000,33,0x3A,0x38,Write,ACK
0.033554750000000,34,0x3A,0x10,Write,ACK
0.033586500000000,34,0x3A,0x73,Write,ACK
0.034554750000000,35,0x3A,0x10,Write,ACK
0.034586750000000,35,0x3A,0x93,Write,ACK
0.035556750000000,36,0x3A,0x14,Write,ACK
0.035588750000000,36,0x3A,0x10,Write,ACK
0.036558500000000,37,0x3A,0x12,Write,ACK
0.036590500000000,37,0x3A,0x7A,Write,ACK
0.037558750000000,38,0x3A,0x16,Write,ACK
0.037590500000000,38,0x3A,0x00,Write,ACK
0.038556500000000,39,0x3A,0x15,Write,ACK
0.038588500000000,39,0x3A,0x00,Write,ACK
0.049563000000000,40,0x3A,0x00,Write,ACK
0.050320500000000,41,0x3A,0x69,Read,ACK
0.050352250000000,41,0x3A,0xFD,Read,ACK
0.050384000000000,41,0x3A,0xBA,Read,NAK
0.051245500000000,42,0x3A,0x00,Write,ACK
0.052001750000000,43,0x3A,0x69,Read,ACK
0.052920250000000,44,0x3A,0x00,Write,ACK
0.053676000000000,45,0x3A,0x69,Read,ACK
0.053706750000000,45,0x3A,0xFD,Read,ACK
0.053737750000000,45,0x3A,0xBA,Read,NAK
0.054598750000000,46,0x3A,0x00,Write,ACK
0.055355250000000,47,0x3A,0x69,Read,ACK
0.055386000000000,47,0x3A,0xFD,Read,ACK
0.055417000000000,47,0x3A,0xBA,Read,NAK
0.056274750000000,48,0x3A,0x1D,Write,ACK
0.056306750000000,48,0x3A,0xF2,Write,ACK
0.057562000000000,49,0x3A,0x01,Write,ACK
0.057593750000000,49,0x3A,0x45,Write,ACK
0.058567250000000,50,0x3A,0x1E,Write,ACK
0.058599250000000,50,0x3A,0xAE,Write,ACK
0.059566000000000,51,0x3A,0x00,Write,ACK
0.059598000000000,51,0x3A,0x1F,Write,ACK
0.060564750000000,52,0x3A,0x0F,Write,ACK
0.060596750000000,52,0x3A,0x98,Write,ACK
0.061573000000000,53,0x3A,0x01,Write,ACK
0.061605000000000,53,0x3A,0x41,Write,ACK
0.062565750000000,54,0x3A,0x0C,Write,ACK
0.062597750000000,54,0x3A,0x10,Write,ACK
0.063568500000000,55,0x3A,0x1E,Write,ACK
0.063600500000000,55,0x3A,0x8E,Write,ACK
0.064567750000000,56,0x3A,0x0C,Write,ACK
0.064599750000000,56,0x3A,0x10,Write,ACK
0.078572500000000,57,0x3A,0x00,Write,ACK
0.079329250000000,58,0x3A,0x69,Read,ACK
0.079361000000000,58,0x3A,0xE1,Read,NAK
0.080220500000000,59,0x3A,0x00,Write,ACK
0.080976750000000,60,0x3A,0x69,Read,ACK
0.081007750000000,60,0x3A,0xE1,Read,NAK
0.081862500000000,61,0x3A,0x00,Write,ACK
0.082618500000000,62,0x3A,0x69,Read,ACK
0.082649500000000,62,0x3A,0xE1,Read,NAK
0.083505750000000,63,0x3A,0x0C,Write,ACK
0.083537500000000,63,0x3A,0x11,Write,ACK
0.097578500000000,64,0x3A,0x00,Write,ACK
0.098335500000000,65,0x3A,0x69,Read,ACK
0.098367500000000,65,0x3A,0x31,Read,NAK
0.099228750000000,66,0x3A,0x00,Write,ACK
0.100871000000000,69,0x3A,0x00,Write,ACK
0.101626750000000,70,0x3A,0x69,Read,ACK
0.101657750000000,70,0x3A,0x31,Read,NAK
0.102515500000000,71,0x3A,0x0C,Write,ACK
0.102547500000000,71,0x3A,0x12,Write,ACK
0.116587250000000,72,0x3A,0x00,Write,ACK
0.117344000000000,73,0x3A,0x69,Read,ACK
0.118991750000000,75,0x3A,0x69,Read,ACK
0.119022750000000,75,0x3A,0xC9,Read,NAK
0.119877500000000,76,0x3A,0x00,Write,ACK
0.121521000000000,78,0x3A,0x0C,Write,ACK
0.121553000000000,78,0x3A,0x13,Write,ACK
0.135597000000000,79,0x3A,0x00,Write,ACK
0.136353750000000,80,0x3A,0x69,Read,ACK
0.136385500000000,80,0x3A,0xF9,Read,NAK
0.137246250000000,81,0x3A,0x00,Write,ACK
0.138002000000000,82,0x3A,0x69,Read,ACK
0.138887750000000,83,0x3A,0x00,Write,ACK
0.139643750000000,84,0x3A,0x69,Read,ACK
0.139674750000000,84,0x3A,0xF9,Read,NAK
0.140532250000000,85,0x3A,0x0C,Write,ACK
0.140564500000000,85,0x3A,0x14,Write,ACK
0.160909750000000,86,0x3A,0x00,Write,ACK
0.161667250000000,87,0x3A,0x69,Read,ACK
0.161699000000000,87,0x3A,0xE5,Read,NAK
0.162563500000000,88,0x3A,0x00,Write,ACK
0.163801250000000,89,0x3A,0x69,Read,ACK
0.163832500000000,89,0x3A,0xA5,Read,NAK
0.165152250000000,90,0x3A,0x00,Write,ACK
0.166984000000000,91,0x3A,0x69,Read,ACK
0.167015500000000,91,0x3A,0xE5,Read,NAK
0.169779750000000,92,0x3A,0x0C,Write,ACK
0.169812000000000,92,0x3A,0x15,Write,ACK
0.267653000000000,93,0x3A,0x00,Write,ACK
0.269304500000000,96,0x3A,0x00,Write,ACK
0.270062000000000,97,0x3A,0x69,Read,ACK
0.270093500000000,97,0x3A,0xF5,Read,NAK
0.270969500000000,98,0x3A,0x00,Write,ACK
0.273250500000000,101,0x3A,0x00,Write,ACK
0.273282750000000,101,0x3A,0x00,Write,ACK
0.374768500000000,102,0x3A,0x00,Write,ACK
0.376420250000000,104,0x3A,0x00,Write,ACK
0.377176250000000,105,0x3A,0x69,Read,ACK
0.377207000000000,105,0x3A,0x19,Read,NAK
0.378062250000000,106,0x3A,0x00,Write,ACK
0.379742000000000,109,0x00,0x02,Write,ACK
0.379774000000000,109,0x00,0x44,Write,ACK
0.379805750000000,109,0x00,0x40,Write,ACK
0.379837750000000,109,0x00,0x40,Write,ACK
0.379869500000000,109,0x00,0x05,Write,ACK
0.379901500000000,109,0x00,0x69,Write,ACK
0.379933250000000,109,0x00,0x17,Write,ACK
0.379965750000000,109,0x00,0x75,Write,ACK
0.379997750000000,109,0x00,0x40,Write,ACK
0.380029500000000,109,0x00,0x40,Write,ACK
0.380061500000000,109,0x00,0x06,Write,ACK
0.380093500000000,109,0x00,0x08,Write,ACK
0.380189000000000,110,0x52,0x95,Write,ACK
0.380221000000000,110,0x52,0x9C,Write,ACK
0.380253000000000,110,0x52,0x73,Write,ACK
0.380284750000000,110,0x52,0x02,Write,ACK
0.380316750000000,110,0x52,0x72,Write,ACK
0.380348500000000,110,0x52,0x20,Write,ACK
0.380380500000000,110,0x52,0x0B,Write,ACK
0.380412500000000,110,0x52,0xAA,Write,ACK
0.380444250000000,110,0x52,0xAA,Write,ACK
0.380476250000000,110,0x52,0x28,Write,ACK
0.380508000000000,110,0x52,0x30,Write,ACK
0.380540000000000,110,0x52,0x40,Write,ACK
0.380571750000000,110,0x52,0x87,Write,ACK
0.380603750000000,110,0x52,0xC2,Write,ACK
0.380635750000000,110,0x52,0x25,Write,ACK
0.380667500000000,110,0x52,0x30,Write,ACK
0.380699500000000,110,0x52,0x26,Write,ACK
0.380731250000000,110,0x52,0x47,Write,ACK
0.381689750000000,111,0x3A,0x04,Write,ACK
0.381721750000000,111,0x3A,0x65,Write,ACK
0.382688250000000,112,0x3A,0x06,Write,ACK
0.383687250000000,113,0x3A,0x05,Write,ACK
0.383719250000000,113,0x3A,0xFF,Write,ACK
0.384688000000000,114,0x3A,0x07,Write,ACK
0.384720000000000,114,0x3A,0x68,Write,ACK
0.385691000000000,115,0x3A,0x1A,Write,ACK
0.385722750000000,115,0x3A,0x90,Write,ACK
0.386689750000000,116,0x3A,0x1E,Write,ACK
0.386721750000000,116,0x3A,0xAE,Write,ACK
0.387689250000000,117,0x3A,0x03,Write,ACK
0.387721250000000,117,0x3A,0x40,Write,ACK
0.388689250000000,118,0x3A,0x01,Write,ACK
0.388721000000000,118,0x3A,0x45,Write,ACK
0.389689500000000,119,0x3A,0x18,Write,ACK
0.389721250000000,119,0x3A,0x20,Write,ACK
0.390692500000000,120,0x3A,0x0A,Write,ACK
0.390724500000000,120,0x3A,0x0F,Write,ACK
0.391691250000000,121,0x3A,0x0B,Write,ACK
0.391723250000000,121,0x3A,0x60,Write,ACK
0.392690250000000,122,0x3A,0x0C,Write,ACK
0.392722250000000,122,0x3A,0x3B,Write,ACK
0.393691000000000,123,0x3A,0x1D,Write,ACK
0.393722750000000,123,0x3A,0x32,Write,ACK
0.394698000000000,124,0x3A,0x07,Write,ACK
0.394730250000000,124,0x3A,0x68,Write,ACK
0.395696250000000,125,0x3A,0x18,Write,ACK
0.395728000000000,125,0x3A,0xA9,Write,ACK
0.396693750000000,126,0x3A,0x19,Write,ACK
0.396725750000000,126,0x3A,0x40,Write,ACK
0.397692000000000,127,0x3A,0x19,Write,ACK
0.397724000000000,127,0x3A,0x40,Write,ACK
0.398698500000000,128,0x3A,0x05,Write,ACK
0.398730500000000,128,0x3A,0xBF,Write,ACK
0.399695500000000,129,0x3A,0x19,Write,ACK
0.399727500000000,129,0x3A,0x00,Write,ACK
0.400696500000000,130,0x3A,0x01,Write,ACK
0.400728250000000,130,0x3A,0x05,Write,ACK
0.401695250000000,131,0x3A,0x02,Write,ACK
0.401727250000000,131,0x3A,0x40,Write,ACK
0.402694000000000,132,0x3A,0x08,Write,ACK
0.402726000000000,132,0x3A,0x40,Write,ACK
0.403695500000000,133,0x3A,0x09,Write,ACK
0.403727500000000,133,0x3A,0x40,Write,ACK
0.404698500000000,134,0x3A,0x03,Write,ACK
0.404730250000000,134,0x3A,0x40,Write,ACK
0.405700000000000,135,0x3A,0x01,Write,ACK
0.405731750000000,135,0x3A,0x05,Write,ACK
0.406698750000000,136,0x3A,0x1E,Write,ACK
0.406730500000000,136,0x3A,0xAE,Write,ACK
0.407698750000000,137,0x3A,0x11,Write,ACK
0.407730750000000,137,0x3A,0x02,Write,ACK
0.408697750000000,138,0x3A,0x12,Write,ACK
0.408730000000000,138,0x3A,0x72,Write,ACK
0.409699000000000,139,0x3A,0x0F,Write,ACK
0.409730750000000,139,0x3A,0x9C,Write,ACK
0.410701500000000,140,0x3A,0x10,Write,ACK
0.410733500000000,140,0x3A,0x73,Write,ACK
0.411698750000000,141,0x3A,0x17,Write,ACK
0.411730750000000,141,0x3A,0x28,Write,ACK
0.412730250000000,142,0x0E,0x32,Read,ACK
0.413699500000000,143,0x3A,0x13,Write,ACK
0.413731250000000,143,0x3A,0x20,Write,ACK
0.414703500000000,144,0x3A,0x10,Write,ACK
0.414735250000000,144,0x3A,0x73,Write,ACK
0.415702500000000,145,0x3A,0x10,Write,ACK
0.415734500000000,145,0x3A,0x33,Write,ACK
0.416702750000000,146,0x3A,0x14,Write,ACK
0.416734500000000,146,0x3A,0x4D,Write,ACK
0.417700250000000,147,0x3A,0x12,Write,ACK
0.417732250000000,147,0x3A,0x7A,Write,ACK
0.418712250000000,148,0x3A,0x16,Write,ACK
0.418744250000000,148,0x3A,0x00,Write,ACK
0.430705500000000,151,0x3A,0x00,Write,ACK
0.431463000000000,152,0x3A,0x69,Read,ACK
0.431494250000000,152,0x3A,0xC9,Read,ACK
0.431525500000000,152,0x3A,0x2A,Read,NAK
0.432386500000000,153,0x3A,0x00,Write,ACK
0.433173500000000,154,0x34,0xC9,Read,ACK
0.433204500000000,154,0x34,0x2A,Read,NAK
0.434061750000000,155,0x3A,0x00,Write,ACK
0.434817500000000,156,0x3A,0x69,Read,ACK
0.435745750000000,157,0x3A,0x00,Write,ACK
0.436502000000000,158,0x3A,0x69,Read,ACK
0.436533000000000,158,0x3A,0xC9,Read,ACK
0.436564000000000,158,0x3A,0x2A,Read,NAK
0.437421250000000,159,0x3A,0x1D,Write,ACK
0.437453000000000,159,0x3A,0xF2,Write,ACK
0.438706500000000,160,0x3A,0x01,Write,ACK
0.438738500000000,160,0x3A,0x05,Write,ACK
0.439709000000000,161,0x3A,0x1E,Write,ACK
0.439740750000000,161,0x3A,0xAE,Write,ACK
0.440713250000000,162,0x3A,0x00,Write,ACK
0.440745250000000,162,0x3A,0x07,Write,ACK
0.441710500000000,163,0x3A,0x0C,Write,ACK
0.441742500000000,163,0x3A,0x3B,Write,ACK
0.510741250000000,164,0x3A,0x00,Write,ACK
0.511498750000000,165,0x3A,0x69,Read,ACK
0.511531250000000,165,0x3A,0xC9,Read,NAK
0.512392750000000,166,0x3A,0x00,Write,ACK
0.513148750000000,167,0x3A,0x69,Read,ACK
0.513179500000000,167,0x3A,0xC9,Read,NAK
0.514037250000000,168,0x3A,0x00,Write,ACK
0.514793000000000,169,0x3A,0x69,Read,ACK
0.514823750000000,169,0x3A,0xC9,Read,NAK
0.515685500000000,170,0x3A,0x0C,Write,ACK
0.515717500000000,170,0x3A,0x3C,Write,ACK
0.529745000000000,171,0x3A,0x00,Write,ACK
0.531393750000000,173,0x3A,0x00,Write,ACK
0.532149750000000,174,0x3A,0x69,Read,ACK
0.532180750000000,174,0x3A,0x29,Read,NAK
0.533035750000000,175,0x3A,0x00,Write,ACK
0.534681000000000,177,0x3A,0x0C,Write,ACK
0.534712750000000,177,0x3A,0x3D,Write,ACK
0.548750500000000,178,0x3A,0x00,Write,ACK
0.549507500000000,179,0x3A,0x69,Read,ACK
0.549539500000000,179,0x3A,0x19,Read,NAK
0.550399000000000,180,0x3A,0x00,Write,ACK
0.551155000000000,181,0x3A,0x69,Read,ACK
0.552041000000000,182,0x3A,0x00,Write,ACK
0.552797000000000,183,0x3A,0x69,Read,ACK
0.552828000000000,183,0x3A,0x19,Read,NAK
0.553685000000000,184,0x3A,0x0C,Write,ACK
0.553717000000000,184,0x3A,0x3E,Write,ACK
0.567885500000000,185,0x3A,0x00,Write,ACK
0.568644250000000,186,0x3A,0x69,Read,ACK
0.568676750000000,186,0x3A,0x99,Read,NAK
0.570270750000000,187,0x3A,0x00,Write,ACK
0.571032500000000,188,0x3A,0x69,Read,ACK
0.571064000000000,188,0x3A,0x99,Read,NAK
0.571928250000000,189,0x3A,0x00,Write,ACK
0.572684250000000,190,0x3A,0x69,Read,ACK
0.573573250000000,191,0x3A,0x0C,Write,ACK
0.587771500000000,192,0x3A,0x00,Write,ACK
0.588528500000000,193,0x3A,0x69,Read,ACK
0.589422750000000,194,0x3A,0x00,Write,ACK
0.590179000000000,195,0x3A,0x69,Read,ACK
0.590209750000000,195,0x3A,0xB9,Read,NAK
0.591080500000000,196,0x3A,0x00,Write,ACK
0.592734750000000,198,0x3A,0x08,Write,ACK
0.592767000000000,198,0x3A,0x40,Write,ACK
0.593769000000000,199,0x3A,0x09,Write,ACK
0.593801000000000,199,0x3A,0x40,Write,ACK
0.597775750000000,200,0x3A,0x00,Write,ACK
0.598532250000000,201,0x3A,0x69,Read,ACK
0.598564750000000,201,0x3A,0xB9,Read,NAK
0.599424000000000,202,0x3A,0x00,Write,ACK
0.600180000000000,203,0x3A,0x69,Read,ACK
0.601069750000000,204,0x3A,0x00,Write,ACK
0.601825750000000,205,0x3A,0x69,Read,ACK
0.601856500000000,205,0x3A,0xB9,Read,NAK
0.602713750000000,206,0x3A,0x08,Write,ACK
0.602745750000000,206,0x3A,0x40,Write,ACK
0.603771500000000,207,0x3A,0x09,Write,ACK
0.603803500000000,207,0x3A,0x41,Write,ACK
0.607773000000000,208,0x3A,0x00,Write,ACK
0.608529750000000,209,0x3A,0x69,Read,ACK
0.609420750000000,210,0x3A,0x00,Write,ACK
0.610176750000000,211,0x3A,0x69,Read,ACK
0.610207750000000,211,0x3A,0x85,Read,NAK
0.611063000000000,212,0x3A,0x00,Write,ACK
0.611818750000000,213,0x3A,0x69,Read,ACK
0.612706500000000,214,0x3A,0x08,Write,ACK
0.612738500000000,214,0x3A,0x40,Write,ACK
0.613775000000000,215,0x3A,0x09,Write,ACK
0.613806750000000,215,0x3A,0x61,Write,ACK
0.617790000000000,216,0x3A,0x00,Write,ACK
0.618547500000000,217,0x3A,0x69,Read,ACK
0.618579500000000,217,0x3A,0x25,Read,NAK
0.619444250000000,218,0x3A,0x00,Write,ACK
0.621086500000000,220,0x3A,0x00,Write,ACK
0.621842000000000,221,0x3A,0x69,Read,ACK
0.621873000000000,221,0x3A,0x25,Read,NAK
0.622731250000000,222,0x3A,0x08,Write,ACK
0.622763000000000,222,0x3A,0x41,Write,ACK
0.623779000000000,223,0x3A,0x09,Write,ACK
0.623811000000000,223,0x3A,0x40,Write,ACK
0.629153750000000,224,0x3A,0x00,Write,ACK
0.630805000000000,227,0x3A,0x00,Write,ACK
0.631561250000000,228,0x3A,0x69,Read,ACK
0.631592250000000,228,0x3A,0xD5,Read,NAK
0.632447500000000,229,0x3A,0x00,Write,ACK
0.633235500000000,230,0x34,0x55,Read,NAK
0.634098750000000,231,0x3A,0x08,Write,ACK
0.634131000000000,231,0x3A,0x61,Write,ACK
0.635813750000000,232,0x3A,0x09,Write,ACK
0.635846000000000,232,0x3A,0x40,Write,ACK
0.639785500000000,233,0x3A,0x00,Write,ACK
0.640542250000000,234,0x3A,0x69,Read,ACK
0.640574000000000,234,0x3A,0xD1,Read,NAK
0.641433250000000,235,0x3A,0x00,Write,ACK
0.643075250000000,237,0x3A,0x00,Write,ACK
0.643831250000000,238,0x3A,0x69,Read,ACK
0.643862000000000,238,0x3A,0xD1,Read,NAK
0.644719250000000,239,0x3A,0x08,Write,ACK
0.644751000000000,239,0x3A,0x40,Write,ACK
0.645787250000000,240,0x3A,0x09,Write,ACK
0.645819000000000,240,0x3A,0x42,Write,ACK
0.649788000000000,241,0x3A,0x00,Write,ACK
0.651444750000000,243,0x3A,0x00,Write,ACK
0.652201250000000,244,0x3A,0x69,Read,ACK
0.652232250000000,244,0x3A,0x95,Read,NAK
0.653091000000000,245,0x3A,0x00,Write,ACK
0.654735250000000,248,0x3A,0x08,Write,ACK
0.654767500000000,248,0x3A,0x40,Write,ACK
0.655797250000000,249,0x3A,0x09,Write,ACK
0.655829750000000,249,0x3A,0x62,Write,ACK
0.659793000000000,250,0x3A,0x00,Write,ACK
0.660549750000000,251,0x3A,0x69,Read,ACK
0.660581750000000,251,0x3A,0x35,Read,NAK
0.661441250000000,252,0x3A,0x00,Write,ACK
0.662197250000000,253,0x3A,0x69,Read,ACK
0.662228000000000,253,0x3A,0x35,Read,NAK
0.663083250000000,254,0x3A,0x00,Write,ACK
0.663839000000000,255,0x3A,0x69,Read,ACK
0.663870000000000,255,0x3A,0xD5,Read,NAK
0.664727000000000,256,0x3A,0x08,Write,ACK
0.664759000000000,256,0x3A,0x42,Write,ACK
0.665795250000000,257,0x3A,0x09,Write,ACK
0.665827250000000,257,0x3A,0x40,Write,ACK
0.669795750000000,258,0x3A,0x00,Write,ACK
0.670552500000000,259,0x3A,0x69,Read,ACK
0.671442750000000,260,0x3A,0x00,Write,ACK
0.672198750000000,261,0x3A,0x69,Read,ACK
0.672229750000000,261,0x3A,0xF5,Read,NAK
0.673084500000000,262,0x3A,0x00,Write,ACK
0.673840250000000,263,0x3A,0x69,Read,ACK
0.674728750000000,264,0x3A,0x08,Write,ACK
0.675799750000000,265,0x3A,0x09,Write,ACK
0.675831500000000,265,0x3A,0x40,Write,ACK
0.679800250000000,266,0x3A,0x00,Write,ACK
0.680557000000000,267,0x3A,0x69,Read,ACK
0.680589000000000,267,0x3A,0xB1,Read,NAK
0.681448250000000,268,0x3A,0x00,Write,ACK
0.683089250000000,271,0x3A,0x00,Write,ACK
0.683845000000000,272,0x3A,0x69,Read,ACK
0.683876000000000,272,0x3A,0x31,Read,NAK
0.684736750000000,273,0x3A,0x08,Write,ACK
0.684768750000000,273,0x3A,0x62,Write,ACK
0.743415750000000,274,0x3A,0x09,Write,ACK
0.743448000000000,274,0x3A,0x40,Write,ACK
0.747827000000000,275,0x3A,0x00,Write,ACK
0.748584500000000,276,0x3A,0x69,Read,ACK
0.749478000000000,277,0x3A,0x00,Write,ACK
0.754670250000000,278,0x3A,0x69,Read,ACK
0.754703000000000,278,0x3A,0xB1,Read,NAK
0.755573000000000,279,0x3A,0x00,Write,ACK
0.756330000000000,280,0x3A,0x69,Read,ACK
0.756360750000000,280,0x3A,0xB1,Read,NAK
0.757224000000000,281,0x3A,0x08,Write,ACK
0.757256250000000,281,0x3A,0x63,Write,ACK
0.758835250000000,282,0x3A,0x09,Write,ACK
0.758867250000000,282,0x3A,0x40,Write,ACK
0.762830750000000,283,0x3A,0x00,Write,ACK
0.764478250000000,285,0x3A,0x00,Write,ACK
0.765234500000000,286,0x3A,0x69,Read,ACK
0.765265500000000,286,0x3A,0xF9,Read,NAK
0.766119250000000,287,0x3A,0x00,Write,ACK
0.767764750000000,289,0x3A,0x08,Write,ACK
0.767796500000000,289,0x3A,0x61,Write,ACK
0.768837250000000,290,0x3A,0x09,Write,ACK
0.768869500000000,290,0x3A,0x40,Write,ACK
0.772835250000000,291,0x3A,0x00,Write,ACK
0.773592500000000,292,0x3A,0x69,Read,ACK
0.773624250000000,292,0x3A,0xD1,Read,NAK
0.774484250000000,293,0x3A,0x00,Write,ACK
0.775240500000000,294,0x3A,0x69,Read,ACK
0.775271250000000,294,0x3A,0xD1,Read,NAK
0.776125250000000,295,0x3A,0x00,Write,ACK
0.776881000000000,296,0x3A,0x69,Read,ACK
0.776912000000000,296,0x3A,0xD1,Read,NAK
0.777769000000000,297,0x3A,0x08,Write,ACK
0.777800750000000,297,0x3A,0x61,Write,ACK
0.778837750000000,298,0x3A,0x09,Write,ACK
0.778869750000000,298,0x3A,0x41,Write,ACK
0.782838750000000,299,0x3A,0x00,Write,ACK
0.784487000000000,302,0x3A,0x00,Write,ACK
0.785243250000000,303,0x3A,0x69,Read,ACK
0.785275000000000,303,0x3A,0xA9,Read,NAK
0.786140250000000,304,0x3A,0x00,Write,ACK
0.787783250000000,306,0x3A,0x08,Write,ACK
0.787815250000000,306,0x3A,0x61,Write,ACK
0.792843000000000,309,0x3A,0x00,Write,ACK
0.793599750000000,310,0x3A,0x69,Read,ACK
0.793631500000000,310,0x3A,0x99,Read,NAK
0.794492250000000,311,0x3A,0x00,Write,ACK
0.795248500000000,312,0x3A,0x69,Read,ACK
0.796133500000000,313,0x3A,0x00,Write,ACK
0.796889250000000,314,0x3A,0x69,Read,ACK
0.796920250000000,314,0x3A,0x99,Read,NAK
0.797779500000000,315,0x3A,0x08,Write,ACK
0.797811250000000,315,0x3A,0x61,Write,ACK
0.798845750000000,316,0x3A,0x09,Write,ACK
0.798877500000000,316,0x3A,0x41,Write,ACK
0.802846000000000,317,0x3A,0x00,Write,ACK
0.803602750000000,318,0x3A,0x69,Read,ACK
0.803634000000000,318,0x3A,0xA9,Read,NAK
0.804493250000000,319,0x3A,0x00,Write,ACK
0.805250000000000,320,0x3A,0x69,Read,ACK
0.805281250000000,320,0x3A,0x19,Read,NAK
0.806148000000000,321,0x3A,0x00,Write,ACK
0.808849750000000,326,0x3A,0x08,Write,ACK
0.812850500000000,327,0x3A,0x00,Write,ACK
0.813607250000000,328,0x3A,0x69,Read,ACK
0.813639000000000,328,0x3A,0xD1,Read,NAK
0.814499250000000,329,0x3A,0x00,Write,ACK
0.815255750000000,330,0x3A,0x69,Read,ACK
0.815287500000000,330,0x3A,0xD1,Read,NAK
0.816151000000000,331,0x3A,0x00,Write,ACK
0.816906500000000,332,0x3A,0x69,Read,ACK
0.816937500000000,332,0x3A,0xD1,Read,NAK
0.817795250000000,333,0x3A,0x09,Write,ACK
0.817827000000000,333,0x3A,0x40,Write,ACK
0.818862000000000,334,0x3A,0x08,Write,ACK
0.818894000000000,334,0x3A,0x62,Write,ACK
0.822854250000000,335,0x3A,0x00,Write,ACK
0.824503250000000,337,0x3A,0x00,Write,ACK
0.825260000000000,338,0x3A,0x69,Read,ACK
0.825292000000000,338,0x3A,0xB1,Read,NAK
0.826161000000000,339,0x3A,0x00,Write,ACK
0.827806250000000,340,0x3A,0x09,Write,ACK
0.827838500000000,340,0x3A,0x40,Write,ACK
0.828859750000000,341,0x3A,0x08,Write,ACK
0.828892000000000,341,0x3A,0x60,Write,ACK
0.832857750000000,342,0x3A,0x00,Write,ACK
0.833615000000000,343,0x3A,0x69,Read,ACK
0.833646750000000,343,0x3A,0xB9,Read,NAK
0.834506000000000,344,0x3A,0x00,Write,ACK
0.836147500000000,347,0x3A,0x00,Write,ACK
0.836903500000000,348,0x3A,0x69,Read,ACK
0.836934500000000,348,0x3A,0xB9,Read,NAK
0.837795250000000,349,0x3A,0x08,Write,ACK
0.837827000000000,349,0x3A,0x60,Write,ACK
0.838861250000000,350,0x3A,0x09,Write,ACK
0.838893000000000,350,0x3A,0x40,Write,ACK
0.842861500000000,351,0x3A,0x00,Write,ACK
0.844509250000000,353,0x3A,0x00,Write,ACK
0.845266000000000,354,0x3A,0x69,Read,ACK
0.845297250000000,354,0x3A,0xB9,Read,NAK
0.846162750000000,355,0x3A,0x00,Write,ACK
0.846918750000000,356,0x3A,0x69,Read,ACK
0.846949500000000,356,0x3A,0xB9,Read,NAK
0.847806500000000,357,0x3A,0x08,Write,ACK
0.847838250000000,357,0x3A,0x60,Write,ACK
0.848864250000000,358,0x3A,0x09,Write,ACK
0.848896000000000,358,0x3A,0x41,Write,ACK
0.852866000000000,359,0x3A,0x00,Write,ACK
0.853622750000000,360,0x3A,0x69,Read,ACK
0.853654000000000,360,0x3A,0x85,Read,NAK
0.854513500000000,361,0x3A,0x00,Write,ACK
0.855269750000000,362,0x3A,0x69,Read,ACK
0.856156000000000,363,0x3A,0x00,Write,ACK
0.856912000000000,364,0x3A,0x69,Read,ACK
0.856943000000000,364,0x3A,0x85,Read,NAK
0.857799250000000,365,0x3A,0x08,Write,ACK
0.857831000000000,365,0x3A,0x60,Write,ACK
0.858868000000000,366,0x3A,0x09,Write,ACK
0.858899750000000,366,0x3A,0x61,Write,ACK
0.862869250000000,367,0x3A,0x00,Write,ACK
0.863626000000000,368,0x3A,0x69,Read,ACK
0.863657250000000,368,0x3A,0x25,Read,NAK
0.864516500000000,369,0x3A,0x00,Write,ACK
0.865272500000000,370,0x3A,0x69,Read,ACK
0.865303500000000,370,0x3A,0x25,Read,NAK
0.866157750000000,371,0x3A,0x00,Write,ACK
0.867802750000000,374,0x3A,0x08,Write,ACK
0.867834750000000,374,0x3A,0x61,Write,ACK
0.868872500000000,375,0x3A,0x09,Write,ACK
0.868904250000000,375,0x3A,0x40,Write,ACK
0.872873250000000,376,0x3A,0x00,Write,ACK
0.873630000000000,377,0x3A,0x69,Read,ACK
0.873661500000000,377,0x3A,0xD1,Read,NAK
0.874522000000000,378,0x3A,0x00,Write,ACK
0.875278750000000,379,0x3A,0x69,Read,ACK
0.876180750000000,380,0x3A,0x00,Write,ACK
0.876936250000000,381,0x3A,0x69,Read,ACK
0.876967250000000,381,0x3A,0xD1,Read,NAK
0.877824250000000,382,0x3A,0x08,Write,ACK
0.877856250000000,382,0x3A,0x61,Write,ACK
0.878878500000000,383,0x3A,0x09,Write,ACK
0.878910500000000,383,0x3A,0x41,Write,ACK
0.882877000000000,384,0x3A,0x00,Write,ACK
0.883633750000000,385,0x3A,0x69,Read,ACK
0.884524000000000,386,0x3A,0x00,Write,ACK
0.885280000000000,387,0x3A,0x69,Read,ACK
0.885310750000000,387,0x3A,0xA9,Read,NAK
0.886164750000000,388,0x3A,0x00,Write,ACK
0.886920750000000,389,0x3A,0x69,Read,ACK
0.887808500000000,390,0x3A,0x08,Write,ACK
0.887840250000000,390,0x3A,0x61,Write,ACK
0.888881500000000,391,0x3A,0x09,Write,ACK
0.888913750000000,391,0x3A,0x61,Write,ACK
0.892881000000000,392,0x3A,0x00,Write,ACK
0.893638000000000,393,0x3A,0x69,Read,ACK
0.893670000000000,393,0x3A,0x99,Read,NAK
1.031573750000000,394,0x3A,0x00,Write,ACK
1.032332500000000,395,0x3A,0x69,Read,ACK
1.032365500000000,395,0x3A,0x99,Read,NAK
1.033234250000000,396,0x3A,0x00,Write,ACK
1.033989750000000,397,0x3A,0x69,Read,ACK
1.034020750000000,397,0x3A,0x99,Read,NAK
1.034885250000000,398,0x3A,0x08,Write,ACK
1.034917500000000,398,0x3A,0x62,Write,ACK
1.035936750000000,399,0x3A,0x09,Write,ACK
1.035968750000000,399,0x3A,0x40,Write,ACK
1.039936750000000,400,0x3A,0x00,Write,ACK
1.040693500000000,401,0x3A,0x69,Read,ACK
1.040724750000000,401,0x3A,0x31,Read,NAK
1.041584500000000,402,0x3A,0x00,Write,ACK
1.042340500000000,403,0x3A,0x69,Read,ACK
1.042371500000000,403,0x3A,0xB1,Read,NAK
1.043225250000000,404,0x3A,0x00,Write,ACK
1.043981000000000,405,0x3A,0x69,Read,ACK
1.044012250000000,405,0x3A,0x31,Read,NAK
1.044868750000000,406,0x3A,0x08,Write,ACK
1.044900750000000,406,0x3A,0x62,Write,ACK
1.045938500000000,407,0x3A,0x09,Write,ACK
1.045970500000000,407,0x3A,0x41,Write,ACK
1.049939750000000,408,0x3A,0x00,Write,ACK
1.050696500000000,409,0x3A,0x69,Read,ACK
1.051586500000000,410,0x3A,0x00,Write,ACK
1.052342750000000,411,0x3A,0x69,Read,ACK
1.052373750000000,411,0x3A,0x19,Read,NAK
1.053228250000000,412,0x3A,0x00,Write,ACK
1.053984000000000,413,0x3A,0x69,Read,ACK
1.054015000000000,413,0x3A,0x19,Read,NAK
1.054872000000000,414,0x3A,0x08,Write,ACK
1.054903750000000,414,0x3A,0x62,Write,ACK
1.055945750000000,415,0x3A,0x09,Write,ACK
1.055977500000000,415,0x3A,0x61,Write,ACK
1.059944750000000,416,0x3A,0x00,Write,ACK
1.060701500000000,417,0x3A,0x69,Read,ACK
1.060733500000000,417,0x3A,0x99,Read,NAK
1.061592750000000,418,0x3A,0x00,Write,ACK
1.062348750000000,419,0x3A,0x69,Read,ACK
1.062379500000000,419,0x3A,0x99,Read,NAK
1.063234250000000,420,0x3A,0x00,Write,ACK
1.063990000000000,421,0x3A,0x69,Read,ACK
1.064021000000000,421,0x3A,0x59,Read,NAK
1.064880750000000,422,0x3A,0x08,Write,ACK
1.064912500000000,422,0x3A,0x61,Write,ACK
1.065947500000000,423,0x3A,0x09,Write,ACK
1.065979500000000,423,0x3A,0x40,Write,ACK
1.066950000000000,424,0x3A,0x03,Write,ACK
1.066981750000000,424,0x3A,0x40,Write,ACK
1.070947500000000,425,0x3A,0x00,Write,ACK
1.071704250000000,426,0x3A,0x69,Read,ACK
1.071735750000000,426,0x3A,0xD1,Read,NAK
1.072594750000000,427,0x3A,0x00,Write,ACK
1.073350750000000,428,0x3A,0x69,Read,ACK
1.074236250000000,429,0x3A,0x00,Write,ACK
1.074992250000000,430,0x3A,0x69,Read,ACK
1.075023250000000,430,0x3A,0xD1,Read,NAK
1.075881500000000,431,0x3A,0x03,Write,ACK
1.075913500000000,431,0x3A,0x41,Write,ACK
1.079953000000000,432,0x3A,0x00,Write,ACK
1.080709750000000,433,0x3A,0x69,Read,ACK
1.080741250000000,433,0x3A,0x09,Read,NAK
1.081600000000000,434,0x3A,0x00,Write,ACK
1.082356000000000,435,0x3A,0x69,Read,ACK
1.082387000000000,435,0x3A,0x09,Read,NAK
1.083242250000000,436,0x3A,0x00,Write,ACK
1.083998000000000,437,0x3A,0x69,Read,ACK
1.084029000000000,437,0x3A,0x09,Read,NAK
1.084886500000000,438,0x3A,0x03,Write,ACK
1.084918750000000,438,0x3A,0x42,Write,ACK
1.088955000000000,439,0x3A,0x00,Write,ACK
1.089711500000000,440,0x3A,0x69,Read,ACK
1.089743250000000,440,0x3A,0xD1,Read,NAK
1.090602750000000,441,0x3A,0x00,Write,ACK
1.091360500000000,442,0x3A,0x69,Read,ACK
1.091391750000000,442,0x3A,0xD1,Read,NAK
1.092259500000000,443,0x3A,0x00,Write,ACK
1.093015000000000,444,0x3A,0x69,Read,ACK
1.093046000000000,444,0x3A,0xD1,Read,NAK
1.093905000000000,445,0x3A,0x08,Write,ACK
1.093936750000000,445,0x3A,0x40,Write,ACK
1.094958500000000,446,0x3A,0x09,Write,ACK
1.094990250000000,446,0x3A,0x40,Write,ACK
1.095958750000000,447,0x3A,0x03,Write,ACK
1.095990500000000,447,0x3A,0x40,Write,ACK
1.096964500000000,448,0x3A,0x07,Write,ACK
1.096996750000000,448,0x3A,0x68,Write,ACK
1.097961250000000,449,0x3A,0x18,Write,ACK
1.097993250000000,449,0x3A,0xA9,Write,ACK
1.098958500000000,450,0x3A,0x19,Write,ACK
1.098990250000000,450,0x3A,0x03,Write,ACK
1.099959250000000,451,0x3A,0x19,Write,ACK
1.099991250000000,451,0x3A,0x0B,Write,ACK
1.100965250000000,452,0x3A,0x05,Write,ACK
1.100997000000000,452,0x3A,0xFF,Write,ACK
1.101964750000000,453,0x3A,0x19,Write,ACK
1.101996500000000,453,0x3A,0x8B,Write,ACK
1.102962500000000,454,0x3A,0x01,Write,ACK
1.102994250000000,454,0x3A,0x45,Write,ACK
1.103960750000000,455,0x3A,0x02,Write,ACK
1.103992750000000,455,0x3A,0x4A,Write,ACK
1.104961000000000,456,0x3A,0x08,Write,ACK
1.104992750000000,456,0x3A,0x40,Write,ACK
1.105962000000000,457,0x3A,0x09,Write,ACK
1.105994000000000,457,0x3A,0x40,Write,ACK
1.106964000000000,458,0x3A,0x03,Write,ACK
1.106996000000000,458,0x3A,0x40,Write,ACK
1.107965250000000,459,0x3A,0x01,Write,ACK
1.107997250000000,459,0x3A,0x45,Write,ACK
1.108964000000000,460,0x3A,0x1E,Write,ACK
1.108996000000000,460,0x3A,0xAE,Write,ACK
1.109965000000000,461,0x3A,0x11,Write,ACK
1.109997250000000,461,0x3A,0x02,Write,ACK
1.110964750000000,462,0x3A,0x12,Write,ACK
1.110996750000000,462,0x3A,0x7A,Write,ACK
1.111968000000000,463,0x3A,0x0F,Write,ACK
1.112000000000000,463,0x3A,0x9C,Write,ACK
1.112967500000000,464,0x3A,0x10,Write,ACK
1.112999250000000,464,0x3A,0x33,Write,ACK
1.113965250000000,465,0x3A,0x17,Write,ACK
1.113997000000000,465,0x3A,0x28,Write,ACK
1.114983500000000,466,0x3A,0x1D,Write,ACK
1.115015500000000,466,0x3A,0x32,Write,ACK
1.115968750000000,467,0x3A,0x13,Write,ACK
1.116000750000000,467,0x3A,0x38,Write,ACK
1.116971750000000,468,0x3A,0x10,Write,ACK
1.117004000000000,468,0x3A,0x33,Write,ACK
1.117972250000000,469,0x3A,0x10,Write,ACK
1.118004250000000,469,0x3A,0x93,Write,ACK
1.118968250000000,470,0x3A,0x14,Write,ACK
1.119000250000000,470,0x3A,0x0C,Write,ACK
1.119967500000000,471,0x3A,0x12,Write,ACK
1.119999500000000,471,0x3A,0x72,Write,ACK
1.120969750000000,472,0x3A,0x16,Write,ACK
1.121001500000000,472,0x3A,0x5D,Write,ACK
1.132973000000000,475,0x3A,0x00,Write,ACK
1.133730500000000,476,0x3A,0x69,Read,ACK
1.133762250000000,476,0x3A,0xA5,Read,ACK
1.133793750000000,476,0x3A,0x72,Read,NAK
1.134655250000000,477,0x3A,0x00,Write,ACK
1.135461500000000,479,0x2A,0x4E,Write,ACK
1.136330500000000,480,0x3A,0x00,Write,ACK
1.137086250000000,481,0x3A,0x69,Read,ACK
1.137117250000000,481,0x3A,0xA5,Read,ACK
1.137148000000000,481,0x3A,0x72,Read,NAK
1.138008750000000,482,0x3A,0x00,Write,ACK
1.138765500000000,483,0x3A,0x69,Read,ACK
1.138796250000000,483,0x3A,0xA5,Read,ACK
1.138827250000000,483,0x3A,0x72,Read,NAK
1.139684500000000,484,0x3A,0x1D,Write,ACK
1.139716250000000,484,0x3A,0xF2,Write,ACK
1.140975750000000,485,0x3A,0x01,Write,ACK
1.141008000000000,485,0x3A,0x45,Write,ACK
1.144648500000000,486,0x3A,0x1E,Write,ACK
1.144680750000000,486,0x3A,0xAE,Write,ACK
1.145978250000000,487,0x3A,0x00,Write,ACK
1.146010250000000,487,0x3A,0x00,Write,ACK
1.146982250000000,488,0x3A,0x0C,Write,ACK
1.147014250000000,488,0x3A,0x3B,Write,ACK
1.160985250000000,489,0x3A,0x00,Write,ACK
1.161742750000000,490,0x3A,0x69,Read,ACK
1.162635750000000,491,0x3A,0x00,Write,ACK
1.163391750000000,492,0x3A,0x69,Read,ACK
1.163422750000000,492,0x3A,0xD9,Read,NAK
1.164278500000000,493,0x3A,0x00,Write,ACK
1.165034250000000,494,0x3A,0x69,Read,ACK
1.165923000000000,495,0x3A,0x0C,Write,ACK
1.165955250000000,495,0x3A,0x3C,Write,ACK
1.179993000000000,496,0x3A,0x00,Write,ACK
1.180750000000000,497,0x3A,0x69,Read,ACK
1.180782000000000,497,0x3A,0x39,Read,NAK
1.181642750000000,498,0x3A,0x00,Write,ACK
1.182399000000000,499,0x3A,0x69,Read,ACK
1.182430000000000,499,0x3A,0x39,Read,NAK
1.183285000000000,500,0x3A,0x00,Write,ACK
1.184040750000000,501,0x3A,0x69,Read,ACK
1.184071500000000,501,0x3A,0x39,Read,NAK
1.184929250000000,502,0x3A,0x0C,Write,ACK
1.184961250000000,502,0x3A,0x3D,Write,ACK
1.198997500000000,503,0x3A,0x00,Write,ACK
1.199754250000000,504,0x3A,0x69,Read,ACK
1.199786250000000,504,0x3A,0xF9,Read,NAK
1.200645750000000,505,0x3A,0x00,Write,ACK
1.201433000000000,506,0x34,0xF9,Read,NAK
1.202287750000000,507,0x3A,0x00,Write,ACK
1.203043750000000,508,0x3A,0x69,Read,ACK
1.203074750000000,508,0x3A,0xF9,Read,NAK
1.203932000000000,509,0x3A,0x0C,Write,ACK
1.203964250000000,509,0x3A,0x3E,Write,ACK
1.218012000000000,510,0x3A,0x00,Write,ACK
1.218768750000000,511,0x3A,0x69,Read,ACK
1.218801000000000,511,0x3A,0x85,Read,NAK
1.219662250000000,512,0x3A,0x00,Write,ACK
1.220418500000000,513,0x3A,0x69,Read,ACK
1.220449750000000,513,0x3A,0x85,Read,NAK
1.221312250000000,514,0x3A,0x00,Write,ACK
1.222068000000000,515,0x3A,0x69,Read,ACK
1.222099000000000,515,0x3A,0x85,Read,NAK
1.222955750000000,516,0x3A,0x0C,Write,ACK
1.222988250000000,516,0x3A,0x3F,Write,ACK
1.237015750000000,517,0x3A,0x00,Write,ACK
1.237772500000000,518,0x3A,0x69,Read,ACK
1.237805000000000,518,0x3A,0xA5,Read,NAK
1.238665750000000,519,0x3A,0x00,Write,ACK
1.239422000000000,520,0x3A,0x69,Read,ACK
1.239452750000000,520,0x3A,0xA5,Read,NAK
1.240312000000000,521,0x3A,0x00,Write,ACK
1.241067750000000,522,0x3A,0x69,Read,ACK
1.241098750000000,522,0x3A,0xA5,Read,NAK
1.241957000000000,523,0x3A,0x08,Write,ACK
1.241989500000000,523,0x3A,0x60,Write,ACK
1.243014500000000,524,0x3A,0x09,Write,ACK
1.243046250000000,524,0x3A,0x40,Write,ACK
1.247018500000000,525,0x3A,0x00,Write,ACK
1.248666000000000,527,0x3A,0x00,Write,ACK
1.249422000000000,528,0x3A,0x69,Read,ACK
1.249453000000000,528,0x3A,0xA5,Read,NAK
1.250308750000000,529,0x3A,0x00,Write,ACK
1.251064500000000,530,0x3A,0x69,Read,ACK
1.251095250000000,530,0x3A,0xA5,Read,NAK
1.252106750000000,531,0x3A,0x08,Write,ACK
1.252139000000000,531,0x3A,0x60,Write,ACK
1.253022500000000,532,0x3A,0x09,Write,ACK
1.253054500000000,532,0x3A,0x41,Write,ACK
1.257020750000000,533,0x3A,0x00,Write,ACK
1.257777500000000,534,0x3A,0x69,Read,ACK
1.257809500000000,534,0x3A,0x15,Read,NAK
1.258668250000000,535,0x3A,0x00,Write,ACK
1.259424500000000,536,0x3A,0x69,Read,ACK
1.259455250000000,536,0x3A,0x15,Read,NAK
1.260309250000000,537,0x3A,0x00,Write,ACK
1.261065000000000,538,0x3A,0x69,Read,ACK
1.261096000000000,538,0x3A,0x15,Read,NAK
1.261952750000000,539,0x3A,0x08,Write,ACK
1.261984500000000,539,0x3A,0x60,Write,ACK
1.263021000000000,540,0x3A,0x09,Write,ACK
1.263053000000000,540,0x3A,0x61,Write,ACK
1.267025250000000,541,0x3A,0x00,Write,ACK
1.267782000000000,542,0x3A,0x69,Read,ACK
1.267814250000000,542,0x3A,0x95,Read,NAK
1.268673500000000,543,0x3A,0x00,Write,ACK
1.269429750000000,544,0x3A,0x69,Read,ACK
1.269460750000000,544,0x3A,0x15,Read,NAK
1.270316000000000,545,0x3A,0x00,Write,ACK
1.271961250000000,548,0x3A,0x08,Write,ACK
1.271993500000000,548,0x3A,0x61,Write,ACK
1.277028000000000,551,0x3A,0x00,Write,ACK
1.277785000000000,552,0x3A,0x69,Read,ACK
1.277816250000000,552,0x3A,0xA9,Read,NAK
1.278676000000000,553,0x3A,0x00,Write,ACK
1.279432000000000,554,0x3A,0x69,Read,ACK
1.279463000000000,554,0x3A,0xA9,Read,NAK
1.280317000000000,555,0x3A,0x00,Write,ACK
1.281073000000000,556,0x3A,0x69,Read,ACK
1.281103750000000,556,0x3A,0xA9,Read,NAK
1.281960500000000,557,0x3A,0x08,Write,ACK
1.281992500000000,557,0x3A,0x61,Write,ACK
1.283028500000000,558,0x3A,0x09,Write,ACK
1.283060500000000,558,0x3A,0x41,Write,ACK
1.287033500000000,559,0x3A,0x00,Write,ACK
1.288681250000000,562,0x3A,0x00,Write,ACK
1.289437500000000,563,0x3A,0x69,Read,ACK
1.289468250000000,563,0x3A,0x39,Read,NAK
1.290323500000000,564,0x3A,0x00,Write,ACK
1.291079500000000,565,0x3A,0x69,Read,ACK
1.291110250000000,565,0x3A,0x39,Read,NAK
1.291966500000000,566,0x3A,0x08,Write,ACK
1.291998750000000,566,0x3A,0x61,Write,ACK
1.297037750000000,569,0x3A,0x00,Write,ACK
1.297794500000000,570,0x3A,0x69,Read,ACK
1.297826750000000,570,0x3A,0xB9,Read,NAK
1.298687250000000,571,0x3A,0x00,Write,ACK
1.300329750000000,574,0x3A,0x00,Write,ACK
1.301085750000000,575,0x3A,0x69,Read,ACK
1.301116750000000,575,0x3A,0xB9,Read,NAK
1.301975000000000,576,0x3A,0x08,Write,ACK
1.302007000000000,576,0x3A,0x62,Write,ACK
1.303037000000000,577,0x3A,0x09,Write,ACK
1.303069000000000,577,0x3A,0x40,Write,ACK
1.307040500000000,578,0x3A,0x00,Write,ACK
1.307829250000000,579,0x34,0x91,Read,NAK
1.308688250000000,580,0x3A,0x00,Write,ACK
1.309444250000000,581,0x3A,0x69,Read,ACK
1.309475250000000,581,0x3A,0x91,Read,NAK
1.310329500000000,582,0x3A,0x00,Write,ACK
1.311972500000000,584,0x3A,0x08,Write,ACK
1.312004750000000,584,0x3A,0x62,Write,ACK
1.317043500000000,587,0x3A,0x00,Write,ACK
1.317800750000000,588,0x3A,0x69,Read,ACK
1.317832250000000,588,0x3A,0x29,Read,NAK
1.318694500000000,589,0x3A,0x00,Write,ACK
1.319481500000000,590,0x34,0x29,Read,NAK
1.320336500000000,591,0x3A,0x00,Write,ACK
1.321092250000000,592,0x3A,0x69,Read,ACK
1.321123250000000,592,0x3A,0x29,Read,NAK
1.321981000000000,593,0x3A,0x08,Write,ACK
1.322012750000000,593,0x3A,0x62,Write,ACK
1.323043750000000,594,0x3A,0x09,Write,ACK
1.323075750000000,594,0x3A,0x61,Write,ACK
1.327049000000000,595,0x3A,0x00,Write,ACK
1.328696750000000,597,0x3A,0x00,Write,ACK
1.329452750000000,598,0x3A,0x69,Read,ACK
1.329483750000000,598,0x3A,0x19,Read,NAK
1.330338000000000,599,0x3A,0x00,Write,ACK
1.331983250000000,602,0x3A,0x08,Write,ACK
1.332015500000000,602,0x3A,0x62,Write,ACK
1.333048250000000,603,0x3A,0x09,Write,ACK
1.333080250000000,603,0x3A,0x40,Write,ACK
1.334048750000000,604,0x3A,0x03,Write,ACK
1.334080750000000,604,0x3A,0x40,Write,ACK
1.338049250000000,605,0x3A,0x00,Write,ACK
1.338806250000000,606,0x3A,0x69,Read,ACK
1.338837750000000,606,0x3A,0x91,Read,NAK
1.339697000000000,607,0x3A,0x00,Write,ACK
1.340453250000000,608,0x3A,0x69,Read,ACK
1.340484000000000,608,0x3A,0x91,Read,NAK
1.341338500000000,609,0x3A,0x00,Write,ACK
1.342982750000000,611,0x3A,0x03,Write,ACK
1.343014500000000,611,0x3A,0x41,Write,ACK
1.347055000000000,612,0x3A,0x00,Write,ACK
1.347811750000000,613,0x3A,0x69,Read,ACK
1.347843250000000,613,0x3A,0x31,Read,NAK
1.348703000000000,614,0x3A,0x00,Write,ACK
1.349459250000000,615,0x3A,0x69,Read,ACK
1.349490000000000,615,0x3A,0x31,Read,NAK
1.350344250000000,616,0x3A,0x00,Write,ACK
1.351988250000000,618,0x3A,0x03,Write,ACK
1.352020500000000,618,0x3A,0x42,Write,ACK
1.356059250000000,619,0x3A,0x00,Write,ACK
1.357707750000000,621,0x3A,0x00,Write,ACK
1.358464000000000,622,0x3A,0x69,Read,ACK
1.358495000000000,622,0x3A,0x91,Read,NAK
1.359350500000000,623,0x3A,0x00,Write,ACK
1.362060000000000,627,0x3A,0x18,Write,ACK
1.363060250000000,628,0x3A,0x19,Write,ACK
1.363092250000000,628,0x3A,0x8A,Write,ACK
1.364059250000000,629,0x3A,0x19,Write,ACK
1.364091250000000,629,0x3A,0x82,Write,ACK
1.365069500000000,630,0x3A,0x05,Write,ACK
1.365101500000000,630,0x3A,0xDF,Write,ACK
1.366064500000000,631,0x3A,0x19,Write,ACK
1.366096750000000,631,0x3A,0x42,Write,ACK
1.367063000000000,632,0x3A,0x01,Write,ACK
1.367094750000000,632,0x3A,0x0D,Write,ACK
1.368062250000000,633,0x3A,0x02,Write,ACK
1.368094250000000,633,0x3A,0x40,Write,ACK
1.369061000000000,634,0x3A,0x08,Write,ACK
1.369093000000000,634,0x3A,0x40,Write,ACK
1.370061250000000,635,0x3A,0x09,Write,ACK
1.370093250000000,635,0x3A,0x40,Write,ACK
1.371061750000000,636,0x3A,0x03,Write,ACK
1.371093750000000,636,0x3A,0x40,Write,ACK
1.372066000000000,637,0x3A,0x01,Write,ACK
1.372097750000000,637,0x3A,0x0D,Write,ACK
1.373065000000000,638,0x3A,0x1E,Write,ACK
1.373097000000000,638,0x3A,0xAE,Write,ACK
1.374065000000000,639,0x3A,0x11,Write,ACK
1.374097250000000,639,0x3A,0x02,Write,ACK
1.375065000000000,640,0x3A,0x12,Write,ACK
1.375097250000000,640,0x3A,0x72,Write,ACK
1.376066500000000,641,0x3A,0x0F,Write,ACK
1.376098500000000,641,0x3A,0x9C,Write,ACK
1.377068250000000,642,0x3A,0x10,Write,ACK
1.377100250000000,642,0x3A,0x93,Write,ACK
1.378066000000000,643,0x3A,0x17,Write,ACK
1.378098000000000,643,0x3A,0x28,Write,ACK
1.379065250000000,644,0x3A,0x1D,Write,ACK
1.379097250000000,644,0x3A,0x32,Write,ACK
1.380067250000000,645,0x3A,0x13,Write,ACK
1.380099000000000,645,0x3A,0x38,Write,ACK
1.381067250000000,646,0x3A,0x10,Write,ACK
1.381099000000000,646,0x3A,0x93,Write,ACK
1.382069000000000,647,0x3A,0x10,Write,ACK
1.383069500000000,648,0x3A,0x14,Write,ACK
1.383101500000000,648,0x3A,0x15,Write,ACK
1.384067750000000,649,0x3A,0x12,Write,ACK
1.384099500000000,649,0x3A,0x72,Write,ACK
1.385077000000000,650,0x3A,0x16,Write,ACK
1.385108750000000,650,0x3A,0x59,Write,ACK
1.397073750000000,653,0x3A,0x00,Write,ACK
1.397831250000000,654,0x3A,0x69,Read,ACK
1.397862750000000,654,0x3A,0xA5,Read,ACK
1.397894000000000,654,0x3A,0xAE,Read,NAK
1.398755250000000,655,0x3A,0x00,Write,ACK
1.399545500000000,656,0x69,0x4A,Write,NAK
1.400430750000000,657,0x3A,0x00,Write,ACK
1.401186250000000,658,0x3A,0x69,Read,ACK
1.402109500000000,659,0x3A,0x00,Write,ACK
1.402866000000000,660,0x3A,0x69,Read,ACK
1.402896750000000,660,0x3A,0xA5,Read,ACK
1.402927500000000,660,0x3A,0xAE,Read,NAK
1.403785000000000,661,0x3A,0x1D,Write,ACK
1.403817000000000,661,0x3A,0xF2,Write,ACK
1.405074250000000,662,0x3A,0x01,Write,ACK
1.405106250000000,662,0x3A,0x0D,Write,ACK
1.406077750000000,663,0x3A,0x1E,Write,ACK
1.406110000000000,663,0x3A,0xAE,Write,ACK
1.407079250000000,664,0x3A,0x00,Write,ACK
1.407111000000000,664,0x3A,0x0D,Write,ACK
1.408078250000000,665,0x3A,0x0C,Write,ACK
1.408110250000000,665,0x3A,0x3B,Write,ACK
1.422083250000000,666,0x3A,0x00,Write,ACK
1.422841000000000,667,0x3A,0x69,Read,ACK
1.422873500000000,667,0x3A,0xD9,Read,NAK
1.423734250000000,668,0x3A,0x00,Write,ACK
1.424490250000000,669,0x3A,0x69,Read,ACK
1.425376250000000,670,0x3A,0x00,Write,ACK
1.426132000000000,671,0x3A,0x69,Read,ACK
1.426163000000000,671,0x3A,0xD9,Read,NAK
1.427020500000000,672,0x3A,0x0C,Write,ACK
1.427052250000000,672,0x3A,0x3C,Write,ACK
1.441090000000000,673,0x3A,0x00,Write,ACK
1.441846500000000,674,0x3A,0x69,Read,ACK
1.441878500000000,674,0x3A,0x39,Read,NAK
1.442738500000000,675,0x3A,0x00,Write,ACK
1.443494500000000,676,0x3A,0x69,Read,ACK
1.443525250000000,676,0x3A,0x39,Read,NAK
1.444380500000000,677,0x3A,0x00,Write,ACK
1.445136500000000,678,0x3A,0x69,Read,ACK
1.445168000000000,678,0x3A,0x39,Read,NAK
1.446031500000000,679,0x3A,0x0C,Write,ACK
1.446063500000000,679,0x3A,0x3D,Write,ACK
1.460097250000000,680,0x3A,0x00,Write,ACK
1.460853750000000,681,0x3A,0x69,Read,ACK
1.460885750000000,681,0x3A,0xF9,Read,NAK
1.461745250000000,682,0x3A,0x00,Write,ACK
1.462501250000000,683,0x3A,0x69,Read,ACK
1.462532250000000,683,0x3A,0xF9,Read,NAK
1.463386500000000,684,0x3A,0x00,Write,ACK
1.465030250000000,687,0x3A,0x0C,Write,ACK
1.465062500000000,687,0x3A,0x3E,Write,ACK
1.479109250000000,688,0x3A,0x00,Write,ACK
1.479865750000000,689,0x3A,0x69,Read,ACK
1.479898250000000,689,0x3A,0x85,Read,NAK
1.480759750000000,690,0x3A,0x00,Write,ACK
1.481515750000000,691,0x3A,0x69,Read,ACK
1.481546500000000,691,0x3A,0x45,Read,NAK
1.482404500000000,692,0x3A,0x00,Write,ACK
1.483160000000000,693,0x3A,0x69,Read,ACK
1.483191000000000,693,0x3A,0x85,Read,NAK
1.484049000000000,694,0x3A,0x0C,Write,ACK
1.484081250000000,694,0x3A,0x3F,Write,ACK
1.498111250000000,695,0x3A,0x00,Write,ACK
1.499761000000000,697,0x3A,0x00,Write,ACK
1.500517250000000,698,0x3A,0x69,Read,ACK
1.500548000000000,698,0x3A,0xA5,Read,NAK
1.501402250000000,699,0x3A,0x00,Write,ACK
1.503047250000000,702,0x3A,0x08,Write,ACK
1.503079500000000,702,0x3A,0x60,Write,ACK
1.504113000000000,703,0x3A,0x09,Write,ACK
1.504145000000000,703,0x3A,0x40,Write,ACK
1.508115250000000,704,0x3A,0x00,Write,ACK
1.508872000000000,705,0x3A,0x69,Read,ACK
1.508904000000000,705,0x3A,0xA5,Read,NAK
1.509762500000000,706,0x3A,0x00,Write,ACK
1.511404750000000,708,0x3A,0x00,Write,ACK
1.512160750000000,709,0x3A,0x69,Read,ACK
1.512191750000000,709,0x3A,0xA5,Read,NAK
1.513048500000000,710,0x3A,0x08,Write,ACK
1.513080750000000,710,0x3A,0x60,Write,ACK
1.514117750000000,711,0x3A,0x09,Write,ACK
1.514149500000000,711,0x3A,0x41,Write,ACK
1.518121750000000,712,0x3A,0x00,Write,ACK
1.518878500000000,713,0x3A,0x69,Read,ACK
1.518910000000000,713,0x3A,0x95,Read,NAK
1.519769000000000,714,0x3A,0x00,Write,ACK
1.520525250000000,715,0x3A,0x69,Read,ACK
1.520556250000000,715,0x3A,0x15,Read,NAK
1.521411500000000,716,0x3A,0x00,Write,ACK
1.523054750000000,719,0x3A,0x08,Write,ACK
1.523086500000000,719,0x3A,0x60,Write,ACK
1.524121000000000,720,0x3A,0x09,Write,ACK
1.524152750000000,720,0x3A,0x61,Write,ACK
1.528123250000000,721,0x3A,0x00,Write,ACK
1.528880000000000,722,0x3A,0x69,Read,ACK
1.528912000000000,722,0x3A,0x95,Read,NAK
1.529770250000000,723,0x3A,0x00,Write,ACK
1.532167500000000,727,0x3A,0x69,Read,ACK
1.532198250000000,727,0x3A,0x95,Read,NAK
1.533057750000000,728,0x3A,0x08,Write,ACK
1.533090000000000,728,0x3A,0x61,Write,ACK
1.534125000000000,729,0x3A,0x09,Write,ACK
1.534157000000000,729,0x3A,0x40,Write,ACK
1.538127250000000,730,0x3A,0x00,Write,ACK
1.538884000000000,731,0x3A,0x69,Read,ACK
1.538916000000000,731,0x3A,0x29,Read,NAK
1.539775500000000,732,0x3A,0x00,Write,ACK
1.540531500000000,733,0x3A,0x69,Read,ACK
1.540562500000000,733,0x3A,0x29,Read,NAK
1.541417750000000,734,0x3A,0x00,Write,ACK
1.543061500000000,737,0x3A,0x08,Write,ACK
1.543093250000000,737,0x3A,0x61,Write,ACK
1.548130250000000,740,0x3A,0x00,Write,ACK
1.548887000000000,741,0x3A,0x69,Read,ACK
1.548919000000000,741,0x3A,0x39,Read,NAK
1.549777250000000,742,0x3A,0x00,Write,ACK
1.551419250000000,745,0x3A,0x00,Write,ACK
1.552175250000000,746,0x3A,0x69,Read,ACK
1.552206250000000,746,0x3A,0x39,Read,NAK
1.553062250000000,747,0x3A,0x08,Write,ACK
1.553094500000000,747,0x3A,0x61,Write,ACK
1.554132750000000,748,0x3A,0x09,Write,ACK
1.554164750000000,748,0x3A,0x61,Write,ACK
1.558132000000000,749,0x3A,0x00,Write,ACK
1.559779500000000,752,0x3A,0x00,Write,ACK
1.560535750000000,753,0x3A,0x69,Read,ACK
1.560566500000000,753,0x3A,0xB9,Read,NAK
1.561421250000000,754,0x3A,0x00,Write,ACK
1.563066500000000,756,0x3A,0x08,Write,ACK
1.563098250000000,756,0x3A,0x62,Write,ACK
1.564136750000000,757,0x3A,0x09,Write,ACK
1.564168750000000,757,0x3A,0x40,Write,ACK
1.568138000000000,758,0x3A,0x00,Write,ACK
1.568894750000000,759,0x3A,0x69,Read,ACK
1.568926750000000,759,0x3A,0x91,Read,NAK
1.569785000000000,760,0x3A,0x00,Write,ACK
1.571425500000000,762,0x3A,0x00,Write,ACK
1.572181500000000,763,0x3A,0x69,Read,ACK
1.572212500000000,763,0x3A,0x91,Read,NAK
1.573068750000000,764,0x3A,0x08,Write,ACK
1.573101000000000,764,0x3A,0x62,Write,ACK
1.574139500000000,765,0x3A,0x09,Write,ACK
1.574171500000000,765,0x3A,0x41,Write,ACK
1.578139500000000,766,0x3A,0x00,Write,ACK
1.579787000000000,769,0x3A,0x00,Write,ACK
1.580543000000000,770,0x3A,0x69,Read,ACK
1.580574000000000,770,0x3A,0x29,Read,NAK
1.581428250000000,771,0x3A,0x00,Write,ACK
1.582184000000000,772,0x3A,0x69,Read,ACK
1.583071000000000,773,0x3A,0x08,Write,ACK
1.583103000000000,773,0x3A,0x62,Write,ACK
1.584143500000000,774,0x3A,0x09,Write,ACK
1.588145750000000,775,0x3A,0x00,Write,ACK
1.588902500000000,776,0x3A,0x69,Read,ACK
1.588934500000000,776,0x3A,0x19,Read,NAK
1.589793250000000,777,0x3A,0x00,Write,ACK
1.590549500000000,778,0x3A,0x69,Read,ACK
1.591435250000000,779,0x3A,0x00,Write,ACK
1.592191250000000,780,0x3A,0x69,Read,ACK
1.592222250000000,780,0x3A,0x19,Read,NAK
1.593080750000000,781,0x3A,0x08,Write,ACK
1.593113000000000,781,0x3A,0x62,Write,ACK
1.594148750000000,782,0x3A,0x09,Write,ACK
1.594180500000000,782,0x3A,0x40,Write,ACK
1.595167750000000,783,0x3A,0x03,Write,ACK
1.595199750000000,783,0x3A,0x40,Write,ACK
1.599151750000000,784,0x3A,0x00,Write,ACK
1.599908250000000,785,0x3A,0x69,Read,ACK
1.599940250000000,785,0x3A,0x91,Read,NAK
1.600799000000000,786,0x3A,0x00,Write,ACK
1.602441500000000,789,0x3A,0x00,Write,ACK
1.603197500000000,790,0x3A,0x69,Read,ACK
1.603228500000000,790,0x3A,0x91,Read,NAK
1.604086000000000,791,0x3A,0x03,Write,ACK
1.604117750000000,791,0x3A,0x41,Write,ACK
1.608153750000000,792,0x3A,0x00,Write,ACK
1.608910500000000,793,0x3A,0x69,Read,ACK
1.608942500000000,793,0x3A,0x31,Read,NAK
1.609800750000000,794,0x3A,0x00,Write,ACK
1.611443000000000,796,0x3A,0x00,Write,ACK
1.612198750000000,797,0x3A,0x69,Read,ACK
1.612229750000000,797,0x3A,0x31,Read,NAK
1.613087000000000,798,0x3A,0x03,Write,ACK
1.613119250000000,798,0x3A,0x42,Write,ACK
1.617155250000000,799,0x3A,0x00,Write,ACK
1.617912250000000,800,0x3A,0x69,Read,ACK
1.617943750000000,800,0x3A,0x91,Read,NAK
1.618805750000000,801,0x3A,0x00,Write,ACK
1.619563250000000,802,0x3A,0x69,Read,ACK
1.621221000000000,804,0x3A,0x69,Read,ACK
1.621252000000000,804,0x3A,0x91,Read,NAK
1.622115500000000,805,0x3A,0x07,Write,ACK
1.622147500000000,805,0x3A,0x66,Write,ACK
1.623159250000000,806,0x3A,0x18,Write,ACK
1.623191250000000,806,0x3A,0x29,Write,ACK
1.624160500000000,807,0x3A,0x19,Write,ACK
1.624192250000000,807,0x3A,0x41,Write,ACK
1.625163750000000,808,0x3A,0x19,Write,ACK
1.625195750000000,808,0x3A,0x41,Write,ACK
1.627161500000000,811,0x3A,0x19,Write,ACK
1.627193500000000,811,0x3A,0x01,Write,ACK
1.628162500000000,812,0x3A,0x01,Write,ACK
1.628194750000000,812,0x3A,0x05,Write,ACK
1.629162750000000,813,0x3A,0x02,Write,ACK
1.629194500000000,813,0x3A,0x40,Write,ACK
1.630161500000000,814,0x3A,0x08,Write,ACK
1.630193500000000,814,0x3A,0x40,Write,ACK
1.631160250000000,815,0x3A,0x09,Write,ACK
1.631192250000000,815,0x3A,0x40,Write,ACK
1.632160250000000,816,0x3A,0x03,Write,ACK
1.632192250000000,816,0x3A,0x40,Write,ACK
1.633163000000000,817,0x3A,0x01,Write,ACK
1.633194750000000,817,0x3A,0x05,Write,ACK
1.634166000000000,818,0x3A,0x1E,Write,ACK
1.634198000000000,818,0x3A,0xAE,Write,ACK
1.636164250000000,821,0x3A,0x12,Write,ACK
1.636196500000000,821,0x3A,0x72,Write,ACK
1.637164750000000,822,0x3A,0x0F,Write,ACK
1.637196750000000,822,0x3A,0x9C,Write,ACK
1.638165000000000,823,0x3A,0x10,Write,ACK
1.638197000000000,823,0x3A,0x73,Write,ACK
1.639166500000000,824,0x3A,0x17,Write,ACK
1.639198500000000,824,0x3A,0x28,Write,ACK
1.640165750000000,825,0x3A,0x1D,Write,ACK
1.640197500000000,825,0x3A,0x32,Write,ACK
1.641165000000000,826,0x3A,0x13,Write,ACK
1.641197000000000,826,0x3A,0x38,Write,ACK
1.642165500000000,827,0x3A,0x10,Write,ACK
1.642197500000000,827,0x3A,0x73,Write,ACK
1.643166000000000,828,0x3A,0x10,Write,ACK
1.643197750000000,828,0x3A,0x53,Write,ACK
1.644173000000000,829,0x3A,0x14,Write,ACK
1.645167250000000,830,0x3A,0x12,Write,ACK
1.645199250000000,830,0x3A,0x72,Write,ACK
1.646169250000000,831,0x3A,0x16,Write,ACK
1.646201250000000,831,0x3A,0xAC,Write,ACK
1.647168000000000,832,0x3A,0x15,Write,ACK
1.647199750000000,832,0x3A,0xCE,Write,ACK
1.658174000000000,833,0x3A,0x00,Write,ACK
1.658982000000000,835,0x2B,0x4D,Read,NAK
1.659856500000000,836,0x3A,0x00,Write,ACK
1.660612750000000,837,0x3A,0x69,Read,ACK
1.660643500000000,837,0x3A,0xB9,Read,ACK
1.660674500000000,837,0x3A,0x6E,Read,NAK
1.661531500000000,838,0x3A,0x00,Write,ACK
1.662287250000000,839,0x3A,0x69,Read,ACK
1.662318250000000,839,0x3A,0xB9,Read,ACK
1.662349000000000,839,0x3A,0x6E,Read,NAK
1.663210000000000,840,0x3A,0x00,Write,ACK
1.663966250000000,841,0x3A,0x69,Read,ACK
1.664886000000000,843,0x3A,0x1D,Write,ACK
1.664918000000000,843,0x3A,0xF2,Write,ACK
1.666175750000000,844,0x3A,0x01,Write,ACK
1.666207500000000,844,0x3A,0x05,Write,ACK
1.667176750000000,845,0x3A,0x1E,Write,ACK
1.667208750000000,845,0x3A,0xAE,Write,ACK
1.668181250000000,846,0x3A,0x00,Write,ACK
1.668213500000000,846,0x3A,0x13,Write,ACK
1.669176750000000,847,0x3A,0x0C,Write,ACK
1.669208500000000,847,0x3A,0x3B,Write,ACK
1.683180250000000,848,0x3A,0x00,Write,ACK
1.683937000000000,849,0x3A,0x69,Read,ACK
1.683969250000000,849,0x3A,0x29,Read,NAK
1.684828750000000,850,0x3A,0x00,Write,ACK
1.685616500000000,851,0x34,0x29,Read,NAK
1.686482750000000,852,0x3A,0x00,Write,ACK
1.687238250000000,853,0x3A,0x69,Read,ACK
1.687269250000000,853,0x3A,0x29,Read,NAK
1.688126750000000,854,0x3A,0x0C,Write,ACK
1.688158750000000,854,0x3A,0x3C,Write,ACK
1.702190250000000,855,0x3A,0x00,Write,ACK
1.702979250000000,856,0x34,0xA9,Read,NAK
1.703839750000000,857,0x3A,0x00,Write,ACK
1.704596000000000,858,0x3A,0x69,Read,ACK
1.704626750000000,858,0x3A,0x29,Read,NAK
1.705482000000000,859,0x3A,0x00,Write,ACK
1.707126500000000,862,0x3A,0x0C,Write,ACK
1.707158750000000,862,0x3A,0x3D,Write,ACK
1.721198500000000,863,0x3A,0x00,Write,ACK
1.721955000000000,864,0x3A,0x69,Read,ACK
1.721987500000000,864,0x3A,0x19,Read,NAK
1.722848000000000,865,0x3A,0x00,Write,ACK
1.724490250000000,868,0x3A,0x00,Write,ACK
1.725246250000000,869,0x3A,0x69,Read,ACK
1.725277250000000,869,0x3A,0x19,Read,NAK
1.726135250000000,870,0x3A,0x0C,Write,ACK
1.726167500000000,870,0x3A,0x3E,Write,ACK
1.740203500000000,871,0x3A,0x00,Write,ACK
1.741852250000000,873,0x3A,0x00,Write,ACK
1.742608500000000,874,0x3A,0x69,Read,ACK
1.742639500000000,874,0x3A,0x99,Read,NAK
1.743495000000000,875,0x3A,0x00,Write,ACK
1.744251000000000,876,0x3A,0x69,Read,ACK
1.745139750000000,877,0x3A,0x0C,Write,ACK
1.745171750000000,877,0x3A,0x3F,Write,ACK
1.759211000000000,878,0x3A,0x00,Write,ACK
1.759967500000000,879,0x3A,0x69,Read,ACK
1.759999750000000,879,0x3A,0xB9,Read,NAK
1.760859250000000,880,0x3A,0x00,Write,ACK
1.762501750000000,882,0x3A,0x00,Write,ACK
1.763257500000000,883,0x3A,0x69,Read,ACK
1.763288500000000,883,0x3A,0xB9,Read,NAK
1.764146000000000,884,0x3A,0x08,Write,ACK
1.764178250000000,884,0x3A,0x60,Write,ACK
1.765211500000000,885,0x3A,0x09,Write,ACK
1.765243500000000,885,0x3A,0x40,Write,ACK
1.769214750000000,886,0x3A,0x00,Write,ACK
1.769971750000000,887,0x3A,0x69,Read,ACK
1.770863000000000,888,0x3A,0x00,Write,ACK
1.771619000000000,889,0x3A,0x69,Read,ACK
1.771649750000000,889,0x3A,0xB9,Read,NAK
1.772505000000000,890,0x3A,0x00,Write,ACK
1.774149000000000,893,0x3A,0x08,Write,ACK
1.774181500000000,893,0x3A,0x60,Write,ACK
1.775234750000000,894,0x3A,0x09,Write,ACK
1.775266500000000,894,0x3A,0x41,Write,ACK
1.779217000000000,895,0x3A,0x00,Write,ACK
1.779973750000000,896,0x3A,0x69,Read,ACK
1.780005750000000,896,0x3A,0x85,Read,NAK
1.780865000000000,897,0x3A,0x00,Write,ACK
1.781621000000000,898,0x3A,0x69,Read,ACK
1.782506000000000,899,0x3A,0x00,Write,ACK
1.783262250000000,900,0x3A,0x69,Read,ACK
1.783293250000000,900,0x3A,0x85,Read,NAK
1.784150000000000,901,0x3A,0x08,Write,ACK
1.784182000000000,901,0x3A,0x60,Write,ACK
1.785219250000000,902,0x3A,0x09,Write,ACK
1.785251250000000,902,0x3A,0x61,Write,ACK
1.789222500000000,903,0x3A,0x00,Write,ACK
1.791627250000000,906,0x3A,0x69,Read,ACK
1.791658250000000,906,0x3A,0xC5,Read,NAK
1.792513750000000,907,0x3A,0x00,Write,ACK
1.794160250000000,909,0x3A,0x08,Write,ACK
1.794192500000000,909,0x3A,0x61,Write,ACK
1.795223250000000,910,0x3A,0x09,Write,ACK
1.795255000000000,910,0x3A,0x40,Write,ACK
1.799224000000000,911,0x3A,0x00,Write,ACK
1.799980750000000,912,0x3A,0x69,Read,ACK
1.800012250000000,912,0x3A,0xB1,Read,NAK
1.800871000000000,913,0x3A,0x00,Write,ACK
1.802512250000000,915,0x3A,0x00,Write,ACK
1.803268250000000,916,0x3A,0x69,Read,ACK
1.803299250000000,916,0x3A,0xB1,Read,NAK
1.804155500000000,917,0x3A,0x08,Write,ACK
1.804187500000000,917,0x3A,0x61,Write,ACK
1.805230750000000,918,0x3A,0x09,Write,ACK
1.805262750000000,918,0x3A,0x41,Write,ACK
1.809229750000000,919,0x3A,0x00,Write,ACK
1.810877750000000,921,0x3A,0x00,Write,ACK
1.811634000000000,922,0x3A,0x69,Read,ACK
1.811665000000000,922,0x3A,0x29,Read,NAK
1.812520250000000,923,0x3A,0x00,Write,ACK
1.814164000000000,925,0x3A,0x08,Write,ACK
1.814196000000000,925,0x3A,0x61,Write,ACK
1.815229750000000,926,0x3A,0x09,Write,ACK
1.819232250000000,927,0x3A,0x00,Write,ACK
1.819990000000000,928,0x3A,0x69,Read,ACK
1.820021500000000,928,0x3A,0x99,Read,NAK
1.820885750000000,929,0x3A,0x00,Write,ACK
1.822527250000000,932,0x3A,0x00,Write,ACK
1.823283250000000,933,0x3A,0x69,Read,ACK
1.823314000000000,933,0x3A,0x99,Read,NAK
1.824173250000000,934,0x3A,0x08,Write,ACK
1.824205250000000,934,0x3A,0x62,Write,ACK
1.825235500000000,935,0x3A,0x09,Write,ACK
1.825267250000000,935,0x3A,0x40,Write,ACK
1.829237750000000,936,0x3A,0x00,Write,ACK
1.830886250000000,939,0x3A,0x00,Write,ACK
1.831642500000000,940,0x3A,0x69,Read,ACK
1.831673250000000,940,0x3A,0x51,Read,NAK
1.832528000000000,941,0x3A,0x00,Write,ACK
1.833284000000000,942,0x3A,0x69,Read,ACK
1.834172000000000,943,0x3A,0x08,Write,ACK
1.834204250000000,943,0x3A,0x62,Write,ACK
1.835255500000000,944,0x3A,0x09,Write,ACK
1.835287500000000,944,0x3A,0x41,Write,ACK
1.839240500000000,945,0x3A,0x00,Write,ACK
1.839997500000000,946,0x3A,0x69,Read,ACK
1.840029500000000,946,0x3A,0x89,Read,NAK
1.840888250000000,947,0x3A,0x00,Write,ACK
1.841644500000000,948,0x3A,0x69,Read,ACK
1.842529500000000,949,0x3A,0x00,Write,ACK
1.843285250000000,950,0x3A,0x69,Read,ACK
1.843316250000000,950,0x3A,0x89,Read,NAK
1.844173250000000,951,0x3A,0x08,Write,ACK
1.844205000000000,951,0x3A,0x62,Write,ACK
1.845241750000000,952,0x3A,0x09,Write,ACK
1.845273500000000,952,0x3A,0x61,Write,ACK
1.849244750000000,953,0x3A,0x00,Write,ACK
1.850001750000000,954,0x3A,0x69,Read,ACK
1.851649000000000,956,0x3A,0x69,Read,ACK
1.851680000000000,956,0x3A,0x19,Read,NAK
1.852535250000000,957,0x3A,0x00,Write,ACK
1.853291000000000,958,0x3A,0x69,Read,ACK
1.854180750000000,959,0x3A,0x08,Write,ACK
1.854213000000000,959,0x3A,0x62,Write,ACK
1.855246500000000,960,0x3A,0x09,Write,ACK
1.855278250000000,960,0x3A,0x40,Write,ACK
1.856249250000000,961,0x3A,0x03,Write,ACK
1.856281250000000,961,0x3A,0x40,Write,ACK
1.860247250000000,962,0x3A,0x00,Write,ACK
1.861004000000000,963,0x3A,0x69,Read,ACK
1.861035250000000,963,0x3A,0x91,Read,NAK
1.861894250000000,964,0x3A,0x00,Write,ACK
1.862650250000000,965,0x3A,0x69,Read,ACK
1.862681000000000,965,0x3A,0x91,Read,NAK
1.863535500000000,966,0x3A,0x00,Write,ACK
1.865179500000000,968,0x3A,0x03,Write,ACK
1.865211500000000,968,0x3A,0x41,Write,ACK
1.869252750000000,969,0x3A,0x00,Write,ACK
1.870901750000000,971,0x3A,0x00,Write,ACK
1.871657750000000,972,0x3A,0x69,Read,ACK
1.871688750000000,972,0x3A,0x31,Read,NAK
1.872543000000000,973,0x3A,0x00,Write,ACK
1.873298750000000,974,0x3A,0x69,Read,ACK
1.874188750000000,975,0x3A,0x03,Write,ACK
1.874221000000000,975,0x3A,0x42,Write,ACK
1.878253750000000,976,0x3A,0x00,Write,ACK
1.879010750000000,977,0x3A,0x69,Read,ACK
1.879042250000000,977,0x3A,0xD1,Read,NAK
1.879901750000000,978,0x3A,0x00,Write,ACK
1.880658000000000,979,0x3A,0x69,Read,ACK
1.880689000000000,979,0x3A,0xD1,Read,NAK
1.881543750000000,980,0x3A,0x00,Write,ACK
1.882299500000000,981,0x3A,0x69,Read,ACK
1.883193000000000,982,0x3A,0x07,Write,ACK
1.883225250000000,982,0x3A,0x68,Write,ACK
1.884257250000000,983,0x3A,0x18,Write,ACK
1.884289000000000,983,0x3A,0x29,Write,ACK
1.885256500000000,984,0x3A,0x19,Write,ACK
1.885288500000000,984,0x3A,0x00,Write,ACK
1.886260250000000,985,0x3A,0x19,Write,ACK
1.886292000000000,985,0x3A,0x00,Write,ACK
1.887266500000000,986,0x3A,0x05,Write,ACK
1.887298500000000,986,0x3A,0x9F,Write,ACK
1.889261250000000,989,0x3A,0x01,Write,ACK
1.889293250000000,989,0x3A,0x05,Write,ACK
1.890259000000000,990,0x3A,0x02,Write,ACK
1.890291000000000,990,0x3A,0x40,Write,ACK
1.891262000000000,991,0x3A,0x08,Write,ACK
1.891294000000000,991,0x3A,0x40,Write,ACK
1.892259750000000,992,0x3A,0x09,Write,ACK
1.892291750000000,992,0x3A,0x40,Write,ACK
1.893260750000000,993,0x3A,0x03,Write,ACK
1.893292500000000,993,0x3A,0x40,Write,ACK
1.894261750000000,994,0x3A,0x01,Write,ACK
1.894293750000000,994,0x3A,0x05,Write,ACK
1.895281250000000,995,0x3A,0x1E,Write,ACK
1.895313250000000,995,0x3A,0xAE,Write,ACK
1.896267000000000,996,0x3A,0x11,Write,ACK
1.896299250000000,996,0x3A,0x02,Write,ACK
1.897263500000000,997,0x3A,0x12,Write,ACK
1.897295750000000,997,0x3A,0x72,Write,ACK
1.898264000000000,998,0x3A,0x0F,Write,ACK
1.898295750000000,998,0x3A,0x9C,Write,ACK
1.899264250000000,999,0x3A,0x10,Write,ACK
1.899296000000000,999,0x3A,0x53,Write,ACK
1.900263000000000,1000,0x3A,0x17,Write,ACK
1.900294750000000,1000,0x3A,0x28,Write,ACK
1.901265500000000,1001,0x3A,0x1D,Write,ACK
1.901297250000000,1001,0x3A,0x32,Write,ACK
1.902266000000000,1002,0x3A,0x13,Write,ACK
1.902298000000000,1002,0x3A,0x20,Write,ACK
1.903264000000000,1003,0x3A,0x10,Write,ACK
1.903296000000000,1003,0x3A,0x53,Write,ACK
1.904264250000000,1004,0x3A,0x10,Write,ACK
1.904296250000000,1004,0x3A,0x33,Write,ACK
1.905265250000000,1005,0x3A,0x14,Write,ACK
1.905297250000000,1005,0x3A,0x95,Write,ACK
1.906267000000000,1006,0x3A,0x12,Write,ACK
1.906299000000000,1006,0x3A,0x72,Write,ACK
1.907268750000000,1007,0x3A,0x16,Write,ACK
1.907300500000000,1007,0x3A,0x56,Write,ACK
1.919274250000000,1010,0x3A,0x00,Write,ACK
1.920031750000000,1011,0x3A,0x69,Read,ACK
1.920063250000000,1011,0x3A,0x19,Read,ACK
1.920095000000000,1011,0x3A,0xEE,Read,NAK
1.920957500000000,1012,0x3A,0x00,Write,ACK
1.921763750000000,1014,0x21,0x5D,Read,NAK
1.922633500000000,1015,0x3A,0x00,Write,ACK
1.923389000000000,1016,0x3A,0x69,Read,ACK
1.923420000000000,1016,0x3A,0x99,Read,ACK
1.924311500000000,1017,0x3A,0x00,Write,ACK
1.925069500000000,1018,0x3A,0x69,Read,ACK
1.925100500000000,1018,0x3A,0x19,Read,ACK
1.925131500000000,1018,0x3A,0xEE,Read,NAK
1.925993750000000,1019,0x3A,0x1D,Write,ACK
1.926026000000000,1019,0x3A,0xF2,Write,ACK
1.927271500000000,1020,0x3A,0x01,Write,ACK
1.927303500000000,1020,0x3A,0x05,Write,ACK
1.928277500000000,1021,0x3A,0x1E,Write,ACK
1.928309250000000,1021,0x3A,0xAE,Write,ACK
1.929279750000000,1022,0x3A,0x00,Write,ACK
1.929312000000000,1022,0x3A,0x00,Write,ACK
1.930275250000000,1023,0x3A,0x0C,Write,ACK
1.930307250000000,1023,0x3A,0x3B,Write,ACK
1.944279250000000,1024,0x3A,0x00,Write,ACK
1.945036000000000,1025,0x3A,0x69,Read,ACK
1.945068500000000,1025,0x3A,0xF1,Read,NAK
1.945927750000000,1026,0x3A,0x00,Write,ACK
1.946683750000000,1027,0x3A,0x69,Read,ACK
1.946714750000000,1027,0x3A,0xF1,Read,NAK
1.947569750000000,1028,0x3A,0x00,Write,ACK
1.948325750000000,1029,0x3A,0x69,Read,ACK
1.948356500000000,1029,0x3A,0xF1,Read,NAK
1.949214000000000,1030,0x3A,0x0C,Write,ACK
1.949246000000000,1030,0x3A,0x3C,Write,ACK
1.963291250000000,1031,0x3A,0x00,Write,ACK
1.964048000000000,1032,0x3A,0x69,Read,ACK
1.964080250000000,1032,0x3A,0x09,Read,NAK
1.964940000000000,1033,0x3A,0x00,Write,ACK
1.965727000000000,1034,0x34,0x09,Read,NAK
1.966581500000000,1035,0x3A,0x00,Write,ACK
1.967337500000000,1036,0x3A,0x69,Read,ACK
1.967368500000000,1036,0x3A,0x09,Read,NAK
1.968225500000000,1037,0x3A,0x0C,Write,ACK
1.968257750000000,1037,0x3A,0x3D,Write,ACK
1.982295250000000,1038,0x3A,0x00,Write,ACK
1.983944000000000,1040,0x3A,0x00,Write,ACK
1.984701500000000,1041,0x3A,0x69,Read,ACK
1.984733000000000,1041,0x3A,0x89,Read,NAK
1.985597250000000,1042,0x3A,0x00,Write,ACK
1.986352750000000,1043,0x3A,0x69,Read,ACK
1.986383500000000,1043,0x3A,0x89,Read,NAK
1.987241000000000,1044,0x3A,0x0C,Write,ACK
1.987273250000000,1044,0x3A,0x3E,Write,ACK
2.001302750000000,1045,0x3A,0x00,Write,ACK
2.002059500000000,1046,0x3A,0x69,Read,ACK
2.002091750000000,1046,0x3A,0x29,Read,NAK
2.002951750000000,1047,0x3A,0x00,Write,ACK
2.004593250000000,1049,0x3A,0x00,Write,ACK
2.005349250000000,1050,0x3A,0x69,Read,ACK
2.005380250000000,1050,0x3A,0x29,Read,NAK
2.006238000000000,1051,0x3A,0x0C,Write,ACK
2.006270000000000,1051,0x3A,0x3F,Write,ACK
2.020321250000000,1052,0x3A,0x00,Write,ACK
2.021078250000000,1053,0x3A,0x69,Read,ACK
2.021110500000000,1053,0x3A,0x19,Read,NAK
2.021971750000000,1054,0x3A,0x00,Write,ACK
2.022728000000000,1055,0x3A,0x69,Read,ACK
2.022758750000000,1055,0x3A,0x19,Read,NAK
2.023615750000000,1056,0x3A,0x00,Write,ACK
2.024371250000000,1057,0x3A,0x69,Read,ACK
2.025260500000000,1058,0x3A,0x08,Write,ACK
2.025292750000000,1058,0x3A,0x40,Write,ACK
2.026311750000000,1059,0x3A,0x09,Write,ACK
2.026343500000000,1059,0x3A,0x40,Write,ACK
2.030314000000000,1060,0x3A,0x00,Write,ACK
2.031070750000000,1061,0x3A,0x69,Read,ACK
2.031102750000000,1061,0x3A,0x19,Read,NAK
2.031962250000000,1062,0x3A,0x00,Write,ACK
2.032718250000000,1063,0x3A,0x69,Read,ACK
2.033605000000000,1064,0x3A,0x00,Write,ACK
2.034361250000000,1065,0x3A,0x69,Read,ACK
2.034392250000000,1065,0x3A,0x19,Read,NAK
2.035250250000000,1066,0x3A,0x08,Write,ACK
2.035282500000000,1066,0x3A,0x40,Write,ACK
2.036314750000000,1067,0x3A,0x09,Write,ACK
2.036346750000000,1067,0x3A,0x41,Write,ACK
2.040316500000000,1068,0x3A,0x00,Write,ACK
2.041073250000000,1069,0x3A,0x69,Read,ACK
2.041964250000000,1070,0x3A,0x00,Write,ACK
2.042720250000000,1071,0x3A,0x69,Read,ACK
2.042751250000000,1071,0x3A,0x99,Read,NAK
2.043606750000000,1072,0x3A,0x00,Write,ACK
2.044362750000000,1073,0x3A,0x69,Read,ACK
2.045250250000000,1074,0x3A,0x08,Write,ACK
2.045282250000000,1074,0x3A,0x40,Write,ACK
2.046318750000000,1075,0x3A,0x09,Write,ACK
2.046350750000000,1075,0x3A,0x61,Write,ACK
2.050321000000000,1076,0x3A,0x00,Write,ACK
2.051077750000000,1077,0x3A,0x69,Read,ACK
2.051110000000000,1077,0x3A,0xB9,Read,NAK
2.051969250000000,1078,0x3A,0x00,Write,ACK
2.052725250000000,1079,0x3A,0x69,Read,ACK
2.053610500000000,1080,0x3A,0x00,Write,ACK
2.054366500000000,1081,0x3A,0x69,Read,ACK
2.054397250000000,1081,0x3A,0xB9,Read,NAK
2.055255500000000,1082,0x3A,0x08,Write,ACK
2.055287750000000,1082,0x3A,0x41,Write,ACK
2.056322750000000,1083,0x3A,0x09,Write,ACK
2.056354750000000,1083,0x3A,0x40,Write,ACK
2.060323500000000,1084,0x3A,0x00,Write,ACK
2.061080250000000,1085,0x3A,0x69,Read,ACK
2.061971000000000,1086,0x3A,0x00,Write,ACK
2.062727000000000,1087,0x3A,0x69,Read,ACK
2.062758000000000,1087,0x3A,0xC5,Read,NAK
2.063612250000000,1088,0x3A,0x00,Write,ACK
2.064368000000000,1089,0x3A,0x69,Read,ACK
2.065255250000000,1090,0x3A,0x08,Write,ACK
2.065287000000000,1090,0x3A,0x61,Write,ACK
2.066325500000000,1091,0x3A,0x09,Write,ACK
2.066357500000000,1091,0x3A,0x40,Write,ACK
2.070329000000000,1092,0x3A,0x00,Write,ACK
2.071085500000000,1093,0x3A,0x69,Read,ACK
2.071117750000000,1093,0x3A,0x31,Read,NAK
2.071977000000000,1094,0x3A,0x00,Write,ACK
2.072733250000000,1095,0x3A,0x69,Read,ACK
2.073618750000000,1096,0x3A,0x00,Write,ACK
2.074374500000000,1097,0x3A,0x69,Read,ACK
2.074405250000000,1097,0x3A,0x31,Read,NAK
2.075263750000000,1098,0x3A,0x08,Write,ACK
2.075296000000000,1098,0x3A,0x40,Write,ACK
2.076332750000000,1099,0x3A,0x09,Write,ACK
2.076364750000000,1099,0x3A,0x42,Write,ACK
2.080332250000000,1100,0x3A,0x00,Write,ACK
2.081980500000000,1102,0x3A,0x00,Write,ACK
2.082736750000000,1103,0x3A,0x69,Read,ACK
2.082767500000000,1103,0x3A,0xF9,Read,NAK
2.083622250000000,1104,0x3A,0x00,Write,ACK
2.084378000000000,1105,0x3A,0x69,Read,ACK
2.085266750000000,1106,0x3A,0x08,Write,ACK
2.085298500000000,1106,0x3A,0x40,Write,ACK
2.086333750000000,1107,0x3A,0x09,Write,ACK
2.086365750000000,1107,0x3A,0x62,Write,ACK
2.090336750000000,1108,0x3A,0x00,Write,ACK
2.091093500000000,1109,0x3A,0x69,Read,ACK
2.091125500000000,1109,0x3A,0x25,Read,NAK
2.091985000000000,1110,0x3A,0x00,Write,ACK
2.092741000000000,1111,0x3A,0x69,Read,ACK
2.092772000000000,1111,0x3A,0x25,Read,NAK
2.093627750000000,1112,0x3A,0x00,Write,ACK
2.094384000000000,1113,0x3A,0x69,Read,ACK
2.094415000000000,1113,0x3A,0xA5,Read,NAK
2.095272250000000,1114,0x3A,0x08,Write,ACK
2.095304250000000,1114,0x3A,0x42,Write,ACK
2.096337500000000,1115,0x3A,0x09,Write,ACK
2.096369500000000,1115,0x3A,0x40,Write,ACK
2.100338500000000,1116,0x3A,0x00,Write,ACK
2.101095250000000,1117,0x3A,0x69,Read,ACK
2.101986250000000,1118,0x3A,0x00,Write,ACK
2.102742500000000,1119,0x3A,0x69,Read,ACK
2.102773500000000,1119,0x3A,0x55,Read,NAK
2.103628750000000,1120,0x3A,0x00,Write,ACK
2.104384750000000,1121,0x3A,0x69,Read,ACK
2.105272500000000,1122,0x3A,0x08,Write,ACK
2.106341750000000,1123,0x3A,0x09,Write,ACK
2.106373500000000,1123,0x3A,0x40,Write,ACK
2.110343750000000,1124,0x3A,0x00,Write,ACK
2.111100750000000,1125,0x3A,0x69,Read,ACK
2.111133000000000,1125,0x3A,0x51,Read,NAK
2.111992500000000,1126,0x3A,0x00,Write,ACK
2.112748500000000,1127,0x3A,0x69,Read,ACK
2.113634000000000,1128,0x3A,0x00,Write,ACK
2.114389750000000,1129,0x3A,0x69,Read,ACK
2.114420750000000,1129,0x3A,0xD1,Read,NAK
2.115282750000000,1130,0x3A,0x08,Write,ACK
2.115315250000000,1130,0x3A,0x63,Write,ACK
2.116346750000000,1131,0x3A,0x09,Write,ACK
2.116378750000000,1131,0x3A,0x40,Write,ACK
2.120346250000000,1132,0x3A,0x00,Write,ACK
2.121103000000000,1133,0x3A,0x69,Read,ACK
2.121994000000000,1134,0x3A,0x00,Write,ACK
2.122750250000000,1135,0x3A,0x69,Read,ACK
2.122781250000000,1135,0x3A,0xA9,Read,NAK
2.123636500000000,1136,0x3A,0x00,Write,ACK
2.124392250000000,1137,0x3A,0x69,Read,ACK
2.125282250000000,1138,0x3A,0x08,Write,ACK
2.125314250000000,1138,0x3A,0x62,Write,ACK
2.126349000000000,1139,0x3A,0x09,Write,ACK
2.126381000000000,1139,0x3A,0x40,Write,ACK
2.130352000000000,1140,0x3A,0x00,Write,ACK
2.131109000000000,1141,0x3A,0x69,Read,ACK
2.131141000000000,1141,0x3A,0xD1,Read,NAK
2.132435250000000,1142,0x3A,0x00,Write,ACK
2.133191250000000,1143,0x3A,0x69,Read,ACK
2.134082000000000,1144,0x3A,0x00,Write,ACK
2.134840500000000,1145,0x3A,0x69,Read,ACK
2.134872000000000,1145,0x3A,0x51,Read,NAK
2.135738750000000,1146,0x3A,0x08,Write,ACK
2.135771000000000,1146,0x3A,0x62,Write,ACK
2.137350500000000,1147,0x3A,0x09,Write,ACK
2.141354500000000,1148,0x3A,0x00,Write,ACK
2.142111250000000,1149,0x3A,0x69,Read,ACK
2.142142750000000,1149,0x3A,0xB1,Read,NAK
2.143002250000000,1150,0x3A,0x00,Write,ACK
2.144657250000000,1152,0x3A,0x00,Write,ACK
2.145413000000000,1153,0x3A,0x69,Read,ACK
2.145444000000000,1153,0x3A,0xB1,Read,NAK
2.146299750000000,1154,0x3A,0x08,Write,ACK
2.146331750000000,1154,0x3A,0x62,Write,ACK
2.147356000000000,1155,0x3A,0x09,Write,ACK
2.147387750000000,1155,0x3A,0x61,Write,ACK
2.151358750000000,1156,0x3A,0x00,Write,ACK
2.152115250000000,1157,0x3A,0x69,Read,ACK
2.153007000000000,1158,0x3A,0x00,Write,ACK
2.153763250000000,1159,0x3A,0x69,Read,ACK
2.153794250000000,1159,0x3A,0xA9,Read,NAK
2.154648750000000,1160,0x3A,0x00,Write,ACK
2.155404500000000,1161,0x3A,0x69,Read,ACK
2.156294000000000,1162,0x3A,0x08,Write,ACK
2.156326250000000,1162,0x3A,0x62,Write,ACK
2.157360750000000,1163,0x3A,0x09,Write,ACK
2.157392750000000,1163,0x3A,0x41,Write,ACK
2.161361250000000,1164,0x3A,0x00,Write,ACK
2.162118250000000,1165,0x3A,0x69,Read,ACK
2.162149500000000,1165,0x3A,0xB1,Read,NAK
2.163008500000000,1166,0x3A,0x00,Write,ACK
2.163764500000000,1167,0x3A,0x69,Read,ACK
2.164651000000000,1168,0x3A,0x00,Write,ACK
2.165407250000000,1169,0x3A,0x69,Read,ACK
2.165438750000000,1169,0x3A,0xB1,Read,NAK
2.166301000000000,1170,0x3A,0x08,Write,ACK
2.166332750000000,1170,0x3A,0x62,Write,ACK
2.167364250000000,1171,0x3A,0x09,Write,ACK
2.167396000000000,1171,0x3A,0x42,Write,ACK
2.171366750000000,1172,0x3A,0x00,Write,ACK
2.173014750000000,1174,0x3A,0x00,Write,ACK
2.173771000000000,1175,0x3A,0x69,Read,ACK
2.173802000000000,1175,0x3A,0x99,Read,NAK
2.174657750000000,1176,0x3A,0x00,Write,ACK
2.175413750000000,1177,0x3A,0x69,Read,ACK
2.175444500000000,1177,0x3A,0x99,Read,NAK
2.176301750000000,1178,0x3A,0x09,Write,ACK
2.176334000000000,1178,0x3A,0x40,Write,ACK
2.177367750000000,1179,0x3A,0x08,Write,ACK
2.177399500000000,1179,0x3A,0x62,Write,ACK
2.181369000000000,1180,0x3A,0x00,Write,ACK
2.182126000000000,1181,0x3A,0x69,Read,ACK
2.182157500000000,1181,0x3A,0x51,Read,NAK
2.183017000000000,1182,0x3A,0x00,Write,ACK
2.183773250000000,1183,0x3A,0x69,Read,ACK
2.184659500000000,1184,0x3A,0x00,Write,ACK
2.185415250000000,1185,0x3A,0x69,Read,ACK
2.185446000000000,1185,0x3A,0x51,Read,NAK
2.186302500000000,1186,0x3A,0x09,Write,ACK
2.186334250000000,1186,0x3A,0x40,Write,ACK
2.187371000000000,1187,0x3A,0x08,Write,ACK
2.187403000000000,1187,0x3A,0x63,Write,ACK
2.191373750000000,1188,0x3A,0x00,Write,ACK
2.192131000000000,1189,0x3A,0x69,Read,ACK
2.193022500000000,1190,0x3A,0x00,Write,ACK
2.193778500000000,1191,0x3A,0x69,Read,ACK
2.193809250000000,1191,0x3A,0x29,Read,NAK
2.194670000000000,1192,0x3A,0x00,Write,ACK
2.196322750000000,1194,0x3A,0x09,Write,ACK
2.196355000000000,1194,0x3A,0x40,Write,ACK
2.197376000000000,1195,0x3A,0x08,Write,ACK
2.197407750000000,1195,0x3A,0x61,Write,ACK
2.201377250000000,1196,0x3A,0x00,Write,ACK
2.202134000000000,1197,0x3A,0x69,Read,ACK
2.202165500000000,1197,0x3A,0x31,Read,NAK
2.203025250000000,1198,0x3A,0x00,Write,ACK
2.203781250000000,1199,0x3A,0x69,Read,ACK
2.204667250000000,1200,0x3A,0x00,Write,ACK
2.205423250000000,1201,0x3A,0x69,Read,ACK
2.205454250000000,1201,0x3A,0x31,Read,NAK
2.206313000000000,1202,0x3A,0x08,Write,ACK
2.206344750000000,1202,0x3A,0x61,Write,ACK
2.207379250000000,1203,0x3A,0x09,Write,ACK
2.207411250000000,1203,0x3A,0x40,Write,ACK
2.211382000000000,1204,0x3A,0x00,Write,ACK
2.212138750000000,1205,0x3A,0x69,Read,ACK
2.213030250000000,1206,0x3A,0x00,Write,ACK
2.213786750000000,1207,0x3A,0x69,Read,ACK
2.213817500000000,1207,0x3A,0x31,Read,NAK
2.214673000000000,1208,0x3A,0x00,Write,ACK
2.215428750000000,1209,0x3A,0x69,Read,ACK
2.215459750000000,1209,0x3A,0xD1,Read,NAK
2.216316250000000,1210,0x3A,0x08,Write,ACK
2.217382750000000,1211,0x3A,0x09,Write,ACK
2.221385000000000,1212,0x3A,0x00,Write,ACK
2.222141750000000,1213,0x3A,0x69,Read,ACK
2.222173500000000,1213,0x3A,0xB1,Read,NAK
2.223033750000000,1214,0x3A,0x00,Write,ACK
2.223789750000000,1215,0x3A,0x69,Read,ACK
2.223820500000000,1215,0x3A,0xB1,Read,NAK
2.224675500000000,1216,0x3A,0x00,Write,ACK
2.225431750000000,1217,0x3A,0x69,Read,ACK
2.225463250000000,1217,0x3A,0xB1,Read,NAK
2.226325750000000,1218,0x3A,0x08,Write,ACK
2.226357750000000,1218,0x3A,0x61,Write,ACK
2.227386750000000,1219,0x3A,0x09,Write,ACK
2.227418750000000,1219,0x3A,0x61,Write,ACK
2.231389500000000,1220,0x3A,0x00,Write,ACK
2.232146000000000,1221,0x3A,0x69,Read,ACK
2.233037500000000,1222,0x3A,0x00,Write,ACK
2.233793750000000,1223,0x3A,0x69,Read,ACK
2.233824500000000,1223,0x3A,0xA9,Read,NAK
2.234678750000000,1224,0x3A,0x00,Write,ACK
2.235434750000000,1225,0x3A,0x69,Read,ACK
2.235465750000000,1225,0x3A,0xA9,Read,NAK
2.236323750000000,1226,0x3A,0x08,Write,ACK
2.236356000000000,1226,0x3A,0x62,Write,ACK
2.237391000000000,1227,0x3A,0x09,Write,ACK
2.237423000000000,1227,0x3A,0x40,Write,ACK
2.241391750000000,1228,0x3A,0x00,Write,ACK
2.242148750000000,1229,0x3A,0x69,Read,ACK
2.242180250000000,1229,0x3A,0xD1,Read,NAK
2.243040000000000,1230,0x3A,0x00,Write,ACK
2.243796000000000,1231,0x3A,0x69,Read,ACK
2.244682000000000,1232,0x3A,0x00,Write,ACK
2.245438000000000,1233,0x3A,0x69,Read,ACK
2.245469000000000,1233,0x3A,0xD1,Read,NAK
2.246325000000000,1234,0x3A,0x08,Write,ACK
2.246357000000000,1234,0x3A,0x62,Write,ACK
2.247394750000000,1235,0x3A,0x09,Write,ACK
2.247426750000000,1235,0x3A,0x41,Write,ACK
2.251397250000000,1236,0x3A,0x00,Write,ACK
2.252153750000000,1237,0x3A,0x69,Read,ACK
2.252186000000000,1237,0x3A,0xB1,Read,NAK
2.253045250000000,1238,0x3A,0x00,Write,ACK
2.253801500000000,1239,0x3A,0x69,Read,ACK
2.253832500000000,1239,0x3A,0xB1,Read,NAK
2.254691000000000,1240,0x3A,0x00,Write,ACK
2.255447250000000,1241,0x3A,0x69,Read,ACK
2.256343250000000,1242,0x3A,0x08,Write,ACK
2.256375500000000,1242,0x3A,0x62,Write,ACK
2.257398750000000,1243,0x3A,0x09,Write,ACK
2.257430500000000,1243,0x3A,0x61,Write,ACK
2.261399750000000,1244,0x3A,0x00,Write,ACK
2.262156750000000,1245,0x3A,0x69,Read,ACK
2.262188250000000,1245,0x3A,0xA9,Read,NAK
2.263047500000000,1246,0x3A,0x00,Write,ACK
2.263803500000000,1247,0x3A,0x69,Read,ACK
2.264689750000000,1248,0x3A,0x00,Write,ACK
2.265445750000000,1249,0x3A,0x69,Read,ACK
2.265476750000000,1249,0x3A,0xA9,Read,NAK
2.266335250000000,1250,0x3A,0x08,Write,ACK
2.266367250000000,1250,0x3A,0x63,Write,ACK
2.267402000000000,1251,0x3A,0x09,Write,ACK
2.267434000000000,1251,0x3A,0x40,Write,ACK
2.271404750000000,1252,0x3A,0x00,Write,ACK
2.272161500000000,1253,0x3A,0x69,Read,ACK
2.273053000000000,1254,0x3A,0x00,Write,ACK
2.273809250000000,1255,0x3A,0x69,Read,ACK
2.273840000000000,1255,0x3A,0xA9,Read,NAK
2.274695750000000,1256,0x3A,0x00,Write,ACK
2.275451500000000,1257,0x3A,0x69,Read,ACK
2.276338500000000,1258,0x3A,0x08,Write,ACK
2.276370750000000,1258,0x3A,0x63,Write,ACK
2.277406000000000,1259,0x3A,0x09,Write,ACK
2.277438000000000,1259,0x3A,0x41,Write,ACK
2.281407250000000,1260,0x3A,0x00,Write,ACK
2.282164000000000,1261,0x3A,0x69,Read,ACK
2.282195500000000,1261,0x3A,0x19,Read,NAK
2.283054750000000,1262,0x3A,0x00,Write,ACK
2.283811000000000,1263,0x3A,0x69,Read,ACK
2.284697000000000,1264,0x3A,0x00,Write,ACK
2.285453250000000,1265,0x3A,0x69,Read,ACK
2.285484500000000,1265,0x3A,0x99,Read,NAK
2.286348000000000,1266,0x3A,0x08,Write,ACK
2.286379750000000,1266,0x3A,0x63,Write,ACK
2.287410000000000,1267,0x3A,0x09,Write,ACK
2.287441750000000,1267,0x3A,0x61,Write,ACK
2.291412000000000,1268,0x3A,0x00,Write,ACK
2.292168750000000,1269,0x3A,0x69,Read,ACK
2.292200750000000,1269,0x3A,0x39,Read,NAK
2.293059750000000,1270,0x3A,0x00,Write,ACK
2.293816000000000,1271,0x3A,0x69,Read,ACK
2.293847000000000,1271,0x3A,0x39,Read,NAK
2.294701500000000,1272,0x3A,0x00,Write,ACK
2.295457500000000,1273,0x3A,0x69,Read,ACK
2.295488500000000,1273,0x3A,0x39,Read,NAK
2.296347750000000,1274,0x3A,0x08,Write,ACK
2.296380000000000,1274,0x3A,0x62,Write,ACK
2.297413750000000,1275,0x3A,0x09,Write,ACK
2.297445750000000,1275,0x3A,0x40,Write,ACK
2.298415000000000,1276,0x3A,0x03,Write,ACK
2.298447000000000,1276,0x3A,0x40,Write,ACK
2.302415000000000,1277,0x3A,0x00,Write,ACK
2.303171750000000,1278,0x3A,0x69,Read,ACK
2.304062500000000,1279,0x3A,0x00,Write,ACK
2.304818750000000,1280,0x3A,0x69,Read,ACK
2.304849750000000,1280,0x3A,0xD1,Read,NAK
2.305704000000000,1281,0x3A,0x00,Write,ACK
2.306459750000000,1282,0x3A,0x69,Read,ACK
2.311419500000000,1285,0x3A,0x00,Write,ACK
2.312176250000000,1286,0x3A,0x69,Read,ACK
2.312208000000000,1286,0x3A,0xB1,Read,NAK
2.313067250000000,1287,0x3A,0x00,Write,ACK
2.313823500000000,1288,0x3A,0x69,Read,ACK
2.313854500000000,1288,0x3A,0x31,Read,NAK
2.314716500000000,1289,0x3A,0x00,Write,ACK
2.315472750000000,1290,0x3A,0x69,Read,ACK
2.315504250000000,1290,0x3A,0x31,Read,NAK
2.320422500000000,1293,0x3A,0x00,Write,ACK
2.321179250000000,1294,0x3A,0x69,Read,ACK
2.321210750000000,1294,0x3A,0x51,Read,NAK
2.322070500000000,1295,0x3A,0x00,Write,ACK
2.322827000000000,1296,0x3A,0x69,Read,ACK
2.322858000000000,1296,0x3A,0x51,Read,NAK
2.323713250000000,1297,0x3A,0x00,Write,ACK
2.324469250000000,1298,0x3A,0x69,Read,ACK
2.324500000000000,1298,0x3A,0x51,Read,NAK
2.325358500000000,1299,0x3A,0x08,Write,ACK
2.325390500000000,1299,0x3A,0x40,Write,ACK
2.326425750000000,1300,0x3A,0x09,Write,ACK
2.326457750000000,1300,0x3A,0x40,Write,ACK
2.327424500000000,1301,0x3A,0x03,Write,ACK
2.327456250000000,1301,0x3A,0x40,Write,ACK
2.328428500000000,1302,0x3A,0x00,Write,ACK
2.328460250000000,1302,0x3A,0x02,Write,ACK
2.328492250000000,1302,0x3A,0x44,Write,ACK
2.328524000000000,1302,0x3A,0x40,Write,ACK
2.328556000000000,1302,0x3A,0x40,Write,ACK
2.328588000000000,1302,0x3A,0x05,Write,ACK
2.328619750000000,1302,0x3A,0x69,Write,ACK
2.328651750000000,1302,0x3A,0x17,Write,ACK
2.328683500000000,1302,0x3A,0x75,Write,ACK
2.328715750000000,1302,0x3A,0x40,Write,ACK
2.328747500000000,1302,0x3A,0x40,Write,ACK
2.328779500000000,1302,0x3A,0x06,Write,ACK
2.328811500000000,1302,0x3A,0x08,Write,ACK
2.328843250000000,1302,0x3A,0x89,Write,ACK
2.328875250000000,1302,0x3A,0xA4,Write,ACK
2.328907000000000,1302,0x3A,0x95,Write,ACK
2.328939000000000,1302,0x3A,0x9C,Write,ACK
2.328970750000000,1302,0x3A,0x73,Write,ACK
2.329002750000000,1302,0x3A,0x02,Write,ACK
2.329034750000000,1302,0x3A,0x72,Write,ACK
2.329066500000000,1302,0x3A,0x20,Write,ACK
2.329098500000000,1302,0x3A,0x0B,Write,ACK
2.329130250000000,1302,0x3A,0xAA,Write,ACK
2.329162250000000,1302,0x3A,0xAA,Write,ACK
2.329194000000000,1302,0x3A,0x28,Write,ACK
2.329226000000000,1302,0x3A,0x30,Write,ACK
2.329258000000000,1302,0x3A,0x40,Write,ACK
2.329289750000000,1302,0x3A,0x87,Write,ACK
2.329321750000000,1302,0x3A,0xC2,Write,ACK
2.329353500000000,1302,0x3A,0x25,Write,ACK
2.329385500000000,1302,0x3A,0x30,Write,ACK
2.329417250000000,1302,0x3A,0x26,Write,ACK
2.329449250000000,1302,0x3A,0x47,Write,ACK
2.330429250000000,1303,0x3A,0x01,Write,ACK
2.331428750000000,1304,0x3A,0x1E,Write,ACK
2.331460750000000,1304,0x3A,0xA6,Write,ACK
2.333427000000000,1307,0x3A,0x1D,Write,ACK
2.333458750000000,1307,0x3A,0x30,Write,ACK
2.334427250000000,1308,0x3A,0x13,Write,ACK
2.334459250000000,1308,0x3A,0x40,Write,ACK
2.335433000000000,1309,0x3A,0x13,Write,ACK
2.335465000000000,1309,0x3A,0x00,Write,ACK
2.346429750000000,1310,0x3A,0x0F,Write,ACK
2.346461750000000,1310,0x3A,0xE4,Write,ACK
2.347432250000000,1311,0x3A,0x10,Write,ACK
2.347464250000000,1311,0x3A,0x63,Write,ACK
2.398455500000000,1312,0x3A,0x00,Write,ACK
2.399212250000000,1313,0x3A,0x69,Read,ACK
2.399244000000000,1313,0x3A,0x01,Read,ACK
2.399275500000000,1313,0x3A,0x92,Read,NAK
2.400140500000000,1314,0x3A,0x01,Write,ACK
2.400172750000000,1314,0x3A,0x45,Write,ACK
2.401451250000000,1315,0x3A,0x1E,Write,ACK
2.401483000000000,1315,0x3A,0xA6,Write,ACK
2.402457250000000,1316,0x3A,0x0F,Write,ACK
2.402489250000000,1316,0x3A,0xE4,Write,ACK
2.403455500000000,1317,0x3A,0x1D,Write,ACK
2.403487500000000,1317,0x3A,0x30,Write,ACK
2.404454250000000,1318,0x3A,0x13,Write,ACK
2.404486000000000,1318,0x3A,0x40,Write,ACK
2.416457250000000,1321,0x3A,0x0F,Write,ACK
2.416489500000000,1321,0x3A,0xE4,Write,ACK
2.417461250000000,1322,0x3A,0x10,Write,ACK
2.417493000000000,1322,0x3A,0x63,Write,ACK
2.468481000000000,1323,0x3A,0x00,Write,ACK
2.469282750000000,1325,0x48,0x14,Write,NAK
2.470167250000000,1326,0x3A,0x01,Write,ACK
2.470199250000000,1326,0x3A,0x45,Write,ACK
2.471480500000000,1327,0x3A,0x1E,Write,ACK
2.471512750000000,1327,0x3A,0xA6,Write,ACK
2.472479750000000,1328,0x3A,0x0F,Write,ACK
2.472511500000000,1328,0x3A,0xE4,Write,ACK
2.473479500000000,1329,0x3A,0x1D,Write,ACK
2.473511500000000,1329,0x3A,0x30,Write,ACK
2.474484250000000,1330,0x3A,0x13,Write,ACK
2.474516000000000,1330,0x3A,0x40,Write,ACK
2.475484250000000,1331,0x3A,0x13,Write,ACK
2.475516000000000,1331,0x3A,0x00,Write,ACK
2.486482250000000,1332,0x3A,0x0F,Write,ACK
2.486514000000000,1332,0x3A,0xE4,Write,ACK
2.487484500000000,1333,0x3A,0x10,Write,ACK
2.487516500000000,1333,0x3A,0x63,Write,ACK
2.538507250000000,1334,0x3A,0x00,Write,ACK
2.539264500000000,1335,0x3A,0x69,Read,ACK
2.539296250000000,1335,0x3A,0x01,Read,ACK
2.539327750000000,1335,0x3A,0x92,Read,NAK
2.540192750000000,1336,0x3A,0x00,Write,ACK
2.540224750000000,1336,0x3A,0x02,Write,ACK
2.540256750000000,1336,0x3A,0x44,Write,ACK
2.540288500000000,1336,0x3A,0x40,Write,ACK
2.540320500000000,1336,0x3A,0x40,Write,ACK
2.540352500000000,1336,0x3A,0x05,Write,ACK
2.540384250000000,1336,0x3A,0x69,Write,ACK
2.540416250000000,1336,0x3A,0x17,Write,ACK
2.540448000000000,1336,0x3A,0x75,Write,ACK
2.540480000000000,1336,0x3A,0x40,Write,ACK
2.540512000000000,1336,0x3A,0x40,Write,ACK
2.540543750000000,1336,0x3A,0x06,Write,ACK
2.540575750000000,1336,0x3A,0x08,Write,ACK
2.540607500000000,1336,0x3A,0x89,Write,ACK
2.540639500000000,1336,0x3A,0xA4,Write,ACK
2.540671500000000,1336,0x3A,0x95,Write,ACK
2.540703250000000,1336,0x3A,0x9C,Write,ACK
2.540735250000000,1336,0x3A,0x73,Write,ACK
2.540767000000000,1336,0x3A,0x02,Write,ACK
2.540799750000000,1336,0x3A,0x72,Write,ACK
2.540831750000000,1336,0x3A,0x20,Write,ACK
2.540863500000000,1336,0x3A,0x0B,Write,ACK
2.540895500000000,1336,0x3A,0xAA,Write,ACK
2.540927250000000,1336,0x3A,0xAA,Write,ACK
2.540959250000000,1336,0x3A,0x28,Write,ACK
2.540991250000000,1336,0x3A,0x30,Write,ACK
2.541023000000000,1336,0x3A,0x40,Write,ACK
2.541055000000000,1336,0x3A,0x87,Write,ACK
2.541086750000000,1336,0x3A,0xC2,Write,ACK
2.541118750000000,1336,0x3A,0x25,Write,ACK
2.541150500000000,1336,0x3A,0x30,Write,ACK
2.541182500000000,1336,0x3A,0x26,Write,ACK
2.541214500000000,1336,0x3A,0x47,Write,ACK
2.982951500000000,1337,0x3A,0x00,Write,ACK
2.982983750000000,1337,0x3A,0x02,Write,ACK
2.983015750000000,1337,0x3A,0x44,Write,ACK
2.983047500000000,1337,0x3A,0x40,Write,ACK
2.983079500000000,1337,0x3A,0x40,Write,ACK
2.983111250000000,1337,0x3A,0x05,Write,ACK
2.983143250000000,1337,0x3A,0x69,Write,ACK
2.983175250000000,1337,0x3A,0x17,Write,ACK
2.983207000000000,1337,0x3A,0x75,Write,ACK
2.983239000000000,1337,0x3A,0x40,Write,ACK
2.983270750000000,1337,0x3A,0x40,Write,ACK
2.983302750000000,1337,0x3A,0x06,Write,ACK
2.983334500000000,1337,0x3A,0x08,Write,ACK
2.983366500000000,1337,0x3A,0x89,Write,ACK
2.983398500000000,1337,0x3A,0xA4,Write,ACK
2.983430250000000,1337,0x3A,0x95,Write,ACK
2.983462250000000,1337,0x3A,0x9C,Write,ACK
2.983494000000000,1337,0x3A,0x73,Write,ACK
2.983526000000000,1337,0x3A,0x02,Write,ACK
2.983557750000000,1337,0x3A,0x72,Write,ACK
2.983589750000000,1337,0x3A,0x20,Write,ACK
2.983621750000000,1337,0x3A,0x0B,Write,ACK
2.983653500000000,1337,0x3A,0xAA,Write,ACK
2.983685500000000,1337,0x3A,0xAA,Write,ACK
2.983717250000000,1337,0x3A,0x28,Write,ACK
2.983749250000000,1337,0x3A,0x30,Write,ACK
2.983781000000000,1337,0x3A,0x40,Write,ACK
2.983813000000000,1337,0x3A,0x87,Write,ACK
2.983845000000000,1337,0x3A,0xC2,Write,ACK
2.983876750000000,1337,0x3A,0x25,Write,ACK
2.983908750000000,1337,0x3A,0x30,Write,ACK
2.983942000000000,1337,0x3A,0x26,Write,ACK
2.985682000000000,1338,0x3A,0x00,Write,ACK
2.985714250000000,1338,0x3A,0x02,Write,ACK
2.985746000000000,1338,0x3A,0x44,Write,ACK
2.985778000000000,1338,0x3A,0x40,Write,ACK
2.985810000000000,1338,0x3A,0x40,Write,ACK
2.985841750000000,1338,0x3A,0x05,Write,ACK
2.985873750000000,1338,0x3A,0x69,Write,ACK
2.985905500000000,1338,0x3A,0x17,Write,ACK
2.985941750000000,1338,0x3A,0x75,Write,ACK
2.985973500000000,1338,0x3A,0x40,Write,ACK
2.986005500000000,1338,0x3A,0x40,Write,ACK
2.986037500000000,1338,0x3A,0x06,Write,ACK
2.986069250000000,1338,0x3A,0x08,Write,ACK
2.986101250000000,1338,0x3A,0x89,Write,ACK
2.986133000000000,1338,0x3A,0xA4,Write,ACK
2.986165000000000,1338,0x3A,0x95,Write,ACK
2.986196750000000,1338,0x3A,0x9C,Write,ACK
2.986228750000000,1338,0x3A,0x73,Write,ACK
2.986260750000000,1338,0x3A,0x02,Write,ACK
2.986292500000000,1338,0x3A,0x72,Write,ACK
2.986324500000000,1338,0x3A,0x20,Write,ACK
2.986356250000000,1338,0x3A,0x0B,Write,ACK
2.986388250000000,1338,0x3A,0xAA,Write,ACK
2.986420000000000,1338,0x3A,0xAA,Write,ACK
2.986452000000000,1338,0x3A,0x28,Write,ACK
2.986484000000000,1338,0x3A,0x30,Write,ACK
2.986515750000000,1338,0x3A,0x40,Write,ACK
2.986547750000000,1338,0x3A,0x87,Write,ACK
2.986579500000000,1338,0x3A,0xC2,Write,ACK
2.986675250000000,1339,0x18,0x26,Write,ACK
2.986707250000000,1339,0x18,0x47,Write,ACK
2.987677000000000,1340,0x3A,0x04,Write,ACK
2.987709000000000,1340,0x3A,0x65,Write,ACK
2.988677500000000,1341,0x3A,0x06,Write,ACK
2.988709500000000,1341,0x3A,0x97,Write,ACK
2.989675000000000,1342,0x3A,0x05,Write,ACK
2.989707000000000,1342,0x3A,0xFF,Write,ACK
2.990676000000000,1343,0x3A,0x07,Write,ACK
2.990708000000000,1343,0x3A,0x68,Write,ACK
2.991676500000000,1344,0x3A,0x1A,Write,ACK
2.991708250000000,1344,0x3A,0x90,Write,ACK
2.992679000000000,1345,0x3A,0x1E,Write,ACK
2.992711000000000,1345,0x3A,0xAE,Write,ACK
2.993678750000000,1346,0x3A,0x03,Write,ACK
2.993710500000000,1346,0x3A,0x40,Write,ACK
2.994677750000000,1347,0x3A,0x01,Write,ACK
2.994709500000000,1347,0x3A,0x45,Write,ACK
2.995678750000000,1348,0x3A,0x18,Write,ACK
2.995710500000000,1348,0x3A,0x20,Write,ACK
2.996679000000000,1349,0x3A,0x0A,Write,ACK
2.997681750000000,1350,0x3A,0x0B,Write,ACK
2.997713750000000,1350,0x3A,0x60,Write,ACK
2.998681000000000,1351,0x3A,0x0C,Write,ACK
2.998712750000000,1351,0x3A,0x3B,Write,ACK
2.999680000000000,1352,0x3A,0x1D,Write,ACK
2.999712000000000,1352,0x3A,0x32,Write,ACK
3.000681750000000,1353,0x3A,0x18,Write,ACK
3.000713750000000,1353,0x3A,0x8B,Write,ACK
3.001680750000000,1354,0x3A,0x19,Write,ACK
3.001712750000000,1354,0x3A,0x8B,Write,ACK
3.002692000000000,1355,0x3A,0x05,Write,ACK
3.002724000000000,1355,0x3A,0xFF,Write,ACK
3.003684750000000,1356,0x3A,0x19,Write,ACK
3.003716750000000,1356,0x3A,0x8B,Write,ACK
3.004683000000000,1357,0x3A,0x01,Write,ACK
3.004714750000000,1357,0x3A,0x45,Write,ACK
3.005689750000000,1358,0x3A,0x02,Write,ACK
3.005722000000000,1358,0x3A,0x44,Write,ACK
3.006682500000000,1359,0x3A,0x08,Write,ACK
3.006714500000000,1359,0x3A,0x62,Write,ACK
3.007685750000000,1360,0x3A,0x09,Write,ACK
3.008684000000000,1361,0x3A,0x03,Write,ACK
3.008715750000000,1361,0x3A,0x40,Write,ACK
3.010685250000000,1364,0x3A,0x1E,Write,ACK
3.010717250000000,1364,0x3A,0xAE,Write,ACK
3.011685750000000,1365,0x3A,0x11,Write,ACK
3.011717750000000,1365,0x3A,0x02,Write,ACK
3.013469250000000,1366,0x3A,0x12,Write,ACK
3.013501500000000,1366,0x3A,0x72,Write,ACK
3.014684500000000,1367,0x3A,0x0F,Write,ACK
3.014716500000000,1367,0x3A,0xA4,Write,ACK
3.015688000000000,1368,0x3A,0x10,Write,ACK
3.015720000000000,1368,0x3A,0x63,Write,ACK
3.016685750000000,1369,0x3A,0x17,Write,ACK
3.016717750000000,1369,0x3A,0x28,Write,ACK
3.017686750000000,1370,0x3A,0x1D,Write,ACK
3.017718750000000,1370,0x3A,0x32,Write,ACK
3.019689500000000,1373,0x3A,0x10,Write,ACK
3.019721250000000,1373,0x3A,0x63,Write,ACK
3.020699750000000,1374,0x3A,0x10,Write,ACK
3.020731500000000,1374,0x3A,0x83,Write,ACK
3.021690500000000,1375,0x3A,0x14,Write,ACK
3.021722250000000,1375,0x3A,0xD0,Write,ACK
3.022689000000000,1376,0x3A,0x12,Write,ACK
3.022721000000000,1376,0x3A,0x72,Write,ACK
3.023694000000000,1377,0x3A,0x16,Write,ACK
3.023726000000000,1377,0x3A,0x7F,Write,ACK
3.024690750000000,1378,0x3A,0x15,Write,ACK
3.024722750000000,1378,0x3A,0xFE,Write,ACK
3.035715250000000,1379,0x3A,0x00,Write,ACK
3.036473000000000,1380,0x3A,0x69,Read,ACK
3.038154500000000,1383,0x3A,0x69,Read,ACK
3.038185500000000,1383,0x3A,0x2D,Read,ACK
3.038216500000000,1383,0x3A,0xA6,Read,NAK
3.039074500000000,1384,0x3A,0x00,Write,ACK
3.039879750000000,1386,0x22,0x54,Read,NAK
3.040755000000000,1387,0x3A,0x00,Write,ACK
3.041511500000000,1388,0x3A,0x69,Read,ACK
3.041543000000000,1388,0x3A,0x2D,Read,ACK
3.042431500000000,1389,0x3A,0x1D,Write,ACK
3.042463750000000,1389,0x3A,0xF2,Write,ACK
3.043694500000000,1390,0x3A,0x01,Write,ACK
3.043726500000000,1390,0x3A,0x45,Write,ACK
3.044697750000000,1391,0x3A,0x1E,Write,ACK
3.044729750000000,1391,0x3A,0xAE,Write,ACK
3.045703750000000,1392,0x3A,0x00,Write,ACK
3.045735750000000,1392,0x3A,0x1F,Write,ACK
3.046698750000000,1393,0x3A,0x0C,Write,ACK
3.046730500000000,1393,0x3A,0x10,Write,ACK
3.047698000000000,1394,0x3A,0x1E,Write,ACK
3.047729750000000,1394,0x3A,0x8E,Write,ACK
3.048698000000000,1395,0x3A,0x0B,Write,ACK
3.048729750000000,1395,0x3A,0x00,Write,ACK
3.049698500000000,1396,0x3A,0x0A,Write,ACK
3.049730250000000,1396,0x3A,0x00,Write,ACK
3.050703000000000,1397,0x3A,0x0C,Write,ACK
3.050734750000000,1397,0x3A,0x10,Write,ACK
3.064704750000000,1398,0x3A,0x00,Write,ACK
3.065462500000000,1399,0x3A,0x69,Read,ACK
3.065494500000000,1399,0x3A,0x99,Read,NAK
3.066357500000000,1400,0x3A,0x00,Write,ACK
3.067113500000000,1401,0x3A,0x69,Read,ACK
3.067144500000000,1401,0x3A,0x99,Read,NAK
3.067999500000000,1402,0x3A,0x00,Write,ACK
3.068755500000000,1403,0x3A,0x69,Read,ACK
3.068786250000000,1403,0x3A,0x99,Read,NAK
3.069643500000000,1404,0x3A,0x0C,Write,ACK
3.069675500000000,1404,0x3A,0x11,Write,ACK
3.083712500000000,1405,0x3A,0x00,Write,ACK
3.085360500000000,1408,0x3A,0x00,Write,ACK
3.086116750000000,1409,0x3A,0x69,Read,ACK
3.086147500000000,1409,0x3A,0xA5,Read,NAK
3.087001750000000,1410,0x3A,0x00,Write,ACK
3.088645750000000,1412,0x3A,0x0C,Write,ACK
3.088677750000000,1412,0x3A,0x12,Write,ACK
3.102721250000000,1413,0x3A,0x00,Write,ACK
3.103478250000000,1414,0x3A,0x69,Read,ACK
3.103510500000000,1414,0x3A,0x0D,Read,NAK
3.104370750000000,1415,0x3A,0x00,Write,ACK
3.105127000000000,1416,0x3A,0x69,Read,ACK
3.105157750000000,1416,0x3A,0x0D,Read,NAK
3.106012750000000,1417,0x3A,0x00,Write,ACK
3.106768500000000,1418,0x3A,0x69,Read,ACK
3.106799500000000,1418,0x3A,0x0D,Read,NAK
3.107657750000000,1419,0x3A,0x0B,Write,ACK
3.107690000000000,1419,0x3A,0x00,Write,ACK
3.108721750000000,1420,0x3A,0x0A,Write,ACK
3.108753750000000,1420,0x3A,0x00,Write,ACK
3.122727250000000,1421,0x3A,0x00,Write,ACK
3.123484250000000,1422,0x3A,0x69,Read,ACK
3.123516500000000,1422,0x3A,0x0D,Read,NAK
3.124376250000000,1423,0x3A,0x00,Write,ACK
3.126029500000000,1424,0x3A,0x00,Write,ACK
3.126785000000000,1425,0x3A,0x69,Read,ACK
3.126816000000000,1425,0x3A,0x0D,Read,NAK
3.127672750000000,1426,0x3A,0x0A,Write,ACK
3.127705000000000,1426,0x3A,0x0D,Write,ACK
3.141734750000000,1427,0x3A,0x00,Write,ACK
3.142491750000000,1428,0x3A,0x69,Read,ACK
3.143383000000000,1429,0x3A,0x00,Write,ACK
3.144139000000000,1430,0x3A,0x69,Read,ACK
3.144170000000000,1430,0x3A,0x89,Read,NAK
3.145025500000000,1431,0x3A,0x00,Write,ACK
3.146669250000000,1433,0x3A,0x0A,Write,ACK
3.146701500000000,1433,0x3A,0x00,Write,ACK
3.160745250000000,1434,0x3A,0x00,Write,ACK
3.161502250000000,1435,0x3A,0x69,Read,ACK
3.161534500000000,1435,0x3A,0x0D,Read,NAK
3.162394500000000,1436,0x3A,0x00,Write,ACK
3.163150750000000,1437,0x3A,0x69,Read,ACK
3.163181750000000,1437,0x3A,0x0D,Read,NAK
3.164042000000000,1438,0x3A,0x00,Write,ACK
3.164797500000000,1439,0x3A,0x69,Read,ACK
3.164828500000000,1439,0x3A,0x0D,Read,NAK
3.165686000000000,1440,0x3A,0x0A,Write,ACK
3.165718250000000,1440,0x3A,0x01,Write,ACK
3.179748750000000,1441,0x3A,0x00,Write,ACK
3.180505500000000,1442,0x3A,0x69,Read,ACK
3.181396750000000,1443,0x3A,0x00,Write,ACK
3.182153000000000,1444,0x3A,0x69,Read,ACK
3.182184000000000,1444,0x3A,0x0D,Read,NAK
3.183038250000000,1445,0x3A,0x00,Write,ACK
3.183794250000000,1446,0x3A,0x69,Read,ACK
3.184681750000000,1447,0x3A,0x0A,Write,ACK
3.184714000000000,1447,0x3A,0x02,Write,ACK
3.198755750000000,1448,0x3A,0x00,Write,ACK
3.199512500000000,1449,0x3A,0x69,Read,ACK
3.199544500000000,1449,0x3A,0x0D,Read,NAK
3.200404500000000,1450,0x3A,0x00,Write,ACK
3.201160750000000,1451,0x3A,0x69,Read,ACK
3.201191500000000,1451,0x3A,0x0D,Read,NAK
3.202045750000000,1452,0x3A,0x00,Write,ACK
3.202801750000000,1453,0x3A,0x69,Read,ACK
3.202832750000000,1453,0x3A,0x0D,Read,NAK
3.203689750000000,1454,0x3A,0x0A,Write,ACK
3.203722000000000,1454,0x3A,0x03,Write,ACK
3.217765500000000,1455,0x3A,0x00,Write,ACK
3.218523000000000,1456,0x3A,0x69,Read,ACK
3.218555250000000,1456,0x3A,0x0D,Read,NAK
3.219417750000000,1457,0x3A,0x00,Write,ACK
3.220175000000000,1458,0x3A,0x69,Read,ACK
3.220206250000000,1458,0x3A,0x0D,Read,NAK
3.221072250000000,1459,0x3A,0x00,Write,ACK
3.221827750000000,1460,0x3A,0x69,Read,ACK
3.221858750000000,1460,0x3A,0x0D,Read,NAK
3.222715750000000,1461,0x3A,0x0A,Write,ACK
3.222748000000000,1461,0x3A,0x04,Write,ACK
3.236773000000000,1462,0x3A,0x00,Write,ACK
3.237529500000000,1463,0x3A,0x69,Read,ACK
3.237561750000000,1463,0x3A,0x0D,Read,NAK
3.238422500000000,1464,0x3A,0x00,Write,ACK
3.239178750000000,1465,0x3A,0x69,Read,ACK
3.239209500000000,1465,0x3A,0x0D,Read,NAK
3.240065000000000,1466,0x3A,0x00,Write,ACK
3.240822250000000,1467,0x3A,0x69,Read,ACK
3.240853750000000,1467,0x3A,0x0D,Read,NAK
3.241716000000000,1468,0x3A,0x0A,Write,ACK
3.241748250000000,1468,0x3A,0x05,Write,ACK
3.255779000000000,1469,0x3A,0x00,Write,ACK
3.256535750000000,1470,0x3A,0x69,Read,ACK
3.256567750000000,1470,0x3A,0x0D,Read,NAK
3.257426750000000,1471,0x3A,0x00,Write,ACK
3.259069250000000,1474,0x3A,0x00,Write,ACK
3.259825000000000,1475,0x3A,0x69,Read,ACK
3.259855750000000,1475,0x3A,0x8D,Read,NAK
3.260712250000000,1476,0x3A,0x0A,Write,ACK
3.260744500000000,1476,0x3A,0x06,Write,ACK
3.274785000000000,1477,0x3A,0x00,Write,ACK
3.276441250000000,1480,0x3A,0x00,Write,ACK
3.277197500000000,1481,0x3A,0x69,Read,ACK
3.277228500000000,1481,0x3A,0x0D,Read,NAK
3.278085750000000,1482,0x3A,0x00,Write,ACK
3.279729000000000,1484,0x3A,0x0A,Write,ACK
3.279761250000000,1484,0x3A,0x07,Write,ACK
3.293792500000000,1485,0x3A,0x00,Write,ACK
3.294549250000000,1486,0x3A,0x69,Read,ACK
3.294581500000000,1486,0x3A,0x0D,Read,NAK
3.295441500000000,1487,0x3A,0x00,Write,ACK
3.296197750000000,1488,0x3A,0x69,Read,ACK
3.297083750000000,1489,0x3A,0x00,Write,ACK
3.297839750000000,1490,0x3A,0x69,Read,ACK
3.297870750000000,1490,0x3A,0x8D,Read,NAK
3.298727250000000,1491,0x3A,0x0A,Write,ACK
3.298759500000000,1491,0x3A,0x08,Write,ACK
3.312798750000000,1492,0x3A,0x00,Write,ACK
3.313555500000000,1493,0x3A,0x69,Read,ACK
3.314446500000000,1494,0x3A,0x00,Write,ACK
3.315203000000000,1495,0x3A,0x69,Read,ACK
3.315234000000000,1495,0x3A,0x0D,Read,NAK
3.316088250000000,1496,0x3A,0x00,Write,ACK
3.316844000000000,1497,0x3A,0x69,Read,ACK
3.317731500000000,1498,0x3A,0x0A,Write,ACK
3.317763750000000,1498,0x3A,0x09,Write,ACK
3.331807000000000,1499,0x3A,0x00,Write,ACK
3.332563750000000,1500,0x3A,0x69,Read,ACK
3.332596000000000,1500,0x3A,0x0D,Read,NAK
3.333456250000000,1501,0x3A,0x00,Write,ACK
3.334212250000000,1502,0x3A,0x69,Read,ACK
3.334243250000000,1502,0x3A,0x0D,Read,NAK
3.335102750000000,1503,0x3A,0x00,Write,ACK
3.335859000000000,1504,0x3A,0x69,Read,ACK
3.335890750000000,1504,0x3A,0x0D,Read,NAK
3.336755250000000,1505,0x3A,0x0A,Write,ACK
3.336787500000000,1505,0x3A,0x0A,Write,ACK
3.350816000000000,1506,0x3A,0x00,Write,ACK
3.351572750000000,1507,0x3A,0x69,Read,ACK
3.352463500000000,1508,0x3A,0x00,Write,ACK
3.353219750000000,1509,0x3A,0x69,Read,ACK
3.353250750000000,1509,0x3A,0xB5,Read,NAK
3.354104750000000,1510,0x3A,0x00,Write,ACK
3.354860500000000,1511,0x3A,0x69,Read,ACK
3.355748500000000,1512,0x3A,0x0A,Write,ACK
3.355780750000000,1512,0x3A,0x0B,Write,ACK
3.369820250000000,1513,0x3A,0x00,Write,ACK
3.370577000000000,1514,0x3A,0x69,Read,ACK
3.370609000000000,1514,0x3A,0x95,Read,NAK
3.371468000000000,1515,0x3A,0x00,Write,ACK
3.372224250000000,1516,0x3A,0x69,Read,ACK
3.372255000000000,1516,0x3A,0x95,Read,NAK
3.373110000000000,1517,0x3A,0x00,Write,ACK
3.373897000000000,1518,0x34,0x95,Read,NAK
3.374753750000000,1519,0x3A,0x0A,Write,ACK
3.374785750000000,1519,0x3A,0x0C,Write,ACK
3.388827750000000,1520,0x3A,0x00,Write,ACK
3.389584500000000,1521,0x3A,0x69,Read,ACK
3.389616250000000,1521,0x3A,0xF9,Read,NAK
3.390476000000000,1522,0x3A,0x00,Write,ACK
3.391232000000000,1523,0x3A,0x69,Read,ACK
3.391263000000000,1523,0x3A,0xF9,Read,NAK
3.392118250000000,1524,0x3A,0x00,Write,ACK
3.392874250000000,1525,0x3A,0x69,Read,ACK
3.392905000000000,1525,0x3A,0xF9,Read,NAK
3.393763250000000,1526,0x3A,0x00,Write,ACK
3.393795500000000,1526,0x3A,0x02,Write,ACK
3.393827500000000,1526,0x3A,0x44,Write,ACK
3.393859250000000,1526,0x3A,0x40,Write,ACK
3.393891250000000,1526,0x3A,0x40,Write,ACK
3.393923250000000,1526,0x3A,0x05,Write,ACK
3.393955000000000,1526,0x3A,0x69,Write,ACK
3.393987000000000,1526,0x3A,0x17,Write,ACK
3.394018750000000,1526,0x3A,0x75,Write,ACK
3.394114750000000,1527,0x20,0x06,Write,ACK
3.394146500000000,1527,0x20,0x08,Write,ACK
3.394178500000000,1527,0x20,0x89,Write,ACK
3.394210500000000,1527,0x20,0xA4,Write,ACK
3.394242250000000,1527,0x20,0x95,Write,ACK
3.394274250000000,1527,0x20,0x9C,Write,ACK
3.394306000000000,1527,0x20,0x73,Write,ACK
3.394338000000000,1527,0x20,0x02,Write,ACK
3.394370000000000,1527,0x20,0x72,Write,ACK
3.394401750000000,1527,0x20,0x20,Write,ACK
3.394433750000000,1527,0x20,0x0B,Write,ACK
3.394465500000000,1527,0x20,0xAA,Write,ACK
3.394497500000000,1527,0x20,0xAA,Write,ACK
3.394529250000000,1527,0x20,0x28,Write,ACK
3.394561250000000,1527,0x20,0x30,Write,ACK
3.394593250000000,1527,0x20,0x40,Write,ACK
3.394625000000000,1527,0x20,0x87,Write,ACK
3.394657000000000,1527,0x20,0xC2,Write,ACK
3.394688750000000,1527,0x20,0x25,Write,ACK
3.394720750000000,1527,0x20,0x30,Write,ACK
3.394752500000000,1527,0x20,0x26,Write,ACK
3.394784500000000,1527,0x20,0x47,Write,ACK
3.395850750000000,1528,0x3A,0x0B,Write,ACK
3.395883000000000,1528,0x3A,0x18,Write,ACK
3.396835500000000,1529,0x3A,0x0A,Write,ACK
3.396867250000000,1529,0x3A,0x0C,Write,ACK
3.397832250000000,1530,0x3A,0x0B,Write,ACK
3.397864250000000,1530,0x3A,0x18,Write,ACK
3.398830000000000,1531,0x3A,0x0B,Write,ACK
3.398862000000000,1531,0x3A,0x18,Write,ACK
3.399831500000000,1532,0x3A,0x03,Write,ACK
3.399863500000000,1532,0x3A,0x40,Write,ACK
3.400833000000000,1533,0x3A,0x0A,Write,ACK
3.400865000000000,1533,0x3A,0x0C,Write,ACK
3.401834500000000,1534,0x3A,0x04,Write,ACK
3.401866500000000,1534,0x3A,0x05,Write,ACK
3.402833750000000,1535,0x3A,0x1E,Write,ACK
3.402865500000000,1535,0x3A,0x26,Write,ACK
3.403833000000000,1536,0x3A,0x1E,Write,ACK
3.403864750000000,1536,0x3A,0x26,Write,ACK
3.404833500000000,1537,0x3A,0x1E,Write,ACK
3.404865500000000,1537,0x3A,0x27,Write,ACK
3.405834250000000,1538,0x3A,0x12,Write,ACK
3.405866250000000,1538,0x3A,0x72,Write,ACK
3.406836750000000,1539,0x3A,0x1E,Write,ACK
3.406868750000000,1539,0x3A,0x27,Write,ACK
3.407836250000000,1540,0x3A,0x1F,Write,ACK
3.407868250000000,1540,0x3A,0x66,Write,ACK
3.408835000000000,1541,0x3A,0x1B,Write,ACK
3.408867000000000,1541,0x3A,0xC2,Write,ACK
3.409836000000000,1542,0x3A,0x04,Write,ACK
3.409868000000000,1542,0x3A,0x05,Write,ACK
3.410835250000000,1543,0x3A,0x0C,Write,ACK
3.410867000000000,1543,0x3A,0x85,Write,ACK
3.411839000000000,1544,0x3A,0x1A,Write,ACK
3.411871000000000,1544,0x3A,0x8F,Write,ACK
3.412845000000000,1545,0x3A,0x05,Write,ACK
3.412877250000000,1545,0x3A,0x09,Write,ACK
3.414838250000000,1548,0x3A,0x01,Write,ACK
3.414870000000000,1548,0x3A,0x04,Write,ACK
3.415839500000000,1549,0x3A,0x02,Write,ACK
3.415871750000000,1549,0x3A,0x40,Write,ACK
3.416840750000000,1550,0x3A,0x08,Write,ACK
3.416872500000000,1550,0x3A,0x61,Write,ACK
3.417839250000000,1551,0x3A,0x09,Write,ACK
3.417871000000000,1551,0x3A,0x40,Write,ACK
3.418842250000000,1552,0x3A,0x03,Write,ACK
3.418874250000000,1552,0x3A,0x40,Write,ACK
3.419841250000000,1553,0x3A,0x01,Write,ACK
3.419873000000000,1553,0x3A,0x05,Write,ACK
3.420847250000000,1554,0x3A,0x1E,Write,ACK
3.420879250000000,1554,0x3A,0xA7,Write,ACK
3.421844500000000,1555,0x3A,0x11,Write,ACK
3.421876500000000,1555,0x3A,0x02,Write,ACK
3.422843000000000,1556,0x3A,0x12,Write,ACK
3.422875000000000,1556,0x3A,0x72,Write,ACK
3.423843000000000,1557,0x3A,0x0F,Write,ACK
3.423874750000000,1557,0x3A,0xA4,Write,ACK
3.424842750000000,1558,0x3A,0x10,Write,ACK
3.424874500000000,1558,0x3A,0x63,Write,ACK
3.425846500000000,1559,0x3A,0x17,Write,ACK
3.425878500000000,1559,0x3A,0x28,Write,ACK
3.426844000000000,1560,0x3A,0x1D,Write,ACK
3.426876000000000,1560,0x3A,0x30,Write,ACK
3.427843750000000,1561,0x3A,0x13,Write,ACK
3.427875500000000,1561,0x3A,0x20,Write,ACK
3.428842500000000,1562,0x3A,0x10,Write,ACK
3.428874500000000,1562,0x3A,0x63,Write,ACK
3.429842500000000,1563,0x3A,0x10,Write,ACK
3.429874500000000,1563,0x3A,0x23,Write,ACK
3.430843750000000,1564,0x3A,0x14,Write,ACK
3.430875750000000,1564,0x3A,0x11,Write,ACK
3.431845500000000,1565,0x3A,0x12,Write,ACK
3.431877500000000,1565,0x3A,0x72,Write,ACK
3.432847250000000,1566,0x3A,0x16,Write,ACK
3.432879000000000,1566,0x3A,0xDF,Write,ACK
3.433845000000000,1567,0x3A,0x15,Write,ACK
3.433877000000000,1567,0x3A,0xFE,Write,ACK
3.444850000000000,1568,0x3A,0x00,Write,ACK
3.445607500000000,1569,0x3A,0x69,Read,ACK
3.445639250000000,1569,0x3A,0x01,Read,ACK
3.445670750000000,1569,0x3A,0x66,Read,NAK
3.446532250000000,1570,0x3A,0x00,Write,ACK
3.447332000000000,1571,0x48,0x13,Write,ACK
3.448207500000000,1572,0x3A,0x00,Write,ACK
3.448963000000000,1573,0x3A,0x69,Read,ACK
3.448994000000000,1573,0x3A,0x01,Read,ACK
3.449886500000000,1574,0x3A,0x00,Write,ACK
3.450642750000000,1575,0x3A,0x69,Read,ACK
3.450673500000000,1575,0x3A,0x01,Read,ACK
3.450704500000000,1575,0x3A,0x66,Read,NAK
3.451561500000000,1576,0x3A,0x1D,Write,ACK
3.451593750000000,1576,0x3A,0xF0,Write,ACK
3.453628500000000,1577,0x3A,0x01,Write,ACK
3.453660750000000,1577,0x3A,0x04,Write,ACK
3.454854500000000,1578,0x3A,0x1E,Write,ACK
3.454886500000000,1578,0x3A,0x27,Write,ACK
3.455877500000000,1579,0x3A,0x00,Write,ACK
3.455909750000000,1579,0x3A,0x09,Write,ACK
3.456855250000000,1580,0x3A,0x00,Write,ACK
3.456887250000000,1580,0x3A,0x09,Write,ACK
3.457853500000000,1581,0x3A,0x04,Write,ACK
3.457885500000000,1581,0x3A,0x05,Write,ACK
3.458856250000000,1582,0x3A,0x1B,Write,ACK
3.458888000000000,1582,0x3A,0xC3,Write,ACK
3.459856500000000,1583,0x3A,0x0D,Write,ACK
3.459888500000000,1583,0x3A,0xA5,Write,ACK
3.460855500000000,1584,0x3A,0x1C,Write,ACK
3.460887500000000,1584,0x3A,0x25,Write,ACK
3.461854750000000,1585,0x3A,0x0E,Write,ACK
3.461886750000000,1585,0x3A,0x95,Write,ACK
3.462855250000000,1586,0x3A,0x1A,Write,ACK
3.462887250000000,1586,0x3A,0x4F,Write,ACK
3.463856500000000,1587,0x3A,0x1C,Write,ACK
3.463888500000000,1587,0x3A,0x95,Write,ACK
3.465857250000000,1590,0x3A,0x01,Write,ACK
3.465889250000000,1590,0x3A,0x00,Write,ACK
3.466856750000000,1591,0x3A,0x17,Write,ACK
3.466888750000000,1591,0x3A,0x08,Write,ACK
3.467857500000000,1592,0x3A,0x07,Write,ACK
3.467889250000000,1592,0x3A,0xF5,Write,ACK
3.468857750000000,1593,0x3A,0x1E,Write,ACK
3.468889750000000,1593,0x3A,0x27,Write,ACK
3.469861000000000,1594,0x3A,0x1B,Write,ACK
3.470859750000000,1595,0x3A,0x1F,Write,ACK
3.470891750000000,1595,0x3A,0x27,Write,ACK
3.471860250000000,1596,0x3A,0x03,Write,ACK
3.471892250000000,1596,0x3A,0x40,Write,ACK
3.472858500000000,,0x3A,0x02,Write,ACK
3.472890250000000,,0x3A,0x40,Write,ACK
