Time [s], Analyzer Name, Decoded Protocol Result
0.000011000000000,I2C,Setup Write to [0x3A] + ACK
0.000044250000000,I2C,0x00 + ACK
0.000076500000000,I2C,0x02 + ACK
0.000108250000000,I2C,0x44 + ACK
0.000140250000000,I2C,0x40 + ACK
0.000172000000000,I2C,0x40 + ACK
0.000204000000000,I2C,0x05 + ACK
0.000236000000000,I2C,0x69 + ACK
0.000267750000000,I2C,0x17 + ACK
0.000299750000000,I2C,0x75 + ACK
0.000331500000000,I2C,0x40 + ACK
0.000363500000000,I2C,0x40 + ACK
0.000395250000000,I2C,0x06 + ACK
0.000427250000000,I2C,0x08 + ACK
0.000459250000000,I2C,0x89 + ACK
0.000491000000000,I2C,0xA4 + ACK
0.000523000000000,I2C,0x95 + ACK
0.000554750000000,I2C,0x9C + ACK
0.000586750000000,I2C,0x73 + Missing ACK/NAK
0.000618500000000,I2C,Setup Write to [0x01] + ACK
0.000650500000000,I2C,0x72 + ACK
0.000682500000000,I2C,0x20 + ACK
0.000714250000000,I2C,0x0B + ACK
0.000746250000000,I2C,0xAA + ACK
0.000778250000000,I2C,0xAA + ACK
0.000812250000000,I2C,0x28 + ACK
0.000844000000000,I2C,0x30 + ACK
0.000876000000000,I2C,0x40 + ACK
0.000908000000000,I2C,0x87 + ACK
0.000939750000000,I2C,0xC2 + ACK
0.000971750000000,I2C,0x25 + ACK
0.001003500000000,I2C,0x30 + ACK
0.001035500000000,I2C,0x26 + ACK
0.001067250000000,I2C,0x47 + ACK
0.002517000000000,I2C,Setup Write to [0x3A] + ACK
0.002549750000000,I2C,0x04 + ACK
0.002581750000000,I2C,0x05 + ACK
0.003511500000000,I2C,Setup Write to [0x3A] + ACK
0.003544250000000,I2C,0x06 + ACK
0.003576000000000,I2C,0xF7 + ACK
0.004510250000000,I2C,Setup Write to [0x3A] + ACK
0.004543000000000,I2C,0x05 + Missing ACK/NAK
0.004575000000000,I2C,Setup Write to [0x70] + ACK
0.005511000000000,I2C,Setup Write to [0x3A] + ACK
0.005543750000000,I2C,0x07 + ACK
0.005575500000000,I2C,0x60 + ACK
0.006514500000000,I2C,Setup Write to [0x3A] + ACK
0.006547000000000,I2C,0x1A + ACK
0.006579000000000,I2C,0x90 + ACK
0.007513750000000,I2C,Setup Write to [0x3A] + ACK
0.007546500000000,I2C,0x1E + ACK
0.007578500000000,I2C,0xAE + ACK
0.008512000000000,I2C,Setup Write to [0x3A] + ACK
0.008544750000000,I2C,0x03 + ACK
0.008576750000000,I2C,0x40 + ACK
0.009512500000000,I2C,Setup Write to [0x3A] + ACK
0.009545250000000,I2C,0x01 + ACK
0.009577000000000,I2C,0x45 + ACK
0.010512750000000,I2C,Setup Write to [0x3A] + ACK
0.010545500000000,I2C,0x18 + ACK
0.010577500000000,I2C,0x20 + ACK
0.011515750000000,I2C,Setup Write to [0x3A] + ACK
0.011548500000000,I2C,0x0A + ACK
0.011580250000000,I2C,0x0F + ACK
0.012515250000000,I2C,Setup Write to [0x3A] + ACK
0.012548250000000,I2C,0x0B + ACK
0.012580250000000,I2C,0x60 + ACK
0.013513750000000,I2C,Setup Write to [0x3A] + ACK
0.013546500000000,I2C,0x0C + ACK
0.013578500000000,I2C,0x3B + ACK
0.014514250000000,I2C,Setup Write to [0x3A] + ACK
0.014547000000000,I2C,0x1D + ACK
0.014579000000000,I2C,0x32 + ACK
0.015531750000000,I2C,Setup Write to [0x3A] + ACK
0.015564750000000,I2C,0x18 + ACK
0.015596500000000,I2C,0x8B + ACK
0.016519250000000,I2C,Setup Write to [0x3A] + ACK
0.016552500000000,I2C,0x19 + ACK
0.016584500000000,I2C,0x8B + ACK
0.017526250000000,I2C,Setup Write to [0x3A] + ACK
0.017559250000000,I2C,0x05 + ACK
0.017591250000000,I2C,0xE0 + ACK
0.018518750000000,I2C,Setup Write to [0x3A] + ACK
0.018551750000000,I2C,0x19 + ACK
0.018583500000000,I2C,0x8B + ACK
0.019516250000000,I2C,Setup Write to [0x3A] + ACK
0.019549000000000,I2C,0x01 + ACK
0.019581000000000,I2C,0x45 + ACK
0.020517000000000,I2C,Setup Write to [0x3A] + ACK
0.020549750000000,I2C,0x02 + ACK
0.020581500000000,I2C,0x44 + ACK
0.021519500000000,I2C,Setup Write to [0x3A] + ACK
0.021552250000000,I2C,0x08 + ACK
0.021584250000000,I2C,0x40 + ACK
0.022519000000000,I2C,Setup Write to [0x3A] + ACK
0.022551500000000,I2C,0x09 + ACK
0.022583500000000,I2C,0x40 + Missing ACK/NAK
0.023517750000000,I2C,Setup Write to [0x3A] + ACK
0.023550500000000,I2C,0x03 + ACK
0.023582500000000,I2C,0x40 + ACK
0.024519500000000,I2C,Setup Write to [0x3A] + ACK
0.024552250000000,I2C,0x01 + ACK
0.024584250000000,I2C,0x45 + ACK
0.025519250000000,I2C,Setup Write to [0x3A] + ACK
0.025552000000000,I2C,0x1E + ACK
0.025583750000000,I2C,0xAE + ACK
0.026523750000000,I2C,Setup Write to [0x3A] + ACK
0.026556500000000,I2C,0x11 + ACK
0.026588500000000,I2C,0x02 + ACK
0.027521750000000,I2C,Setup Write to [0x3A] + ACK
0.027554500000000,I2C,0x12 + ACK
0.027586750000000,I2C,0x72 + ACK
0.028521500000000,I2C,Setup Write to [0x3A] + ACK
0.028554000000000,I2C,0x0F + ACK
0.028586000000000,I2C,0x9C + ACK
0.029522000000000,I2C,Setup Write to [0x3A] + ACK
0.029554750000000,I2C,0x10 + ACK
0.029586750000000,I2C,0x73 + ACK
0.030520000000000,I2C,Setup Write to [0x3A] + ACK
0.030552750000000,I2C,0x17 + ACK
0.030584750000000,I2C,0x28 + ACK
0.031522750000000,I2C,Setup Write to [0x3A] + ACK
0.031555500000000,I2C,0x1D + ACK
0.031587500000000,I2C,0x32 + ACK
0.032523750000000,I2C,Setup Write to [0x3A] + ACK
0.032556500000000,I2C,0x13 + ACK
0.032588500000000,I2C,0x38 + ACK
0.033522000000000,I2C,Setup Write to [0x3A] + ACK
0.033554750000000,I2C,0x10 + ACK
0.033586500000000,I2C,0x73 + ACK
0.034522000000000,I2C,Setup Write to [0x3A] + ACK
0.034554750000000,I2C,0x10 + ACK
0.034586750000000,I2C,0x93 + ACK
0.035524000000000,I2C,Setup Write to [0x3A] + ACK
0.035556750000000,I2C,0x14 + ACK
0.035588750000000,I2C,0x10 + ACK
0.036526000000000,I2C,Setup Write to [0x3A] + ACK
0.036558500000000,I2C,0x12 + ACK
0.036590500000000,I2C,0x7A + ACK
0.037526000000000,I2C,Setup Write to [0x3A] + ACK
0.037558750000000,I2C,0x16 + ACK
0.037590500000000,I2C,0x00 + ACK
0.038523750000000,I2C,Setup Write to [0x3A] + ACK
0.038556500000000,I2C,0x15 + ACK
0.038588500000000,I2C,0x00 + ACK
0.049529750000000,I2C,Setup Write to [0x3A] + ACK
0.049563000000000,I2C,0x00 + ACK
0.050287250000000,I2C,Setup Read to [0x3A] + ACK
0.050320500000000,I2C,0x69 + ACK
0.050352250000000,I2C,0xFD + ACK
0.050384000000000,I2C,0xBA + NAK
0.051212750000000,I2C,Setup Write to [0x3A] + ACK
0.051245500000000,I2C,0x00 + ACK
0.051969750000000,I2C,Setup Read to [0x3A] + ACK
0.052001750000000,I2C,0x69 + ACK
0.052887750000000,I2C,Setup Write to [0x3A] + ACK
0.052920250000000,I2C,0x00 + ACK
0.053644250000000,I2C,Setup Read to [0x3A] + ACK
0.053676000000000,I2C,0x69 + ACK
0.053706750000000,I2C,0xFD + ACK
0.053737750000000,I2C,0xBA + NAK
0.054566250000000,I2C,Setup Write to [0x3A] + ACK
0.054598750000000,I2C,0x00 + ACK
0.055323000000000,I2C,Setup Read to [0x3A] + ACK
0.055355250000000,I2C,0x69 + ACK
0.055386000000000,I2C,0xFD + ACK
0.055417000000000,I2C,0xBA + NAK
0.056242250000000,I2C,Setup Write to [0x3A] + ACK
0.056274750000000,I2C,0x1D + ACK
0.056306750000000,I2C,0xF2 + ACK
0.057529250000000,I2C,Setup Write to [0x3A] + ACK
0.057562000000000,I2C,0x01 + ACK
0.057593750000000,I2C,0x45 + ACK
0.058534750000000,I2C,Setup Write to [0x3A] + ACK
0.058567250000000,I2C,0x1E + ACK
0.058599250000000,I2C,0xAE + ACK
0.059533000000000,I2C,Setup Write to [0x3A] + ACK
0.059566000000000,I2C,0x00 + ACK
0.059598000000000,I2C,0x1F + ACK
0.060532250000000,I2C,Setup Write to [0x3A] + ACK
0.060564750000000,I2C,0x0F + ACK
0.060596750000000,I2C,0x98 + ACK
0.061540250000000,I2C,Setup Write to [0x3A] + ACK
0.061573000000000,I2C,0x01 + ACK
0.061605000000000,I2C,0x41 + ACK
0.062533000000000,I2C,Setup Write to [0x3A] + ACK
0.062565750000000,I2C,0x0C + ACK
0.062597750000000,I2C,0x10 + ACK
0.063535750000000,I2C,Setup Write to [0x3A] + ACK
0.063568500000000,I2C,0x1E + ACK
0.063600500000000,I2C,0x8E + ACK
0.064535250000000,I2C,Setup Write to [0x3A] + ACK
0.064567750000000,I2C,0x0C + ACK
0.064599750000000,I2C,0x10 + ACK
0.078539500000000,I2C,Setup Write to [0x3A] + ACK
0.078572500000000,I2C,0x00 + ACK
0.079296750000000,I2C,Setup Read to [0x3A] + ACK
0.079329250000000,I2C,0x69 + ACK
0.079361000000000,I2C,0xE1 + NAK
0.080187750000000,I2C,Setup Write to [0x3A] + ACK
0.080220500000000,I2C,0x00 + ACK
0.080945000000000,I2C,Setup Read to [0x3A] + ACK
0.080976750000000,I2C,0x69 + ACK
0.081007750000000,I2C,0xE1 + NAK
0.081829750000000,I2C,Setup Write to [0x3A] + ACK
0.081862500000000,I2C,0x00 + ACK
0.082586750000000,I2C,Setup Read to [0x3A] + ACK
0.082618500000000,I2C,0x69 + ACK
0.082649500000000,I2C,0xE1 + NAK
0.083473250000000,I2C,Setup Write to [0x3A] + ACK
0.083505750000000,I2C,0x0C + ACK
0.083537500000000,I2C,0x11 + ACK
0.097545250000000,I2C,Setup Write to [0x3A] + ACK
0.097578500000000,I2C,0x00 + ACK
0.098302750000000,I2C,Setup Read to [0x3A] + ACK
0.098335500000000,I2C,0x69 + ACK
0.098367500000000,I2C,0x31 + NAK
0.099196000000000,I2C,Setup Write to [0x3A] + ACK
0.099228750000000,I2C,0x00 + ACK
0.099953000000000,I2C,Setup Read to [0x3A] + ACK
0.100003750000000,I2C,Setup Write to [0x23] + ACK
0.100837750000000,I2C,Setup Write to [0x3A] + ACK
0.100871000000000,I2C,0x00 + ACK
0.101595250000000,I2C,Setup Read to [0x3A] + ACK
0.101626750000000,I2C,0x69 + ACK
0.101657750000000,I2C,0x31 + NAK
0.102482750000000,I2C,Setup Write to [0x3A] + ACK
0.102515500000000,I2C,0x0C + ACK
0.102547500000000,I2C,0x12 + ACK
0.116554500000000,I2C,Setup Write to [0x3A] + ACK
0.116587250000000,I2C,0x00 + ACK
0.117311750000000,I2C,Setup Read to [0x3A] + ACK
0.117344000000000,I2C,0x69 + ACK
0.118203000000000,I2C,Setup Write to [0x3A] + ACK
0.118235500000000,I2C,0x00 + Missing ACK/NAK
0.118959750000000,I2C,Setup Read to [0x3A] + ACK
0.118991750000000,I2C,0x69 + ACK
0.119022750000000,I2C,0xC9 + NAK
0.119844250000000,I2C,Setup Write to [0x3A] + ACK
0.119877500000000,I2C,0x00 + ACK
0.120601750000000,I2C,Setup Read to [0x3A] + ACK
0.120646000000000,I2C,0x96 + Missing ACK/NAK
0.121488500000000,I2C,Setup Write to [0x3A] + ACK
0.121521000000000,I2C,0x0C + ACK
0.121553000000000,I2C,0x13 + ACK
0.135563750000000,I2C,Setup Write to [0x3A] + ACK
0.135597000000000,I2C,0x00 + ACK
0.136321250000000,I2C,Setup Read to [0x3A] + ACK
0.136353750000000,I2C,0x69 + ACK
0.136385500000000,I2C,0xF9 + NAK
0.137213250000000,I2C,Setup Write to [0x3A] + ACK
0.137246250000000,I2C,0x00 + ACK
0.137970250000000,I2C,Setup Read to [0x3A] + ACK
0.138002000000000,I2C,0x69 + ACK
0.138855000000000,I2C,Setup Write to [0x3A] + ACK
0.138887750000000,I2C,0x00 + ACK
0.139612000000000,I2C,Setup Read to [0x3A] + ACK
0.139643750000000,I2C,0x69 + ACK
0.139674750000000,I2C,0xF9 + NAK
0.140499500000000,I2C,Setup Write to [0x3A] + ACK
0.140532250000000,I2C,0x0C + ACK
0.140564500000000,I2C,0x14 + ACK
0.158854500000000,I2C,Setup Write to [0x3A] + ACK
0.160909750000000,I2C,0x00 + ACK
0.161634250000000,I2C,Setup Read to [0x3A] + ACK
0.161667250000000,I2C,0x69 + ACK
0.161699000000000,I2C,0xE5 + NAK
0.162530750000000,I2C,Setup Write to [0x3A] + ACK
0.162563500000000,I2C,0x00 + ACK
0.163768250000000,I2C,Setup Read to [0x3A] + ACK
0.163801250000000,I2C,0x69 + ACK
0.163832500000000,I2C,0xA5 + NAK
0.164845000000000,I2C,Setup Write to [0x3A] + ACK
0.165152250000000,I2C,0x00 + ACK
0.166950750000000,I2C,Setup Read to [0x3A] + ACK
0.166984000000000,I2C,0x69 + ACK
0.167015500000000,I2C,0xE5 + NAK
0.167848500000000,I2C,Setup Write to [0x3A] + ACK
0.169779750000000,I2C,0x0C + ACK
0.169812000000000,I2C,0x15 + ACK
0.267619500000000,I2C,Setup Write to [0x3A] + ACK
0.267653000000000,I2C,0x00 + ACK
0.268377500000000,I2C,Setup Read to [0x3A] + ACK
0.268429750000000,I2C,Setup Write to [0x2F] + NAK
0.269271750000000,I2C,Setup Write to [0x3A] + ACK
0.269304500000000,I2C,0x00 + ACK
0.270029500000000,I2C,Setup Read to [0x3A] + ACK
0.270062000000000,I2C,0x69 + ACK
0.270093500000000,I2C,0xF5 + NAK
0.270936750000000,I2C,Setup Write to [0x3A] + ACK
0.270969500000000,I2C,0x00 + ACK
0.271693500000000,I2C,Setup Read to [0x3A] + ACK
0.271738250000000,I2C,Setup Read to [0x4B] + NAK
0.273217250000000,I2C,Setup Write to [0x3A] + ACK
0.273250500000000,I2C,0x00 + ACK
0.273282750000000,I2C,0x00 + ACK
0.374734750000000,I2C,Setup Write to [0x3A] + ACK
0.374768500000000,I2C,0x00 + ACK
0.375493000000000,I2C,0x75 + Missing ACK/NAK
0.375529750000000,I2C,Setup Write to [0x69] + ACK
0.375562000000000,I2C,0x33 + Missing ACK/NAK
0.376387750000000,I2C,Setup Write to [0x3A] + ACK
0.376420250000000,I2C,0x00 + ACK
0.377144500000000,I2C,Setup Read to [0x3A] + ACK
0.377176250000000,I2C,0x69 + ACK
0.377207000000000,I2C,0x19 + NAK
0.378029750000000,I2C,Setup Write to [0x3A] + ACK
0.378062250000000,I2C,0x00 + ACK
0.378786250000000,I2C,Setup Read to [0x3A] + ACK
0.378836750000000,I2C,Setup Read to [0x21] + ACK
0.379677000000000,I2C,0x74 + Missing ACK/NAK
0.379709750000000,I2C,Setup Write to [0x00] + ACK
0.379742000000000,I2C,0x02 + ACK
0.379774000000000,I2C,0x44 + ACK
0.379805750000000,I2C,0x40 + ACK
0.379837750000000,I2C,0x40 + ACK
0.379869500000000,I2C,0x05 + ACK
0.379901500000000,I2C,0x69 + ACK
0.379933250000000,I2C,0x17 + ACK
0.379965750000000,I2C,0x75 + ACK
0.379997750000000,I2C,0x40 + ACK
0.380029500000000,I2C,0x40 + ACK
0.380061500000000,I2C,0x06 + ACK
0.380093500000000,I2C,0x08 + ACK
0.380125250000000,I2C,0x89 + Missing ACK/NAK
0.380157250000000,I2C,Setup Write to [0x52] + ACK
0.380189000000000,I2C,0x95 + ACK
0.380221000000000,I2C,0x9C + ACK
0.380253000000000,I2C,0x73 + ACK
0.380284750000000,I2C,0x02 + ACK
0.380316750000000,I2C,0x72 + ACK
0.380348500000000,I2C,0x20 + ACK
0.380380500000000,I2C,0x0B + ACK
0.380412500000000,I2C,0xAA + ACK
0.380444250000000,I2C,0xAA + ACK
0.380476250000000,I2C,0x28 + ACK
0.380508000000000,I2C,0x30 + ACK
0.380540000000000,I2C,0x40 + ACK
0.380571750000000,I2C,0x87 + ACK
0.380603750000000,I2C,0xC2 + ACK
0.380635750000000,I2C,0x25 + ACK
0.380667500000000,I2C,0x30 + ACK
0.380699500000000,I2C,0x26 + ACK
0.380731250000000,I2C,0x47 + ACK
0.381657000000000,I2C,Setup Write to [0x3A] + ACK
0.381689750000000,I2C,0x04 + ACK
0.381721750000000,I2C,0x65 + ACK
0.382655500000000,I2C,Setup Write to [0x3A] + ACK
0.382688250000000,I2C,0x06 + ACK
0.382720250000000,I2C,0x97 + Missing ACK/NAK
0.383654250000000,I2C,Setup Write to [0x3A] + ACK
0.383687250000000,I2C,0x05 + ACK
0.383719250000000,I2C,0xFF + ACK
0.384655250000000,I2C,Setup Write to [0x3A] + ACK
0.384688000000000,I2C,0x07 + ACK
0.384720000000000,I2C,0x68 + ACK
0.385658250000000,I2C,Setup Write to [0x3A] + ACK
0.385691000000000,I2C,0x1A + ACK
0.385722750000000,I2C,0x90 + ACK
0.386657250000000,I2C,Setup Write to [0x3A] + ACK
0.386689750000000,I2C,0x1E + ACK
0.386721750000000,I2C,0xAE + ACK
0.387656750000000,I2C,Setup Write to [0x3A] + ACK
0.387689250000000,I2C,0x03 + ACK
0.387721250000000,I2C,0x40 + ACK
0.388656500000000,I2C,Setup Write to [0x3A] + ACK
0.388689250000000,I2C,0x01 + ACK
0.388721000000000,I2C,0x45 + ACK
0.389656750000000,I2C,Setup Write to [0x3A] + ACK
0.389689500000000,I2C,0x18 + ACK
0.389721250000000,I2C,0x20 + ACK
0.390660000000000,I2C,Setup Write to [0x3A] + ACK
0.390692500000000,I2C,0x0A + ACK
0.390724500000000,I2C,0x0F + ACK
0.391658500000000,I2C,Setup Write to [0x3A] + ACK
0.391691250000000,I2C,0x0B + ACK
0.391723250000000,I2C,0x60 + ACK
0.392657750000000,I2C,Setup Write to [0x3A] + ACK
0.392690250000000,I2C,0x0C + ACK
0.392722250000000,I2C,0x3B + ACK
0.393658250000000,I2C,Setup Write to [0x3A] + ACK
0.393691000000000,I2C,0x1D + ACK
0.393722750000000,I2C,0x32 + ACK
0.394665250000000,I2C,Setup Write to [0x3A] + ACK
0.394698000000000,I2C,0x07 + ACK
0.394730250000000,I2C,0x68 + ACK
0.395663500000000,I2C,Setup Write to [0x3A] + ACK
0.395696250000000,I2C,0x18 + ACK
0.395728000000000,I2C,0xA9 + ACK
0.396661000000000,I2C,Setup Write to [0x3A] + ACK
0.396693750000000,I2C,0x19 + ACK
0.396725750000000,I2C,0x40 + ACK
0.397659500000000,I2C,Setup Write to [0x3A] + ACK
0.397692000000000,I2C,0x19 + ACK
0.397724000000000,I2C,0x40 + ACK
0.398665750000000,I2C,Setup Write to [0x3A] + ACK
0.398698500000000,I2C,0x05 + ACK
0.398730500000000,I2C,0xBF + ACK
0.399662750000000,I2C,Setup Write to [0x3A] + ACK
0.399695500000000,I2C,0x19 + ACK
0.399727500000000,I2C,0x00 + ACK
0.400663500000000,I2C,Setup Write to [0x3A] + ACK
0.400696500000000,I2C,0x01 + ACK
0.400728250000000,I2C,0x05 + ACK
0.401662500000000,I2C,Setup Write to [0x3A] + ACK
0.401695250000000,I2C,0x02 + ACK
0.401727250000000,I2C,0x40 + ACK
0.402661250000000,I2C,Setup Write to [0x3A] + ACK
0.402694000000000,I2C,0x08 + ACK
0.402726000000000,I2C,0x40 + ACK
0.403662750000000,I2C,Setup Write to [0x3A] + ACK
0.403695500000000,I2C,0x09 + ACK
0.403727500000000,I2C,0x40 + ACK
0.404665750000000,I2C,Setup Write to [0x3A] + ACK
0.404698500000000,I2C,0x03 + ACK
0.404730250000000,I2C,0x40 + ACK
0.405667000000000,I2C,Setup Write to [0x3A] + ACK
0.405700000000000,I2C,0x01 + ACK
0.405731750000000,I2C,0x05 + ACK
0.406666000000000,I2C,Setup Write to [0x3A] + ACK
0.406698750000000,I2C,0x1E + ACK
0.406730500000000,I2C,0xAE + ACK
0.407666000000000,I2C,Setup Write to [0x3A] + ACK
0.407698750000000,I2C,0x11 + ACK
0.407730750000000,I2C,0x02 + ACK
0.408665250000000,I2C,Setup Write to [0x3A] + ACK
0.408697750000000,I2C,0x12 + ACK
0.408730000000000,I2C,0x72 + ACK
0.409666250000000,I2C,Setup Write to [0x3A] + ACK
0.409699000000000,I2C,0x0F + ACK
0.409730750000000,I2C,0x9C + ACK
0.410668500000000,I2C,Setup Write to [0x3A] + ACK
0.410701500000000,I2C,0x10 + ACK
0.410733500000000,I2C,0x73 + ACK
0.411666250000000,I2C,Setup Write to [0x3A] + ACK
0.411698750000000,I2C,0x17 + ACK
0.411730750000000,I2C,0x28 + ACK
0.412665500000000,I2C,0x74 + Missing ACK/NAK
0.412698250000000,I2C,Setup Read to [0x0E] + ACK
0.412730250000000,I2C,0x32 + ACK
0.413666750000000,I2C,Setup Write to [0x3A] + ACK
0.413699500000000,I2C,0x13 + ACK
0.413731250000000,I2C,0x20 + ACK
0.414670500000000,I2C,Setup Write to [0x3A] + ACK
0.414703500000000,I2C,0x10 + ACK
0.414735250000000,I2C,0x73 + ACK
0.415669750000000,I2C,Setup Write to [0x3A] + ACK
0.415702500000000,I2C,0x10 + ACK
0.415734500000000,I2C,0x33 + ACK
0.416670000000000,I2C,Setup Write to [0x3A] + ACK
0.416702750000000,I2C,0x14 + ACK
0.416734500000000,I2C,0x4D + ACK
0.417667750000000,I2C,Setup Write to [0x3A] + ACK
0.417700250000000,I2C,0x12 + ACK
0.417732250000000,I2C,0x7A + ACK
0.418679500000000,I2C,Setup Write to [0x3A] + ACK
0.418712250000000,I2C,0x16 + ACK
0.418744250000000,I2C,0x00 + ACK
0.419668750000000,I2C,Setup Write to [0x3A] + ACK
0.419701500000000,I2C,0x15 + Missing ACK/NAK
0.419733500000000,I2C,Setup Write to [0x00] + ACK
0.430672500000000,I2C,Setup Write to [0x3A] + ACK
0.430705500000000,I2C,0x00 + ACK
0.431429750000000,I2C,Setup Read to [0x3A] + ACK
0.431463000000000,I2C,0x69 + ACK
0.431494250000000,I2C,0xC9 + ACK
0.431525500000000,I2C,0x2A + NAK
0.432354000000000,I2C,Setup Write to [0x3A] + ACK
0.432386500000000,I2C,0x00 + ACK
0.433110750000000,I2C,0x75 + Missing ACK/NAK
0.433142500000000,I2C,Setup Read to [0x34] + ACK
0.433173500000000,I2C,0xC9 + ACK
0.433204500000000,I2C,0x2A + NAK
0.434029000000000,I2C,Setup Write to [0x3A] + ACK
0.434061750000000,I2C,0x00 + ACK
0.434785750000000,I2C,Setup Read to [0x3A] + ACK
0.434817500000000,I2C,0x69 + ACK
0.434867500000000,I2C,0x45 + Missing ACK/NAK
0.435713000000000,I2C,Setup Write to [0x3A] + ACK
0.435745750000000,I2C,0x00 + ACK
0.436470000000000,I2C,Setup Read to [0x3A] + ACK
0.436502000000000,I2C,0x69 + ACK
0.436533000000000,I2C,0xC9 + ACK
0.436564000000000,I2C,0x2A + NAK
0.437388750000000,I2C,Setup Write to [0x3A] + ACK
0.437421250000000,I2C,0x1D + ACK
0.437453000000000,I2C,0xF2 + ACK
0.438673750000000,I2C,Setup Write to [0x3A] + ACK
0.438706500000000,I2C,0x01 + ACK
0.438738500000000,I2C,0x05 + ACK
0.439675750000000,I2C,Setup Write to [0x3A] + ACK
0.439709000000000,I2C,0x1E + ACK
0.439740750000000,I2C,0xAE + ACK
0.440680500000000,I2C,Setup Write to [0x3A] + ACK
0.440713250000000,I2C,0x00 + ACK
0.440745250000000,I2C,0x07 + ACK
0.441677750000000,I2C,Setup Write to [0x3A] + ACK
0.441710500000000,I2C,0x0C + ACK
0.441742500000000,I2C,0x3B + ACK
0.510707750000000,I2C,Setup Write to [0x3A] + ACK
0.510741250000000,I2C,0x00 + ACK
0.511465500000000,I2C,Setup Read to [0x3A] + ACK
0.511498750000000,I2C,0x69 + ACK
0.511531250000000,I2C,0xC9 + NAK
0.512360250000000,I2C,Setup Write to [0x3A] + ACK
0.512392750000000,I2C,0x00 + ACK
0.513116750000000,I2C,Setup Read to [0x3A] + ACK
0.513148750000000,I2C,0x69 + ACK
0.513179500000000,I2C,0xC9 + NAK
0.514004750000000,I2C,Setup Write to [0x3A] + ACK
0.514037250000000,I2C,0x00 + ACK
0.514761250000000,I2C,Setup Read to [0x3A] + ACK
0.514793000000000,I2C,0x69 + ACK
0.514823750000000,I2C,0xC9 + NAK
0.515651750000000,I2C,Setup Write to [0x3A] + ACK
0.515685500000000,I2C,0x0C + ACK
0.515717500000000,I2C,0x3C + ACK
0.529711500000000,I2C,Setup Write to [0x3A] + ACK
0.529745000000000,I2C,0x00 + ACK
0.530469250000000,I2C,Setup Read to [0x3A] + ACK
0.531361250000000,I2C,Setup Write to [0x3A] + ACK
0.531393750000000,I2C,0x00 + ACK
0.532118000000000,I2C,Setup Read to [0x3A] + ACK
0.532149750000000,I2C,0x69 + ACK
0.532180750000000,I2C,0x29 + NAK
0.533002750000000,I2C,Setup Write to [0x3A] + ACK
0.533035750000000,I2C,0x00 + ACK
0.533760000000000,I2C,Setup Read to [0x3A] + ACK
0.534648000000000,I2C,Setup Write to [0x3A] + ACK
0.534681000000000,I2C,0x0C + ACK
0.534712750000000,I2C,0x3D + ACK
0.548717250000000,I2C,Setup Write to [0x3A] + ACK
0.548750500000000,I2C,0x00 + ACK
0.549475000000000,I2C,Setup Read to [0x3A] + ACK
0.549507500000000,I2C,0x69 + ACK
0.549539500000000,I2C,0x19 + NAK
0.550366500000000,I2C,Setup Write to [0x3A] + ACK
0.550399000000000,I2C,0x00 + ACK
0.551123250000000,I2C,Setup Read to [0x3A] + ACK
0.551155000000000,I2C,0x69 + ACK
0.552007750000000,I2C,Setup Write to [0x3A] + ACK
0.552041000000000,I2C,0x00 + ACK
0.552765500000000,I2C,Setup Read to [0x3A] + ACK
0.552797000000000,I2C,0x69 + ACK
0.552828000000000,I2C,0x19 + NAK
0.553652500000000,I2C,Setup Write to [0x3A] + ACK
0.553685000000000,I2C,0x0C + ACK
0.553717000000000,I2C,0x3E + ACK
0.567851750000000,I2C,Setup Write to [0x3A] + ACK
0.567885500000000,I2C,0x00 + ACK
0.568610250000000,I2C,Setup Read to [0x3A] + ACK
0.568644250000000,I2C,0x69 + ACK
0.568676750000000,I2C,0x99 + NAK
0.570237750000000,I2C,Setup Write to [0x3A] + ACK
0.570270750000000,I2C,0x00 + ACK
0.570995000000000,I2C,Setup Read to [0x3A] + ACK
0.571032500000000,I2C,0x69 + ACK
0.571064000000000,I2C,0x99 + NAK
0.571895500000000,I2C,Setup Write to [0x3A] + ACK
0.571928250000000,I2C,0x00 + ACK
0.572652500000000,I2C,Setup Read to [0x3A] + ACK
0.572684250000000,I2C,0x69 + ACK
0.573540500000000,I2C,Setup Write to [0x3A] + ACK
0.573573250000000,I2C,0x0C + ACK
0.573605500000000,I2C,0x3F + Missing ACK/NAK
0.587738000000000,I2C,Setup Write to [0x3A] + ACK
0.587771500000000,I2C,0x00 + ACK
0.588495750000000,I2C,Setup Read to [0x3A] + ACK
0.588528500000000,I2C,0x69 + ACK
0.589390250000000,I2C,Setup Write to [0x3A] + ACK
0.589422750000000,I2C,0x00 + ACK
0.590147000000000,I2C,Setup Read to [0x3A] + ACK
0.590179000000000,I2C,0x69 + ACK
0.590209750000000,I2C,0xB9 + NAK
0.591047750000000,I2C,Setup Write to [0x3A] + ACK
0.591080500000000,I2C,0x00 + ACK
0.591804750000000,I2C,Setup Read to [0x3A] + ACK
0.592702250000000,I2C,Setup Write to [0x3A] + ACK
0.592734750000000,I2C,0x08 + ACK
0.592767000000000,I2C,0x40 + ACK
0.593736500000000,I2C,Setup Write to [0x3A] + ACK
0.593769000000000,I2C,0x09 + ACK
0.593801000000000,I2C,0x40 + ACK
0.597742250000000,I2C,Setup Write to [0x3A] + ACK
0.597775750000000,I2C,0x00 + ACK
0.598499750000000,I2C,Setup Read to [0x3A] + ACK
0.598532250000000,I2C,0x69 + ACK
0.598564750000000,I2C,0xB9 + NAK
0.599391250000000,I2C,Setup Write to [0x3A] + ACK
0.599424000000000,I2C,0x00 + ACK
0.600148000000000,I2C,Setup Read to [0x3A] + ACK
0.600180000000000,I2C,0x69 + ACK
0.601037250000000,I2C,Setup Write to [0x3A] + ACK
0.601069750000000,I2C,0x00 + ACK
0.601794000000000,I2C,Setup Read to [0x3A] + ACK
0.601825750000000,I2C,0x69 + ACK
0.601856500000000,I2C,0xB9 + NAK
0.602681250000000,I2C,Setup Write to [0x3A] + ACK
0.602713750000000,I2C,0x08 + ACK
0.602745750000000,I2C,0x40 + ACK
0.603739000000000,I2C,Setup Write to [0x3A] + ACK
0.603771500000000,I2C,0x09 + ACK
0.603803500000000,I2C,0x41 + ACK
0.607740000000000,I2C,Setup Write to [0x3A] + ACK
0.607773000000000,I2C,0x00 + ACK
0.608497250000000,I2C,Setup Read to [0x3A] + ACK
0.608529750000000,I2C,0x69 + ACK
0.609388250000000,I2C,Setup Write to [0x3A] + ACK
0.609420750000000,I2C,0x00 + ACK
0.610145000000000,I2C,Setup Read to [0x3A] + ACK
0.610176750000000,I2C,0x69 + ACK
0.610207750000000,I2C,0x85 + NAK
0.611029750000000,I2C,Setup Write to [0x3A] + ACK
0.611063000000000,I2C,0x00 + ACK
0.611787250000000,I2C,Setup Read to [0x3A] + ACK
0.611818750000000,I2C,0x69 + ACK
0.612674000000000,I2C,Setup Write to [0x3A] + ACK
0.612706500000000,I2C,0x08 + ACK
0.612738500000000,I2C,0x40 + ACK
0.613742250000000,I2C,Setup Write to [0x3A] + ACK
0.613775000000000,I2C,0x09 + ACK
0.613806750000000,I2C,0x61 + ACK
0.617756750000000,I2C,Setup Write to [0x3A] + ACK
0.617790000000000,I2C,0x00 + ACK
0.618514750000000,I2C,Setup Read to [0x3A] + ACK
0.618547500000000,I2C,0x69 + ACK
0.618579500000000,I2C,0x25 + NAK
0.619411750000000,I2C,Setup Write to [0x3A] + ACK
0.619444250000000,I2C,0x00 + ACK
0.620168500000000,I2C,Setup Read to [0x3A] + ACK
0.621053750000000,I2C,Setup Write to [0x3A] + ACK
0.621086500000000,I2C,0x00 + ACK
0.621810500000000,I2C,Setup Read to [0x3A] + ACK
0.621842000000000,I2C,0x69 + ACK
0.621873000000000,I2C,0x25 + NAK
0.622698500000000,I2C,Setup Write to [0x3A] + ACK
0.622731250000000,I2C,0x08 + ACK
0.622763000000000,I2C,0x41 + ACK
0.623746250000000,I2C,Setup Write to [0x3A] + ACK
0.623779000000000,I2C,0x09 + ACK
0.623811000000000,I2C,0x40 + ACK
0.629120500000000,I2C,Setup Write to [0x3A] + ACK
0.629153750000000,I2C,0x00 + ACK
0.629877750000000,I2C,Setup Read to [0x3A] + ACK
0.629930000000000,I2C,Setup Write to [0x2D] + NAK
0.630772500000000,I2C,Setup Write to [0x3A] + ACK
0.630805000000000,I2C,0x00 + ACK
0.631529250000000,I2C,Setup Read to [0x3A] + ACK
0.631561250000000,I2C,0x69 + ACK
0.631592250000000,I2C,0xD5 + NAK
0.632415000000000,I2C,Setup Write to [0x3A] + ACK
0.632447500000000,I2C,0x00 + ACK
0.633172250000000,I2C,0x75 + Missing ACK/NAK
0.633204750000000,I2C,Setup Read to [0x34] + ACK
0.633235500000000,I2C,0x55 + NAK
0.634066000000000,I2C,Setup Write to [0x3A] + ACK
0.634098750000000,I2C,0x08 + ACK
0.634131000000000,I2C,0x61 + ACK
0.635781000000000,I2C,Setup Write to [0x3A] + ACK
0.635813750000000,I2C,0x09 + ACK
0.635846000000000,I2C,0x40 + ACK
0.639752750000000,I2C,Setup Write to [0x3A] + ACK
0.639785500000000,I2C,0x00 + ACK
0.640509750000000,I2C,Setup Read to [0x3A] + ACK
0.640542250000000,I2C,0x69 + ACK
0.640574000000000,I2C,0xD1 + NAK
0.641400750000000,I2C,Setup Write to [0x3A] + ACK
0.641433250000000,I2C,0x00 + ACK
0.642157500000000,I2C,Setup Read to [0x3A] + ACK
0.643042000000000,I2C,Setup Write to [0x3A] + ACK
0.643075250000000,I2C,0x00 + ACK
0.643799500000000,I2C,Setup Read to [0x3A] + ACK
0.643831250000000,I2C,0x69 + ACK
0.643862000000000,I2C,0xD1 + NAK
0.644686500000000,I2C,Setup Write to [0x3A] + ACK
0.644719250000000,I2C,0x08 + ACK
0.644751000000000,I2C,0x40 + ACK
0.645754500000000,I2C,Setup Write to [0x3A] + ACK
0.645787250000000,I2C,0x09 + ACK
0.645819000000000,I2C,0x42 + ACK
0.649755250000000,I2C,Setup Write to [0x3A] + ACK
0.649788000000000,I2C,0x00 + ACK
0.650514250000000,I2C,Setup Read to [0x3A] + ACK
0.651412250000000,I2C,Setup Write to [0x3A] + ACK
0.651444750000000,I2C,0x00 + ACK
0.652169500000000,I2C,Setup Read to [0x3A] + ACK
0.652201250000000,I2C,0x69 + ACK
0.652232250000000,I2C,0x95 + NAK
0.653058250000000,I2C,Setup Write to [0x3A] + ACK
0.653091000000000,I2C,0x00 + ACK
0.653815000000000,I2C,Setup Read to [0x3A] + ACK
0.653865500000000,I2C,Setup Write to [0x25] + NAK
0.654702750000000,I2C,Setup Write to [0x3A] + ACK
0.654735250000000,I2C,0x08 + ACK
0.654767500000000,I2C,0x40 + ACK
0.655764750000000,I2C,Setup Write to [0x3A] + ACK
0.655797250000000,I2C,0x09 + ACK
0.655829750000000,I2C,0x62 + ACK
0.659760000000000,I2C,Setup Write to [0x3A] + ACK
0.659793000000000,I2C,0x00 + ACK
0.660517250000000,I2C,Setup Read to [0x3A] + ACK
0.660549750000000,I2C,0x69 + ACK
0.660581750000000,I2C,0x35 + NAK
0.661408500000000,I2C,Setup Write to [0x3A] + ACK
0.661441250000000,I2C,0x00 + ACK
0.662165250000000,I2C,Setup Read to [0x3A] + ACK
0.662197250000000,I2C,0x69 + ACK
0.662228000000000,I2C,0x35 + NAK
0.663050000000000,I2C,Setup Write to [0x3A] + ACK
0.663083250000000,I2C,0x00 + ACK
0.663807500000000,I2C,Setup Read to [0x3A] + ACK
0.663839000000000,I2C,0x69 + ACK
0.663870000000000,I2C,0xD5 + NAK
0.664694500000000,I2C,Setup Write to [0x3A] + ACK
0.664727000000000,I2C,0x08 + ACK
0.664759000000000,I2C,0x42 + ACK
0.665762500000000,I2C,Setup Write to [0x3A] + ACK
0.665795250000000,I2C,0x09 + ACK
0.665827250000000,I2C,0x40 + ACK
0.669763000000000,I2C,Setup Write to [0x3A] + ACK
0.669795750000000,I2C,0x00 + ACK
0.670520000000000,I2C,Setup Read to [0x3A] + ACK
0.670552500000000,I2C,0x69 + ACK
0.671410250000000,I2C,Setup Write to [0x3A] + ACK
0.671442750000000,I2C,0x00 + ACK
0.672167000000000,I2C,Setup Read to [0x3A] + ACK
0.672198750000000,I2C,0x69 + ACK
0.672229750000000,I2C,0xF5 + NAK
0.673051750000000,I2C,Setup Write to [0x3A] + ACK
0.673084500000000,I2C,0x00 + ACK
0.673808750000000,I2C,Setup Read to [0x3A] + ACK
0.673840250000000,I2C,0x69 + ACK
0.674696000000000,I2C,Setup Write to [0x3A] + ACK
0.674728750000000,I2C,0x08 + ACK
0.674760500000000,I2C,0x62 + Missing ACK/NAK
0.675766750000000,I2C,Setup Write to [0x3A] + ACK
0.675799750000000,I2C,0x09 + ACK
0.675831500000000,I2C,0x40 + ACK
0.679767500000000,I2C,Setup Write to [0x3A] + ACK
0.679800250000000,I2C,0x00 + ACK
0.680524500000000,I2C,Setup Read to [0x3A] + ACK
0.680557000000000,I2C,0x69 + ACK
0.680589000000000,I2C,0xB1 + NAK
0.681415500000000,I2C,Setup Write to [0x3A] + ACK
0.681448250000000,I2C,0x00 + ACK
0.682172500000000,I2C,Setup Read to [0x3A] + ACK
0.682223250000000,I2C,Setup Write to [0x2B] + ACK
0.683057000000000,I2C,Setup Write to [0x3A] + ACK
0.683089250000000,I2C,0x00 + ACK
0.683813250000000,I2C,Setup Read to [0x3A] + ACK
0.683845000000000,I2C,0x69 + ACK
0.683876000000000,I2C,0x31 + NAK
0.684704250000000,I2C,Setup Write to [0x3A] + ACK
0.684736750000000,I2C,0x08 + ACK
0.684768750000000,I2C,0x62 + ACK
0.743382500000000,I2C,Setup Write to [0x3A] + ACK
0.743415750000000,I2C,0x09 + ACK
0.743448000000000,I2C,0x40 + ACK
0.747793750000000,I2C,Setup Write to [0x3A] + ACK
0.747827000000000,I2C,0x00 + ACK
0.748551250000000,I2C,Setup Read to [0x3A] + ACK
0.748584500000000,I2C,0x69 + ACK
0.749445500000000,I2C,Setup Write to [0x3A] + ACK
0.749478000000000,I2C,0x00 + ACK
0.754635250000000,I2C,Setup Read to [0x3A] + ACK
0.754670250000000,I2C,0x69 + ACK
0.754703000000000,I2C,0xB1 + NAK
0.755540000000000,I2C,Setup Write to [0x3A] + ACK
0.755573000000000,I2C,0x00 + ACK
0.756297500000000,I2C,Setup Read to [0x3A] + ACK
0.756330000000000,I2C,0x69 + ACK
0.756360750000000,I2C,0xB1 + NAK
0.757190750000000,I2C,Setup Write to [0x3A] + ACK
0.757224000000000,I2C,0x08 + ACK
0.757256250000000,I2C,0x63 + ACK
0.758802500000000,I2C,Setup Write to [0x3A] + ACK
0.758835250000000,I2C,0x09 + ACK
0.758867250000000,I2C,0x40 + ACK
0.762798000000000,I2C,Setup Write to [0x3A] + ACK
0.762830750000000,I2C,0x00 + ACK
0.763555000000000,I2C,0x75 + Missing ACK/NAK
0.763609750000000,I2C,Setup Write to [0x5F] + ACK
0.764445750000000,I2C,Setup Write to [0x3A] + ACK
0.764478250000000,I2C,0x00 + ACK
0.765202750000000,I2C,Setup Read to [0x3A] + ACK
0.765234500000000,I2C,0x69 + ACK
0.765265500000000,I2C,0xF9 + NAK
0.766087250000000,I2C,Setup Write to [0x3A] + ACK
0.766119250000000,I2C,0x00 + ACK
0.766843750000000,I2C,0x75 + Missing ACK/NAK
0.766888000000000,I2C,Setup Read to [0x4B] + NAK
0.767732000000000,I2C,Setup Write to [0x3A] + ACK
0.767764750000000,I2C,0x08 + ACK
0.767796500000000,I2C,0x61 + ACK
0.768804750000000,I2C,Setup Write to [0x3A] + ACK
0.768837250000000,I2C,0x09 + ACK
0.768869500000000,I2C,0x40 + ACK
0.772802250000000,I2C,Setup Write to [0x3A] + ACK
0.772835250000000,I2C,0x00 + ACK
0.773559500000000,I2C,Setup Read to [0x3A] + ACK
0.773592500000000,I2C,0x69 + ACK
0.773624250000000,I2C,0xD1 + NAK
0.774451750000000,I2C,Setup Write to [0x3A] + ACK
0.774484250000000,I2C,0x00 + ACK
0.775208500000000,I2C,Setup Read to [0x3A] + ACK
0.775240500000000,I2C,0x69 + ACK
0.775271250000000,I2C,0xD1 + NAK
0.776093000000000,I2C,Setup Write to [0x3A] + ACK
0.776125250000000,I2C,0x00 + ACK
0.776849500000000,I2C,Setup Read to [0x3A] + ACK
0.776881000000000,I2C,0x69 + ACK
0.776912000000000,I2C,0xD1 + NAK
0.777736250000000,I2C,Setup Write to [0x3A] + ACK
0.777769000000000,I2C,0x08 + ACK
0.777800750000000,I2C,0x61 + ACK
0.778805000000000,I2C,Setup Write to [0x3A] + ACK
0.778837750000000,I2C,0x09 + ACK
0.778869750000000,I2C,0x41 + ACK
0.782806000000000,I2C,Setup Write to [0x3A] + ACK
0.782838750000000,I2C,0x00 + ACK
0.783563250000000,I2C,Setup Read to [0x3A] + ACK
0.783617750000000,I2C,Setup Write to [0x55] + ACK
0.784454000000000,I2C,Setup Write to [0x3A] + ACK
0.784487000000000,I2C,0x00 + ACK
0.785211250000000,I2C,Setup Read to [0x3A] + ACK
0.785243250000000,I2C,0x69 + ACK
0.785275000000000,I2C,0xA9 + NAK
0.786107750000000,I2C,Setup Write to [0x3A] + ACK
0.786140250000000,I2C,0x00 + ACK
0.786864250000000,I2C,0x75 + Missing ACK/NAK
0.786918000000000,I2C,Setup Write to [0x55] + ACK
0.787750750000000,I2C,Setup Write to [0x3A] + ACK
0.787783250000000,I2C,0x08 + ACK
0.787815250000000,I2C,0x61 + ACK
0.788808750000000,I2C,Setup Write to [0x3A] + ACK
0.788841500000000,I2C,0x09 + Missing ACK/NAK
0.788873500000000,I2C,Setup Read to [0x30] + ACK
0.792810250000000,I2C,Setup Write to [0x3A] + ACK
0.792843000000000,I2C,0x00 + ACK
0.793567250000000,I2C,Setup Read to [0x3A] + ACK
0.793599750000000,I2C,0x69 + ACK
0.793631500000000,I2C,0x99 + NAK
0.794459750000000,I2C,Setup Write to [0x3A] + ACK
0.794492250000000,I2C,0x00 + ACK
0.795216500000000,I2C,Setup Read to [0x3A] + ACK
0.795248500000000,I2C,0x69 + ACK
0.796101250000000,I2C,Setup Write to [0x3A] + ACK
0.796133500000000,I2C,0x00 + ACK
0.796857750000000,I2C,Setup Read to [0x3A] + ACK
0.796889250000000,I2C,0x69 + ACK
0.796920250000000,I2C,0x99 + NAK
0.797747000000000,I2C,Setup Write to [0x3A] + ACK
0.797779500000000,I2C,0x08 + ACK
0.797811250000000,I2C,0x61 + ACK
0.798813000000000,I2C,Setup Write to [0x3A] + ACK
0.798845750000000,I2C,0x09 + ACK
0.798877500000000,I2C,0x41 + ACK
0.802813000000000,I2C,Setup Write to [0x3A] + ACK
0.802846000000000,I2C,0x00 + ACK
0.803570250000000,I2C,Setup Read to [0x3A] + ACK
0.803602750000000,I2C,0x69 + ACK
0.803634000000000,I2C,0xA9 + NAK
0.804460500000000,I2C,Setup Write to [0x3A] + ACK
0.804493250000000,I2C,0x00 + ACK
0.805217500000000,I2C,Setup Read to [0x3A] + ACK
0.805250000000000,I2C,0x69 + ACK
0.805281250000000,I2C,0x19 + NAK
0.806115500000000,I2C,Setup Write to [0x3A] + ACK
0.806148000000000,I2C,0x00 + ACK
0.806872000000000,I2C,Setup Read to [0x3A] + ACK
0.806922500000000,I2C,Setup Read to [0x2A] + ACK
0.807760500000000,I2C,Setup Write to [0x3A] + ACK
0.807793250000000,I2C,0x09 + Missing ACK/NAK
0.807825500000000,I2C,Setup Write to [0x20] + ACK
0.808817000000000,I2C,Setup Write to [0x3A] + ACK
0.808849750000000,I2C,0x08 + ACK
0.808881500000000,I2C,0x61 + Missing ACK/NAK
0.812817750000000,I2C,Setup Write to [0x3A] + ACK
0.812850500000000,I2C,0x00 + ACK
0.813574750000000,I2C,Setup Read to [0x3A] + ACK
0.813607250000000,I2C,0x69 + ACK
0.813639000000000,I2C,0xD1 + NAK
0.814466250000000,I2C,Setup Write to [0x3A] + ACK
0.814499250000000,I2C,0x00 + ACK
0.815223500000000,I2C,Setup Read to [0x3A] + ACK
0.815255750000000,I2C,0x69 + ACK
0.815287500000000,I2C,0xD1 + NAK
0.816118500000000,I2C,Setup Write to [0x3A] + ACK
0.816151000000000,I2C,0x00 + ACK
0.816875000000000,I2C,Setup Read to [0x3A] + ACK
0.816906500000000,I2C,0x69 + ACK
0.816937500000000,I2C,0xD1 + NAK
0.817762750000000,I2C,Setup Write to [0x3A] + ACK
0.817795250000000,I2C,0x09 + ACK
0.817827000000000,I2C,0x40 + ACK
0.818829250000000,I2C,Setup Write to [0x3A] + ACK
0.818862000000000,I2C,0x08 + ACK
0.818894000000000,I2C,0x62 + ACK
0.822821000000000,I2C,Setup Write to [0x3A] + ACK
0.822854250000000,I2C,0x00 + ACK
0.823578250000000,I2C,Setup Read to [0x3A] + ACK
0.824470250000000,I2C,Setup Write to [0x3A] + ACK
0.824503250000000,I2C,0x00 + ACK
0.825227750000000,I2C,Setup Read to [0x3A] + ACK
0.825260000000000,I2C,0x69 + ACK
0.825292000000000,I2C,0xB1 + NAK
0.826128500000000,I2C,Setup Write to [0x3A] + ACK
0.826161000000000,I2C,0x00 + ACK
0.826885000000000,I2C,0x75 + Missing ACK/NAK
0.827773750000000,I2C,Setup Write to [0x3A] + ACK
0.827806250000000,I2C,0x09 + ACK
0.827838500000000,I2C,0x40 + ACK
0.828827000000000,I2C,Setup Write to [0x3A] + ACK
0.828859750000000,I2C,0x08 + ACK
0.828892000000000,I2C,0x60 + ACK
0.832825000000000,I2C,Setup Write to [0x3A] + ACK
0.832857750000000,I2C,0x00 + ACK
0.833582250000000,I2C,Setup Read to [0x3A] + ACK
0.833615000000000,I2C,0x69 + ACK
0.833646750000000,I2C,0xB9 + NAK
0.834473500000000,I2C,Setup Write to [0x3A] + ACK
0.834506000000000,I2C,0x00 + ACK
0.835230500000000,I2C,Setup Read to [0x3A] + ACK
0.835281250000000,I2C,Setup Read to [0x2B] + ACK
0.836115250000000,I2C,Setup Write to [0x3A] + ACK
0.836147500000000,I2C,0x00 + ACK
0.836871750000000,I2C,Setup Read to [0x3A] + ACK
0.836903500000000,I2C,0x69 + ACK
0.836934500000000,I2C,0xB9 + NAK
0.837762500000000,I2C,Setup Write to [0x3A] + ACK
0.837795250000000,I2C,0x08 + ACK
0.837827000000000,I2C,0x60 + ACK
0.838828250000000,I2C,Setup Write to [0x3A] + ACK
0.838861250000000,I2C,0x09 + ACK
0.838893000000000,I2C,0x40 + ACK
0.842828500000000,I2C,Setup Write to [0x3A] + ACK
0.842861500000000,I2C,0x00 + ACK
0.843585750000000,I2C,Setup Read to [0x3A] + ACK
0.844476500000000,I2C,Setup Write to [0x3A] + ACK
0.844509250000000,I2C,0x00 + ACK
0.845233500000000,I2C,Setup Read to [0x3A] + ACK
0.845266000000000,I2C,0x69 + ACK
0.845297250000000,I2C,0xB9 + NAK
0.846130250000000,I2C,Setup Write to [0x3A] + ACK
0.846162750000000,I2C,0x00 + ACK
0.846887000000000,I2C,Setup Read to [0x3A] + ACK
0.846918750000000,I2C,0x69 + ACK
0.846949500000000,I2C,0xB9 + NAK
0.847774000000000,I2C,Setup Write to [0x3A] + ACK
0.847806500000000,I2C,0x08 + ACK
0.847838250000000,I2C,0x60 + ACK
0.848831500000000,I2C,Setup Write to [0x3A] + ACK
0.848864250000000,I2C,0x09 + ACK
0.848896000000000,I2C,0x41 + ACK
0.852833000000000,I2C,Setup Write to [0x3A] + ACK
0.852866000000000,I2C,0x00 + ACK
0.853590250000000,I2C,Setup Read to [0x3A] + ACK
0.853622750000000,I2C,0x69 + ACK
0.853654000000000,I2C,0x85 + NAK
0.854481000000000,I2C,Setup Write to [0x3A] + ACK
0.854513500000000,I2C,0x00 + ACK
0.855237750000000,I2C,Setup Read to [0x3A] + ACK
0.855269750000000,I2C,0x69 + ACK
0.856122750000000,I2C,Setup Write to [0x3A] + ACK
0.856156000000000,I2C,0x00 + ACK
0.856880250000000,I2C,Setup Read to [0x3A] + ACK
0.856912000000000,I2C,0x69 + ACK
0.856943000000000,I2C,0x85 + NAK
0.857766500000000,I2C,Setup Write to [0x3A] + ACK
0.857799250000000,I2C,0x08 + ACK
0.857831000000000,I2C,0x60 + ACK
0.858835250000000,I2C,Setup Write to [0x3A] + ACK
0.858868000000000,I2C,0x09 + ACK
0.858899750000000,I2C,0x61 + ACK
0.862836500000000,I2C,Setup Write to [0x3A] + ACK
0.862869250000000,I2C,0x00 + ACK
0.863593500000000,I2C,Setup Read to [0x3A] + ACK
0.863626000000000,I2C,0x69 + ACK
0.863657250000000,I2C,0x25 + NAK
0.864483750000000,I2C,Setup Write to [0x3A] + ACK
0.864516500000000,I2C,0x00 + ACK
0.865240750000000,I2C,Setup Read to [0x3A] + ACK
0.865272500000000,I2C,0x69 + ACK
0.865303500000000,I2C,0x25 + NAK
0.866125500000000,I2C,Setup Write to [0x3A] + ACK
0.866157750000000,I2C,0x00 + ACK
0.866882000000000,I2C,Setup Read to [0x3A] + ACK
0.866926250000000,I2C,Setup Read to [0x48] + ACK
0.867770000000000,I2C,Setup Write to [0x3A] + ACK
0.867802750000000,I2C,0x08 + ACK
0.867834750000000,I2C,0x61 + ACK
0.868839750000000,I2C,Setup Write to [0x3A] + ACK
0.868872500000000,I2C,0x09 + ACK
0.868904250000000,I2C,0x40 + ACK
0.872840250000000,I2C,Setup Write to [0x3A] + ACK
0.872873250000000,I2C,0x00 + ACK
0.873597500000000,I2C,Setup Read to [0x3A] + ACK
0.873630000000000,I2C,0x69 + ACK
0.873661500000000,I2C,0xD1 + NAK
0.874489250000000,I2C,Setup Write to [0x3A] + ACK
0.874522000000000,I2C,0x00 + ACK
0.875246250000000,I2C,Setup Read to [0x3A] + ACK
0.875278750000000,I2C,0x69 + ACK
0.876148000000000,I2C,Setup Write to [0x3A] + ACK
0.876180750000000,I2C,0x00 + ACK
0.876904750000000,I2C,Setup Read to [0x3A] + ACK
0.876936250000000,I2C,0x69 + ACK
0.876967250000000,I2C,0xD1 + NAK
0.877791750000000,I2C,Setup Write to [0x3A] + ACK
0.877824250000000,I2C,0x08 + ACK
0.877856250000000,I2C,0x61 + ACK
0.878845250000000,I2C,Setup Write to [0x3A] + ACK
0.878878500000000,I2C,0x09 + ACK
0.878910500000000,I2C,0x41 + ACK
0.882844000000000,I2C,Setup Write to [0x3A] + ACK
0.882877000000000,I2C,0x00 + ACK
0.883601250000000,I2C,Setup Read to [0x3A] + ACK
0.883633750000000,I2C,0x69 + ACK
0.884491500000000,I2C,Setup Write to [0x3A] + ACK
0.884524000000000,I2C,0x00 + ACK
0.885248250000000,I2C,Setup Read to [0x3A] + ACK
0.885280000000000,I2C,0x69 + ACK
0.885310750000000,I2C,0xA9 + NAK
0.886132500000000,I2C,Setup Write to [0x3A] + ACK
0.886164750000000,I2C,0x00 + ACK
0.886889250000000,I2C,Setup Read to [0x3A] + ACK
0.886920750000000,I2C,0x69 + ACK
0.887775750000000,I2C,Setup Write to [0x3A] + ACK
0.887808500000000,I2C,0x08 + ACK
0.887840250000000,I2C,0x61 + ACK
0.888849000000000,I2C,Setup Write to [0x3A] + ACK
0.888881500000000,I2C,0x09 + ACK
0.888913750000000,I2C,0x61 + ACK
0.892848250000000,I2C,Setup Write to [0x3A] + ACK
0.892881000000000,I2C,0x00 + ACK
0.893605250000000,I2C,Setup Read to [0x3A] + ACK
0.893638000000000,I2C,0x69 + ACK
0.893670000000000,I2C,0x99 + NAK
1.031540250000000,I2C,Setup Write to [0x3A] + ACK
1.031573750000000,I2C,0x00 + ACK
1.032299250000000,I2C,Setup Read to [0x3A] + ACK
1.032332500000000,I2C,0x69 + ACK
1.032365500000000,I2C,0x99 + NAK
1.033201500000000,I2C,Setup Write to [0x3A] + ACK
1.033234250000000,I2C,0x00 + ACK
1.033958000000000,I2C,Setup Read to [0x3A] + ACK
1.033989750000000,I2C,0x69 + ACK
1.034020750000000,I2C,0x99 + NAK
1.034852500000000,I2C,Setup Write to [0x3A] + ACK
1.034885250000000,I2C,0x08 + ACK
1.034917500000000,I2C,0x62 + ACK
1.035904250000000,I2C,Setup Write to [0x3A] + ACK
1.035936750000000,I2C,0x09 + ACK
1.035968750000000,I2C,0x40 + ACK
1.039904000000000,I2C,Setup Write to [0x3A] + ACK
1.039936750000000,I2C,0x00 + ACK
1.040661000000000,I2C,Setup Read to [0x3A] + ACK
1.040693500000000,I2C,0x69 + ACK
1.040724750000000,I2C,0x31 + NAK
1.041552000000000,I2C,Setup Write to [0x3A] + ACK
1.041584500000000,I2C,0x00 + ACK
1.042308750000000,I2C,Setup Read to [0x3A] + ACK
1.042340500000000,I2C,0x69 + ACK
1.042371500000000,I2C,0xB1 + NAK
1.043193250000000,I2C,Setup Write to [0x3A] + ACK
1.043225250000000,I2C,0x00 + ACK
1.043949500000000,I2C,Setup Read to [0x3A] + ACK
1.043981000000000,I2C,0x69 + ACK
1.044012250000000,I2C,0x31 + NAK
1.044836250000000,I2C,Setup Write to [0x3A] + ACK
1.044868750000000,I2C,0x08 + ACK
1.044900750000000,I2C,0x62 + ACK
1.045905750000000,I2C,Setup Write to [0x3A] + ACK
1.045938500000000,I2C,0x09 + ACK
1.045970500000000,I2C,0x41 + ACK
1.049906750000000,I2C,Setup Write to [0x3A] + ACK
1.049939750000000,I2C,0x00 + ACK
1.050664000000000,I2C,Setup Read to [0x3A] + ACK
1.050696500000000,I2C,0x69 + ACK
1.051554000000000,I2C,Setup Write to [0x3A] + ACK
1.051586500000000,I2C,0x00 + ACK
1.052311000000000,I2C,Setup Read to [0x3A] + ACK
1.052342750000000,I2C,0x69 + ACK
1.052373750000000,I2C,0x19 + NAK
1.053195500000000,I2C,Setup Write to [0x3A] + ACK
1.053228250000000,I2C,0x00 + ACK
1.053952500000000,I2C,Setup Read to [0x3A] + ACK
1.053984000000000,I2C,0x69 + ACK
1.054015000000000,I2C,0x19 + NAK
1.054839000000000,I2C,Setup Write to [0x3A] + ACK
1.054872000000000,I2C,0x08 + ACK
1.054903750000000,I2C,0x62 + ACK
1.055912750000000,I2C,Setup Write to [0x3A] + ACK
1.055945750000000,I2C,0x09 + ACK
1.055977500000000,I2C,0x61 + ACK
1.059911500000000,I2C,Setup Write to [0x3A] + ACK
1.059944750000000,I2C,0x00 + ACK
1.060669000000000,I2C,Setup Read to [0x3A] + ACK
1.060701500000000,I2C,0x69 + ACK
1.060733500000000,I2C,0x99 + NAK
1.061560000000000,I2C,Setup Write to [0x3A] + ACK
1.061592750000000,I2C,0x00 + ACK
1.062317000000000,I2C,Setup Read to [0x3A] + ACK
1.062348750000000,I2C,0x69 + ACK
1.062379500000000,I2C,0x99 + NAK
1.063202000000000,I2C,Setup Write to [0x3A] + ACK
1.063234250000000,I2C,0x00 + ACK
1.063958500000000,I2C,Setup Read to [0x3A] + ACK
1.063990000000000,I2C,0x69 + ACK
1.064021000000000,I2C,0x59 + NAK
1.064848000000000,I2C,Setup Write to [0x3A] + ACK
1.064880750000000,I2C,0x08 + ACK
1.064912500000000,I2C,0x61 + ACK
1.065914750000000,I2C,Setup Write to [0x3A] + ACK
1.065947500000000,I2C,0x09 + ACK
1.065979500000000,I2C,0x40 + ACK
1.066917250000000,I2C,Setup Write to [0x3A] + ACK
1.066950000000000,I2C,0x03 + ACK
1.066981750000000,I2C,0x40 + ACK
1.070914750000000,I2C,Setup Write to [0x3A] + ACK
1.070947500000000,I2C,0x00 + ACK
1.071671750000000,I2C,Setup Read to [0x3A] + ACK
1.071704250000000,I2C,0x69 + ACK
1.071735750000000,I2C,0xD1 + NAK
1.072562000000000,I2C,Setup Write to [0x3A] + ACK
1.072594750000000,I2C,0x00 + ACK
1.073319000000000,I2C,Setup Read to [0x3A] + ACK
1.073350750000000,I2C,0x69 + ACK
1.074203750000000,I2C,Setup Write to [0x3A] + ACK
1.074236250000000,I2C,0x00 + ACK
1.074960500000000,I2C,Setup Read to [0x3A] + ACK
1.074992250000000,I2C,0x69 + ACK
1.075023250000000,I2C,0xD1 + NAK
1.075848750000000,I2C,Setup Write to [0x3A] + ACK
1.075881500000000,I2C,0x03 + ACK
1.075913500000000,I2C,0x41 + ACK
1.079920250000000,I2C,Setup Write to [0x3A] + ACK
1.079953000000000,I2C,0x00 + ACK
1.080677250000000,I2C,Setup Read to [0x3A] + ACK
1.080709750000000,I2C,0x69 + ACK
1.080741250000000,I2C,0x09 + NAK
1.081567500000000,I2C,Setup Write to [0x3A] + ACK
1.081600000000000,I2C,0x00 + ACK
1.082324250000000,I2C,Setup Read to [0x3A] + ACK
1.082356000000000,I2C,0x69 + ACK
1.082387000000000,I2C,0x09 + NAK
1.083208750000000,I2C,Setup Write to [0x3A] + ACK
1.083242250000000,I2C,0x00 + ACK
1.083966500000000,I2C,Setup Read to [0x3A] + ACK
1.083998000000000,I2C,0x69 + ACK
1.084029000000000,I2C,0x09 + NAK
1.084853500000000,I2C,Setup Write to [0x3A] + ACK
1.084886500000000,I2C,0x03 + ACK
1.084918750000000,I2C,0x42 + ACK
1.088922000000000,I2C,Setup Write to [0x3A] + ACK
1.088955000000000,I2C,0x00 + ACK
1.089679250000000,I2C,Setup Read to [0x3A] + ACK
1.089711500000000,I2C,0x69 + ACK
1.089743250000000,I2C,0xD1 + NAK
1.090570000000000,I2C,Setup Write to [0x3A] + ACK
1.090602750000000,I2C,0x00 + ACK
1.091327500000000,I2C,Setup Read to [0x3A] + ACK
1.091360500000000,I2C,0x69 + ACK
1.091391750000000,I2C,0xD1 + NAK
1.092227000000000,I2C,Setup Write to [0x3A] + ACK
1.092259500000000,I2C,0x00 + ACK
1.092983500000000,I2C,Setup Read to [0x3A] + ACK
1.093015000000000,I2C,0x69 + ACK
1.093046000000000,I2C,0xD1 + NAK
1.093872250000000,I2C,Setup Write to [0x3A] + ACK
1.093905000000000,I2C,0x08 + ACK
1.093936750000000,I2C,0x40 + ACK
1.094925500000000,I2C,Setup Write to [0x3A] + ACK
1.094958500000000,I2C,0x09 + ACK
1.094990250000000,I2C,0x40 + ACK
1.095925750000000,I2C,Setup Write to [0x3A] + ACK
1.095958750000000,I2C,0x03 + ACK
1.095990500000000,I2C,0x40 + ACK
1.096931750000000,I2C,Setup Write to [0x3A] + ACK
1.096964500000000,I2C,0x07 + ACK
1.096996750000000,I2C,0x68 + ACK
1.097928500000000,I2C,Setup Write to [0x3A] + ACK
1.097961250000000,I2C,0x18 + ACK
1.097993250000000,I2C,0xA9 + ACK
1.098925500000000,I2C,Setup Write to [0x3A] + ACK
1.098958500000000,I2C,0x19 + ACK
1.098990250000000,I2C,0x03 + ACK
1.099926750000000,I2C,Setup Write to [0x3A] + ACK
1.099959250000000,I2C,0x19 + ACK
1.099991250000000,I2C,0x0B + ACK
1.100932250000000,I2C,Setup Write to [0x3A] + ACK
1.100965250000000,I2C,0x05 + ACK
1.100997000000000,I2C,0xFF + ACK
1.101932000000000,I2C,Setup Write to [0x3A] + ACK
1.101964750000000,I2C,0x19 + ACK
1.101996500000000,I2C,0x8B + ACK
1.102929500000000,I2C,Setup Write to [0x3A] + ACK
1.102962500000000,I2C,0x01 + ACK
1.102994250000000,I2C,0x45 + ACK
1.103928250000000,I2C,Setup Write to [0x3A] + ACK
1.103960750000000,I2C,0x02 + ACK
1.103992750000000,I2C,0x4A + ACK
1.104928250000000,I2C,Setup Write to [0x3A] + ACK
1.104961000000000,I2C,0x08 + ACK
1.104992750000000,I2C,0x40 + ACK
1.105929250000000,I2C,Setup Write to [0x3A] + ACK
1.105962000000000,I2C,0x09 + ACK
1.105994000000000,I2C,0x40 + ACK
1.106931500000000,I2C,Setup Write to [0x3A] + ACK
1.106964000000000,I2C,0x03 + ACK
1.106996000000000,I2C,0x40 + ACK
1.107932500000000,I2C,Setup Write to [0x3A] + ACK
1.107965250000000,I2C,0x01 + ACK
1.107997250000000,I2C,0x45 + ACK
1.108931250000000,I2C,Setup Write to [0x3A] + ACK
1.108964000000000,I2C,0x1E + ACK
1.108996000000000,I2C,0xAE + ACK
1.109932250000000,I2C,Setup Write to [0x3A] + ACK
1.109965000000000,I2C,0x11 + ACK
1.109997250000000,I2C,0x02 + ACK
1.110932000000000,I2C,Setup Write to [0x3A] + ACK
1.110964750000000,I2C,0x12 + ACK
1.110996750000000,I2C,0x7A + ACK
1.111935250000000,I2C,Setup Write to [0x3A] + ACK
1.111968000000000,I2C,0x0F + ACK
1.112000000000000,I2C,0x9C + ACK
1.112934750000000,I2C,Setup Write to [0x3A] + ACK
1.112967500000000,I2C,0x10 + ACK
1.112999250000000,I2C,0x33 + ACK
1.113932500000000,I2C,Setup Write to [0x3A] + ACK
1.113965250000000,I2C,0x17 + ACK
1.113997000000000,I2C,0x28 + ACK
1.114950500000000,I2C,Setup Write to [0x3A] + ACK
1.114983500000000,I2C,0x1D + ACK
1.115015500000000,I2C,0x32 + ACK
1.115936000000000,I2C,Setup Write to [0x3A] + ACK
1.115968750000000,I2C,0x13 + ACK
1.116000750000000,I2C,0x38 + ACK
1.116939000000000,I2C,Setup Write to [0x3A] + ACK
1.116971750000000,I2C,0x10 + ACK
1.117004000000000,I2C,0x33 + ACK
1.117939500000000,I2C,Setup Write to [0x3A] + ACK
1.117972250000000,I2C,0x10 + ACK
1.118004250000000,I2C,0x93 + ACK
1.118935500000000,I2C,Setup Write to [0x3A] + ACK
1.118968250000000,I2C,0x14 + ACK
1.119000250000000,I2C,0x0C + ACK
1.119934750000000,I2C,Setup Write to [0x3A] + ACK
1.119967500000000,I2C,0x12 + ACK
1.119999500000000,I2C,0x72 + ACK
1.120937000000000,I2C,Setup Write to [0x3A] + ACK
1.120969750000000,I2C,0x16 + ACK
1.121001500000000,I2C,0x5D + ACK
1.121938250000000,I2C,Setup Write to [0x3A] + ACK
1.121971250000000,I2C,0x15 + Missing ACK/NAK
1.122003000000000,I2C,Setup Write to [0x5B] + ACK
1.132940000000000,I2C,Setup Write to [0x3A] + ACK
1.132973000000000,I2C,0x00 + ACK
1.133697500000000,I2C,Setup Read to [0x3A] + ACK
1.133730500000000,I2C,0x69 + ACK
1.133762250000000,I2C,0xA5 + ACK
1.133793750000000,I2C,0x72 + NAK
1.134622250000000,I2C,Setup Write to [0x3A] + ACK
1.134655250000000,I2C,0x00 + ACK
1.135379750000000,I2C,Setup Read to [0x3A] + ACK
1.135430500000000,I2C,Setup Write to [0x2A] + NAK
1.135461500000000,I2C,0x4E + ACK
1.136298000000000,I2C,Setup Write to [0x3A] + ACK
1.136330500000000,I2C,0x00 + ACK
1.137054750000000,I2C,Setup Read to [0x3A] + ACK
1.137086250000000,I2C,0x69 + ACK
1.137117250000000,I2C,0xA5 + ACK
1.137148000000000,I2C,0x72 + NAK
1.137976250000000,I2C,Setup Write to [0x3A] + ACK
1.138008750000000,I2C,0x00 + ACK
1.138733250000000,I2C,Setup Read to [0x3A] + ACK
1.138765500000000,I2C,0x69 + ACK
1.138796250000000,I2C,0xA5 + ACK
1.138827250000000,I2C,0x72 + NAK
1.139652000000000,I2C,Setup Write to [0x3A] + ACK
1.139684500000000,I2C,0x1D + ACK
1.139716250000000,I2C,0xF2 + ACK
1.140943000000000,I2C,Setup Write to [0x3A] + ACK
1.140975750000000,I2C,0x01 + ACK
1.141008000000000,I2C,0x45 + ACK
1.144615500000000,I2C,Setup Write to [0x3A] + ACK
1.144648500000000,I2C,0x1E + ACK
1.144680750000000,I2C,0xAE + ACK
1.145945500000000,I2C,Setup Write to [0x3A] + ACK
1.145978250000000,I2C,0x00 + ACK
1.146010250000000,I2C,0x00 + ACK
1.146949500000000,I2C,Setup Write to [0x3A] + ACK
1.146982250000000,I2C,0x0C + ACK
1.147014250000000,I2C,0x3B + ACK
1.160952250000000,I2C,Setup Write to [0x3A] + ACK
1.160985250000000,I2C,0x00 + ACK
1.161709500000000,I2C,Setup Read to [0x3A] + ACK
1.161742750000000,I2C,0x69 + ACK
1.162603000000000,I2C,Setup Write to [0x3A] + ACK
1.162635750000000,I2C,0x00 + ACK
1.163359750000000,I2C,Setup Read to [0x3A] + ACK
1.163391750000000,I2C,0x69 + ACK
1.163422750000000,I2C,0xD9 + NAK
1.164245000000000,I2C,Setup Write to [0x3A] + ACK
1.164278500000000,I2C,0x00 + ACK
1.165002500000000,I2C,Setup Read to [0x3A] + ACK
1.165034250000000,I2C,0x69 + ACK
1.165890250000000,I2C,Setup Write to [0x3A] + ACK
1.165923000000000,I2C,0x0C + ACK
1.165955250000000,I2C,0x3C + ACK
1.179959750000000,I2C,Setup Write to [0x3A] + ACK
1.179993000000000,I2C,0x00 + ACK
1.180717000000000,I2C,Setup Read to [0x3A] + ACK
1.180750000000000,I2C,0x69 + ACK
1.180782000000000,I2C,0x39 + NAK
1.181610250000000,I2C,Setup Write to [0x3A] + ACK
1.181642750000000,I2C,0x00 + ACK
1.182367250000000,I2C,Setup Read to [0x3A] + ACK
1.182399000000000,I2C,0x69 + ACK
1.182430000000000,I2C,0x39 + NAK
1.183251750000000,I2C,Setup Write to [0x3A] + ACK
1.183285000000000,I2C,0x00 + ACK
1.184009000000000,I2C,Setup Read to [0x3A] + ACK
1.184040750000000,I2C,0x69 + ACK
1.184071500000000,I2C,0x39 + NAK
1.184896750000000,I2C,Setup Write to [0x3A] + ACK
1.184929250000000,I2C,0x0C + ACK
1.184961250000000,I2C,0x3D + ACK
1.198964750000000,I2C,Setup Write to [0x3A] + ACK
1.198997500000000,I2C,0x00 + ACK
1.199721750000000,I2C,Setup Read to [0x3A] + ACK
1.199754250000000,I2C,0x69 + ACK
1.199786250000000,I2C,0xF9 + NAK
1.200613250000000,I2C,Setup Write to [0x3A] + ACK
1.200645750000000,I2C,0x00 + ACK
1.201370250000000,I2C,0x75 + Missing ACK/NAK
1.201402000000000,I2C,Setup Read to [0x34] + ACK
1.201433000000000,I2C,0xF9 + NAK
1.202255250000000,I2C,Setup Write to [0x3A] + ACK
1.202287750000000,I2C,0x00 + ACK
1.203012250000000,I2C,Setup Read to [0x3A] + ACK
1.203043750000000,I2C,0x69 + ACK
1.203074750000000,I2C,0xF9 + NAK
1.203899500000000,I2C,Setup Write to [0x3A] + ACK
1.203932000000000,I2C,0x0C + ACK
1.203964250000000,I2C,0x3E + ACK
1.217979000000000,I2C,Setup Write to [0x3A] + ACK
1.218012000000000,I2C,0x00 + ACK
1.218736250000000,I2C,Setup Read to [0x3A] + ACK
1.218768750000000,I2C,0x69 + ACK
1.218801000000000,I2C,0x85 + NAK
1.219629250000000,I2C,Setup Write to [0x3A] + ACK
1.219662250000000,I2C,0x00 + ACK
1.220386250000000,I2C,Setup Read to [0x3A] + ACK
1.220418500000000,I2C,0x69 + ACK
1.220449750000000,I2C,0x85 + NAK
1.221279750000000,I2C,Setup Write to [0x3A] + ACK
1.221312250000000,I2C,0x00 + ACK
1.222036250000000,I2C,Setup Read to [0x3A] + ACK
1.222068000000000,I2C,0x69 + ACK
1.222099000000000,I2C,0x85 + NAK
1.222923250000000,I2C,Setup Write to [0x3A] + ACK
1.222955750000000,I2C,0x0C + ACK
1.222988250000000,I2C,0x3F + ACK
1.236982500000000,I2C,Setup Write to [0x3A] + ACK
1.237015750000000,I2C,0x00 + ACK
1.237740000000000,I2C,Setup Read to [0x3A] + ACK
1.237772500000000,I2C,0x69 + ACK
1.237805000000000,I2C,0xA5 + NAK
1.238633250000000,I2C,Setup Write to [0x3A] + ACK
1.238665750000000,I2C,0x00 + ACK
1.239390000000000,I2C,Setup Read to [0x3A] + ACK
1.239422000000000,I2C,0x69 + ACK
1.239452750000000,I2C,0xA5 + NAK
1.240279000000000,I2C,Setup Write to [0x3A] + ACK
1.240312000000000,I2C,0x00 + ACK
1.241036250000000,I2C,Setup Read to [0x3A] + ACK
1.241067750000000,I2C,0x69 + ACK
1.241098750000000,I2C,0xA5 + NAK
1.241924500000000,I2C,Setup Write to [0x3A] + ACK
1.241957000000000,I2C,0x08 + ACK
1.241989500000000,I2C,0x60 + ACK
1.242981750000000,I2C,Setup Write to [0x3A] + ACK
1.243014500000000,I2C,0x09 + ACK
1.243046250000000,I2C,0x40 + ACK
1.246985500000000,I2C,Setup Write to [0x3A] + ACK
1.247018500000000,I2C,0x00 + ACK
1.247742750000000,I2C,0x75 + Missing ACK/NAK
1.247794250000000,I2C,Setup Write to [0x2A] + NAK
1.248633500000000,I2C,Setup Write to [0x3A] + ACK
1.248666000000000,I2C,0x00 + ACK
1.249390250000000,I2C,Setup Read to [0x3A] + ACK
1.249422000000000,I2C,0x69 + ACK
1.249453000000000,I2C,0xA5 + NAK
1.250275500000000,I2C,Setup Write to [0x3A] + ACK
1.250308750000000,I2C,0x00 + ACK
1.251032750000000,I2C,Setup Read to [0x3A] + ACK
1.251064500000000,I2C,0x69 + ACK
1.251095250000000,I2C,0xA5 + NAK
1.252074250000000,I2C,Setup Write to [0x3A] + ACK
1.252106750000000,I2C,0x08 + ACK
1.252139000000000,I2C,0x60 + ACK
1.252990000000000,I2C,Setup Write to [0x3A] + ACK
1.253022500000000,I2C,0x09 + ACK
1.253054500000000,I2C,0x41 + ACK
1.256988000000000,I2C,Setup Write to [0x3A] + ACK
1.257020750000000,I2C,0x00 + ACK
1.257745000000000,I2C,Setup Read to [0x3A] + ACK
1.257777500000000,I2C,0x69 + ACK
1.257809500000000,I2C,0x15 + NAK
1.258635750000000,I2C,Setup Write to [0x3A] + ACK
1.258668250000000,I2C,0x00 + ACK
1.259392500000000,I2C,Setup Read to [0x3A] + ACK
1.259424500000000,I2C,0x69 + ACK
1.259455250000000,I2C,0x15 + NAK
1.260277000000000,I2C,Setup Write to [0x3A] + ACK
1.260309250000000,I2C,0x00 + ACK
1.261033500000000,I2C,Setup Read to [0x3A] + ACK
1.261065000000000,I2C,0x69 + ACK
1.261096000000000,I2C,0x15 + NAK
1.261920250000000,I2C,Setup Write to [0x3A] + ACK
1.261952750000000,I2C,0x08 + ACK
1.261984500000000,I2C,0x60 + ACK
1.262988250000000,I2C,Setup Write to [0x3A] + ACK
1.263021000000000,I2C,0x09 + ACK
1.263053000000000,I2C,0x61 + ACK
1.266992500000000,I2C,Setup Write to [0x3A] + ACK
1.267025250000000,I2C,0x00 + ACK
1.267749500000000,I2C,Setup Read to [0x3A] + ACK
1.267782000000000,I2C,0x69 + ACK
1.267814250000000,I2C,0x95 + NAK
1.268641000000000,I2C,Setup Write to [0x3A] + ACK
1.268673500000000,I2C,0x00 + ACK
1.269398000000000,I2C,Setup Read to [0x3A] + ACK
1.269429750000000,I2C,0x69 + ACK
1.269460750000000,I2C,0x15 + NAK
1.270282500000000,I2C,Setup Write to [0x3A] + ACK
1.270316000000000,I2C,0x00 + ACK
1.271040250000000,I2C,Setup Read to [0x3A] + ACK
1.271090750000000,I2C,Setup Write to [0x29] + NAK
1.271928500000000,I2C,Setup Write to [0x3A] + ACK
1.271961250000000,I2C,0x08 + ACK
1.271993500000000,I2C,0x61 + ACK
1.272993000000000,I2C,Setup Write to [0x3A] + ACK
1.273025750000000,I2C,0x09 + Missing ACK/NAK
1.273057750000000,I2C,Setup Write to [0x20] + ACK
1.276995250000000,I2C,Setup Write to [0x3A] + ACK
1.277028000000000,I2C,0x00 + ACK
1.277752250000000,I2C,Setup Read to [0x3A] + ACK
1.277785000000000,I2C,0x69 + ACK
1.277816250000000,I2C,0xA9 + NAK
1.278643250000000,I2C,Setup Write to [0x3A] + ACK
1.278676000000000,I2C,0x00 + ACK
1.279400000000000,I2C,Setup Read to [0x3A] + ACK
1.279432000000000,I2C,0x69 + ACK
1.279463000000000,I2C,0xA9 + NAK
1.280284750000000,I2C,Setup Write to [0x3A] + ACK
1.280317000000000,I2C,0x00 + ACK
1.281041500000000,I2C,Setup Read to [0x3A] + ACK
1.281073000000000,I2C,0x69 + ACK
1.281103750000000,I2C,0xA9 + NAK
1.281928000000000,I2C,Setup Write to [0x3A] + ACK
1.281960500000000,I2C,0x08 + ACK
1.281992500000000,I2C,0x61 + ACK
1.282996000000000,I2C,Setup Write to [0x3A] + ACK
1.283028500000000,I2C,0x09 + ACK
1.283060500000000,I2C,0x41 + ACK
1.287000500000000,I2C,Setup Write to [0x3A] + ACK
1.287033500000000,I2C,0x00 + ACK
1.287757500000000,I2C,Setup Read to [0x3A] + ACK
1.287809000000000,I2C,Setup Read to [0x23] + ACK
1.288648750000000,I2C,Setup Write to [0x3A] + ACK
1.288681250000000,I2C,0x00 + ACK
1.289405500000000,I2C,Setup Read to [0x3A] + ACK
1.289437500000000,I2C,0x69 + ACK
1.289468250000000,I2C,0x39 + NAK
1.290290250000000,I2C,Setup Write to [0x3A] + ACK
1.290323500000000,I2C,0x00 + ACK
1.291047750000000,I2C,Setup Read to [0x3A] + ACK
1.291079500000000,I2C,0x69 + ACK
1.291110250000000,I2C,0x39 + NAK
1.291933750000000,I2C,Setup Write to [0x3A] + ACK
1.291966500000000,I2C,0x08 + ACK
1.291998750000000,I2C,0x61 + ACK
1.292999500000000,I2C,Setup Write to [0x3A] + ACK
1.293032250000000,I2C,0x09 + Missing ACK/NAK
1.293064250000000,I2C,Setup Read to [0x30] + ACK
1.297004750000000,I2C,Setup Write to [0x3A] + ACK
1.297037750000000,I2C,0x00 + ACK
1.297762000000000,I2C,Setup Read to [0x3A] + ACK
1.297794500000000,I2C,0x69 + ACK
1.297826750000000,I2C,0xB9 + NAK
1.298654500000000,I2C,Setup Write to [0x3A] + ACK
1.298687250000000,I2C,0x00 + ACK
1.299411500000000,I2C,Setup Read to [0x3A] + ACK
1.299465500000000,I2C,Setup Write to [0x5F] + ACK
1.300296500000000,I2C,Setup Write to [0x3A] + ACK
1.300329750000000,I2C,0x00 + ACK
1.301054000000000,I2C,Setup Read to [0x3A] + ACK
1.301085750000000,I2C,0x69 + ACK
1.301116750000000,I2C,0xB9 + NAK
1.301942500000000,I2C,Setup Write to [0x3A] + ACK
1.301975000000000,I2C,0x08 + ACK
1.302007000000000,I2C,0x62 + ACK
1.303004250000000,I2C,Setup Write to [0x3A] + ACK
1.303037000000000,I2C,0x09 + ACK
1.303069000000000,I2C,0x40 + ACK
1.307007500000000,I2C,Setup Write to [0x3A] + ACK
1.307040500000000,I2C,0x00 + ACK
1.307764750000000,I2C,0x75 + Missing ACK/NAK
1.307797250000000,I2C,Setup Read to [0x34] + ACK
1.307829250000000,I2C,0x91 + NAK
1.308655750000000,I2C,Setup Write to [0x3A] + ACK
1.308688250000000,I2C,0x00 + ACK
1.309412500000000,I2C,Setup Read to [0x3A] + ACK
1.309444250000000,I2C,0x69 + ACK
1.309475250000000,I2C,0x91 + NAK
1.310297500000000,I2C,Setup Write to [0x3A] + ACK
1.310329500000000,I2C,0x00 + ACK
1.311053750000000,I2C,0x75 + Missing ACK/NAK
1.311107500000000,I2C,Setup Write to [0x52] + ACK
1.311939750000000,I2C,Setup Write to [0x3A] + ACK
1.311972500000000,I2C,0x08 + ACK
1.312004750000000,I2C,0x62 + ACK
1.313008250000000,I2C,Setup Write to [0x3A] + ACK
1.313041000000000,I2C,0x09 + Missing ACK/NAK
1.313072750000000,I2C,Setup Read to [0x20] + ACK
1.317010750000000,I2C,Setup Write to [0x3A] + ACK
1.317043500000000,I2C,0x00 + ACK
1.317768250000000,I2C,Setup Read to [0x3A] + ACK
1.317800750000000,I2C,0x69 + ACK
1.317832250000000,I2C,0x29 + NAK
1.318662000000000,I2C,Setup Write to [0x3A] + ACK
1.318694500000000,I2C,0x00 + ACK
1.319418750000000,I2C,0x75 + Missing ACK/NAK
1.319450750000000,I2C,Setup Read to [0x34] + ACK
1.319481500000000,I2C,0x29 + NAK
1.320303250000000,I2C,Setup Write to [0x3A] + ACK
1.320336500000000,I2C,0x00 + ACK
1.321060750000000,I2C,Setup Read to [0x3A] + ACK
1.321092250000000,I2C,0x69 + ACK
1.321123250000000,I2C,0x29 + NAK
1.321948250000000,I2C,Setup Write to [0x3A] + ACK
1.321981000000000,I2C,0x08 + ACK
1.322012750000000,I2C,0x62 + ACK
1.323011000000000,I2C,Setup Write to [0x3A] + ACK
1.323043750000000,I2C,0x09 + ACK
1.323075750000000,I2C,0x61 + ACK
1.327016000000000,I2C,Setup Write to [0x3A] + ACK
1.327049000000000,I2C,0x00 + ACK
1.327773250000000,I2C,0x75 + Missing ACK/NAK
1.327824750000000,I2C,Setup Read to [0x21] + ACK
1.328664250000000,I2C,Setup Write to [0x3A] + ACK
1.328696750000000,I2C,0x00 + ACK
1.329421000000000,I2C,Setup Read to [0x3A] + ACK
1.329452750000000,I2C,0x69 + ACK
1.329483750000000,I2C,0x19 + NAK
1.330305750000000,I2C,Setup Write to [0x3A] + ACK
1.330338000000000,I2C,0x00 + ACK
1.331062250000000,I2C,Setup Read to [0x3A] + ACK
1.331112750000000,I2C,Setup Read to [0x21] + ACK
1.331950750000000,I2C,Setup Write to [0x3A] + ACK
1.331983250000000,I2C,0x08 + ACK
1.332015500000000,I2C,0x62 + ACK
1.333015750000000,I2C,Setup Write to [0x3A] + ACK
1.333048250000000,I2C,0x09 + ACK
1.333080250000000,I2C,0x40 + ACK
1.334016250000000,I2C,Setup Write to [0x3A] + ACK
1.334048750000000,I2C,0x03 + ACK
1.334080750000000,I2C,0x40 + ACK
1.338016250000000,I2C,Setup Write to [0x3A] + ACK
1.338049250000000,I2C,0x00 + ACK
1.338773500000000,I2C,Setup Read to [0x3A] + ACK
1.338806250000000,I2C,0x69 + ACK
1.338837750000000,I2C,0x91 + NAK
1.339664500000000,I2C,Setup Write to [0x3A] + ACK
1.339697000000000,I2C,0x00 + ACK
1.340421250000000,I2C,Setup Read to [0x3A] + ACK
1.340453250000000,I2C,0x69 + ACK
1.340484000000000,I2C,0x91 + NAK
1.341306000000000,I2C,Setup Write to [0x3A] + ACK
1.341338500000000,I2C,0x00 + ACK
1.342062750000000,I2C,0x75 + Missing ACK/NAK
1.342116500000000,I2C,Setup Write to [0x52] + ACK
1.342950000000000,I2C,Setup Write to [0x3A] + ACK
1.342982750000000,I2C,0x03 + ACK
1.343014500000000,I2C,0x41 + ACK
1.347022250000000,I2C,Setup Write to [0x3A] + ACK
1.347055000000000,I2C,0x00 + ACK
1.347779250000000,I2C,Setup Read to [0x3A] + ACK
1.347811750000000,I2C,0x69 + ACK
1.347843250000000,I2C,0x31 + NAK
1.348670500000000,I2C,Setup Write to [0x3A] + ACK
1.348703000000000,I2C,0x00 + ACK
1.349427250000000,I2C,Setup Read to [0x3A] + ACK
1.349459250000000,I2C,0x69 + ACK
1.349490000000000,I2C,0x31 + NAK
1.350312000000000,I2C,Setup Write to [0x3A] + ACK
1.350344250000000,I2C,0x00 + ACK
1.351068500000000,I2C,Setup Read to [0x3A] + ACK
1.351955500000000,I2C,Setup Write to [0x3A] + ACK
1.351988250000000,I2C,0x03 + ACK
1.352020500000000,I2C,0x42 + ACK
1.356026250000000,I2C,Setup Write to [0x3A] + ACK
1.356059250000000,I2C,0x00 + ACK
1.356783500000000,I2C,Setup Read to [0x3A] + ACK
1.357675250000000,I2C,Setup Write to [0x3A] + ACK
1.357707750000000,I2C,0x00 + ACK
1.358432250000000,I2C,Setup Read to [0x3A] + ACK
1.358464000000000,I2C,0x69 + ACK
1.358495000000000,I2C,0x91 + NAK
1.359317250000000,I2C,Setup Write to [0x3A] + ACK
1.359350500000000,I2C,0x00 + ACK
1.360074750000000,I2C,Setup Read to [0x3A] + ACK
1.360968000000000,I2C,Setup Write to [0x3A] + ACK
1.361000500000000,I2C,0x07 + Missing ACK/NAK
1.361032750000000,I2C,Setup Write to [0x33] + ACK
1.362027500000000,I2C,Setup Write to [0x3A] + ACK
1.362060000000000,I2C,0x18 + ACK
1.362092000000000,I2C,0x29 + Missing ACK/NAK
1.363027500000000,I2C,Setup Write to [0x3A] + ACK
1.363060250000000,I2C,0x19 + ACK
1.363092250000000,I2C,0x8A + ACK
1.364026250000000,I2C,Setup Write to [0x3A] + ACK
1.364059250000000,I2C,0x19 + ACK
1.364091250000000,I2C,0x82 + ACK
1.365036500000000,I2C,Setup Write to [0x3A] + ACK
1.365069500000000,I2C,0x05 + ACK
1.365101500000000,I2C,0xDF + ACK
1.366031750000000,I2C,Setup Write to [0x3A] + ACK
1.366064500000000,I2C,0x19 + ACK
1.366096750000000,I2C,0x42 + ACK
1.367030250000000,I2C,Setup Write to [0x3A] + ACK
1.367063000000000,I2C,0x01 + ACK
1.367094750000000,I2C,0x0D + ACK
1.368029750000000,I2C,Setup Write to [0x3A] + ACK
1.368062250000000,I2C,0x02 + ACK
1.368094250000000,I2C,0x40 + ACK
1.369028500000000,I2C,Setup Write to [0x3A] + ACK
1.369061000000000,I2C,0x08 + ACK
1.369093000000000,I2C,0x40 + ACK
1.370028750000000,I2C,Setup Write to [0x3A] + ACK
1.370061250000000,I2C,0x09 + ACK
1.370093250000000,I2C,0x40 + ACK
1.371029250000000,I2C,Setup Write to [0x3A] + ACK
1.371061750000000,I2C,0x03 + ACK
1.371093750000000,I2C,0x40 + ACK
1.372033250000000,I2C,Setup Write to [0x3A] + ACK
1.372066000000000,I2C,0x01 + ACK
1.372097750000000,I2C,0x0D + ACK
1.373032250000000,I2C,Setup Write to [0x3A] + ACK
1.373065000000000,I2C,0x1E + ACK
1.373097000000000,I2C,0xAE + ACK
1.374032250000000,I2C,Setup Write to [0x3A] + ACK
1.374065000000000,I2C,0x11 + ACK
1.374097250000000,I2C,0x02 + ACK
1.375032250000000,I2C,Setup Write to [0x3A] + ACK
1.375065000000000,I2C,0x12 + ACK
1.375097250000000,I2C,0x72 + ACK
1.376033500000000,I2C,Setup Write to [0x3A] + ACK
1.376066500000000,I2C,0x0F + ACK
1.376098500000000,I2C,0x9C + ACK
1.377035500000000,I2C,Setup Write to [0x3A] + ACK
1.377068250000000,I2C,0x10 + ACK
1.377100250000000,I2C,0x93 + ACK
1.378033500000000,I2C,Setup Write to [0x3A] + ACK
1.378066000000000,I2C,0x17 + ACK
1.378098000000000,I2C,0x28 + ACK
1.379032500000000,I2C,Setup Write to [0x3A] + ACK
1.379065250000000,I2C,0x1D + ACK
1.379097250000000,I2C,0x32 + ACK
1.380034500000000,I2C,Setup Write to [0x3A] + ACK
1.380067250000000,I2C,0x13 + ACK
1.380099000000000,I2C,0x38 + ACK
1.381034250000000,I2C,Setup Write to [0x3A] + ACK
1.381067250000000,I2C,0x10 + ACK
1.381099000000000,I2C,0x93 + ACK
1.382036500000000,I2C,Setup Write to [0x3A] + ACK
1.382069000000000,I2C,0x10 + ACK
1.382101000000000,I2C,0x73 + Missing ACK/NAK
1.383036750000000,I2C,Setup Write to [0x3A] + ACK
1.383069500000000,I2C,0x14 + ACK
1.383101500000000,I2C,0x15 + ACK
1.384034750000000,I2C,Setup Write to [0x3A] + ACK
1.384067750000000,I2C,0x12 + ACK
1.384099500000000,I2C,0x72 + ACK
1.385044000000000,I2C,Setup Write to [0x3A] + ACK
1.385077000000000,I2C,0x16 + ACK
1.385108750000000,I2C,0x59 + ACK
1.386038250000000,I2C,Setup Write to [0x3A] + ACK
1.386071000000000,I2C,0x15 + Missing ACK/NAK
1.386103250000000,I2C,Setup Write to [0x4F] + ACK
1.397040750000000,I2C,Setup Write to [0x3A] + ACK
1.397073750000000,I2C,0x00 + ACK
1.397798250000000,I2C,Setup Read to [0x3A] + ACK
1.397831250000000,I2C,0x69 + ACK
1.397862750000000,I2C,0xA5 + ACK
1.397894000000000,I2C,0xAE + NAK
1.398722750000000,I2C,Setup Write to [0x3A] + ACK
1.398755250000000,I2C,0x00 + ACK
1.399479500000000,I2C,0x75 + Missing ACK/NAK
1.399514500000000,I2C,Setup Write to [0x69] + NAK
1.399545500000000,I2C,0x4A + NAK
1.399576250000000,I2C,0x5D + Missing ACK/NAK
1.400398000000000,I2C,Setup Write to [0x3A] + ACK
1.400430750000000,I2C,0x00 + ACK
1.401154500000000,I2C,Setup Read to [0x3A] + ACK
1.401186250000000,I2C,0x69 + ACK
1.402076750000000,I2C,Setup Write to [0x3A] + ACK
1.402109500000000,I2C,0x00 + ACK
1.402834000000000,I2C,Setup Read to [0x3A] + ACK
1.402866000000000,I2C,0x69 + ACK
1.402896750000000,I2C,0xA5 + ACK
1.402927500000000,I2C,0xAE + NAK
1.403752500000000,I2C,Setup Write to [0x3A] + ACK
1.403785000000000,I2C,0x1D + ACK
1.403817000000000,I2C,0xF2 + ACK
1.405041500000000,I2C,Setup Write to [0x3A] + ACK
1.405074250000000,I2C,0x01 + ACK
1.405106250000000,I2C,0x0D + ACK
1.406045250000000,I2C,Setup Write to [0x3A] + ACK
1.406077750000000,I2C,0x1E + ACK
1.406110000000000,I2C,0xAE + ACK
1.407046250000000,I2C,Setup Write to [0x3A] + ACK
1.407079250000000,I2C,0x00 + ACK
1.407111000000000,I2C,0x0D + ACK
1.408045500000000,I2C,Setup Write to [0x3A] + ACK
1.408078250000000,I2C,0x0C + ACK
1.408110250000000,I2C,0x3B + ACK
1.422050250000000,I2C,Setup Write to [0x3A] + ACK
1.422083250000000,I2C,0x00 + ACK
1.422807750000000,I2C,Setup Read to [0x3A] + ACK
1.422841000000000,I2C,0x69 + ACK
1.422873500000000,I2C,0xD9 + NAK
1.423701750000000,I2C,Setup Write to [0x3A] + ACK
1.423734250000000,I2C,0x00 + ACK
1.424458500000000,I2C,Setup Read to [0x3A] + ACK
1.424490250000000,I2C,0x69 + ACK
1.425343250000000,I2C,Setup Write to [0x3A] + ACK
1.425376250000000,I2C,0x00 + ACK
1.426100500000000,I2C,Setup Read to [0x3A] + ACK
1.426132000000000,I2C,0x69 + ACK
1.426163000000000,I2C,0xD9 + NAK
1.426987750000000,I2C,Setup Write to [0x3A] + ACK
1.427020500000000,I2C,0x0C + ACK
1.427052250000000,I2C,0x3C + ACK
1.441057000000000,I2C,Setup Write to [0x3A] + ACK
1.441090000000000,I2C,0x00 + ACK
1.441814250000000,I2C,Setup Read to [0x3A] + ACK
1.441846500000000,I2C,0x69 + ACK
1.441878500000000,I2C,0x39 + NAK
1.442706000000000,I2C,Setup Write to [0x3A] + ACK
1.442738500000000,I2C,0x00 + ACK
1.443462500000000,I2C,Setup Read to [0x3A] + ACK
1.443494500000000,I2C,0x69 + ACK
1.443525250000000,I2C,0x39 + NAK
1.444347250000000,I2C,Setup Write to [0x3A] + ACK
1.444380500000000,I2C,0x00 + ACK
1.445104750000000,I2C,Setup Read to [0x3A] + ACK
1.445136500000000,I2C,0x69 + ACK
1.445168000000000,I2C,0x39 + NAK
1.445999000000000,I2C,Setup Write to [0x3A] + ACK
1.446031500000000,I2C,0x0C + ACK
1.446063500000000,I2C,0x3D + ACK
1.460064250000000,I2C,Setup Write to [0x3A] + ACK
1.460097250000000,I2C,0x00 + ACK
1.460821250000000,I2C,Setup Read to [0x3A] + ACK
1.460853750000000,I2C,0x69 + ACK
1.460885750000000,I2C,0xF9 + NAK
1.461712750000000,I2C,Setup Write to [0x3A] + ACK
1.461745250000000,I2C,0x00 + ACK
1.462469500000000,I2C,Setup Read to [0x3A] + ACK
1.462501250000000,I2C,0x69 + ACK
1.462532250000000,I2C,0xF9 + NAK
1.463354250000000,I2C,Setup Write to [0x3A] + ACK
1.463386500000000,I2C,0x00 + ACK
1.464110750000000,I2C,Setup Read to [0x3A] + ACK
1.464161250000000,I2C,Setup Read to [0x2F] + ACK
1.464997750000000,I2C,Setup Write to [0x3A] + ACK
1.465030250000000,I2C,0x0C + ACK
1.465062500000000,I2C,0x3E + ACK
1.479075500000000,I2C,Setup Write to [0x3A] + ACK
1.479109250000000,I2C,0x00 + ACK
1.479833500000000,I2C,Setup Read to [0x3A] + ACK
1.479865750000000,I2C,0x69 + ACK
1.479898250000000,I2C,0x85 + NAK
1.480727000000000,I2C,Setup Write to [0x3A] + ACK
1.480759750000000,I2C,0x00 + ACK
1.481483750000000,I2C,Setup Read to [0x3A] + ACK
1.481515750000000,I2C,0x69 + ACK
1.481546500000000,I2C,0x45 + NAK
1.482372000000000,I2C,Setup Write to [0x3A] + ACK
1.482404500000000,I2C,0x00 + ACK
1.483128500000000,I2C,Setup Read to [0x3A] + ACK
1.483160000000000,I2C,0x69 + ACK
1.483191000000000,I2C,0x85 + NAK
1.484016500000000,I2C,Setup Write to [0x3A] + ACK
1.484049000000000,I2C,0x0C + ACK
1.484081250000000,I2C,0x3F + ACK
1.498078250000000,I2C,Setup Write to [0x3A] + ACK
1.498111250000000,I2C,0x00 + ACK
1.498835500000000,I2C,Setup Read to [0x3A] + ACK
1.499728250000000,I2C,Setup Write to [0x3A] + ACK
1.499761000000000,I2C,0x00 + ACK
1.500485500000000,I2C,Setup Read to [0x3A] + ACK
1.500517250000000,I2C,0x69 + ACK
1.500548000000000,I2C,0xA5 + NAK
1.501370250000000,I2C,Setup Write to [0x3A] + ACK
1.501402250000000,I2C,0x00 + ACK
1.502126750000000,I2C,Setup Read to [0x3A] + ACK
1.502171000000000,I2C,Setup Read to [0x4A] + ACK
1.503014750000000,I2C,Setup Write to [0x3A] + ACK
1.503047250000000,I2C,0x08 + ACK
1.503079500000000,I2C,0x60 + ACK
1.504080250000000,I2C,Setup Write to [0x3A] + ACK
1.504113000000000,I2C,0x09 + ACK
1.504145000000000,I2C,0x40 + ACK
1.508082250000000,I2C,Setup Write to [0x3A] + ACK
1.508115250000000,I2C,0x00 + ACK
1.508839500000000,I2C,Setup Read to [0x3A] + ACK
1.508872000000000,I2C,0x69 + ACK
1.508904000000000,I2C,0xA5 + NAK
1.509730000000000,I2C,Setup Write to [0x3A] + ACK
1.509762500000000,I2C,0x00 + ACK
1.510487000000000,I2C,Setup Read to [0x3A] + ACK
1.511371500000000,I2C,Setup Write to [0x3A] + ACK
1.511404750000000,I2C,0x00 + ACK
1.512129250000000,I2C,Setup Read to [0x3A] + ACK
1.512160750000000,I2C,0x69 + ACK
1.512191750000000,I2C,0xA5 + NAK
1.513016000000000,I2C,Setup Write to [0x3A] + ACK
1.513048500000000,I2C,0x08 + ACK
1.513080750000000,I2C,0x60 + ACK
1.514085000000000,I2C,Setup Write to [0x3A] + ACK
1.514117750000000,I2C,0x09 + ACK
1.514149500000000,I2C,0x41 + ACK
1.518089000000000,I2C,Setup Write to [0x3A] + ACK
1.518121750000000,I2C,0x00 + ACK
1.518846000000000,I2C,Setup Read to [0x3A] + ACK
1.518878500000000,I2C,0x69 + ACK
1.518910000000000,I2C,0x95 + NAK
1.519736500000000,I2C,Setup Write to [0x3A] + ACK
1.519769000000000,I2C,0x00 + ACK
1.520493250000000,I2C,Setup Read to [0x3A] + ACK
1.520525250000000,I2C,0x69 + ACK
1.520556250000000,I2C,0x15 + NAK
1.521378250000000,I2C,Setup Write to [0x3A] + ACK
1.521411500000000,I2C,0x00 + ACK
1.522135750000000,I2C,Setup Read to [0x3A] + ACK
1.522186250000000,I2C,Setup Write to [0x21] + NAK
1.523022250000000,I2C,Setup Write to [0x3A] + ACK
1.523054750000000,I2C,0x08 + ACK
1.523086500000000,I2C,0x60 + ACK
1.524088000000000,I2C,Setup Write to [0x3A] + ACK
1.524121000000000,I2C,0x09 + ACK
1.524152750000000,I2C,0x61 + ACK
1.528090250000000,I2C,Setup Write to [0x3A] + ACK
1.528123250000000,I2C,0x00 + ACK
1.528847500000000,I2C,Setup Read to [0x3A] + ACK
1.528880000000000,I2C,0x69 + ACK
1.528912000000000,I2C,0x95 + NAK
1.529737750000000,I2C,Setup Write to [0x3A] + ACK
1.529770250000000,I2C,0x00 + ACK
1.530494500000000,I2C,Setup Read to [0x3A] + ACK
1.530548500000000,I2C,Setup Read to [0x52] + ACK
1.531379250000000,I2C,Setup Write to [0x3A] + ACK
1.531411500000000,I2C,0x00 + Missing ACK/NAK
1.532135750000000,I2C,Setup Read to [0x3A] + ACK
1.532167500000000,I2C,0x69 + ACK
1.532198250000000,I2C,0x95 + NAK
1.533025000000000,I2C,Setup Write to [0x3A] + ACK
1.533057750000000,I2C,0x08 + ACK
1.533090000000000,I2C,0x61 + ACK
1.534092250000000,I2C,Setup Write to [0x3A] + ACK
1.534125000000000,I2C,0x09 + ACK
1.534157000000000,I2C,0x40 + ACK
1.538094000000000,I2C,Setup Write to [0x3A] + ACK
1.538127250000000,I2C,0x00 + ACK
1.538851500000000,I2C,Setup Read to [0x3A] + ACK
1.538884000000000,I2C,0x69 + ACK
1.538916000000000,I2C,0x29 + NAK
1.539743000000000,I2C,Setup Write to [0x3A] + ACK
1.539775500000000,I2C,0x00 + ACK
1.540499750000000,I2C,Setup Read to [0x3A] + ACK
1.540531500000000,I2C,0x69 + ACK
1.540562500000000,I2C,0x29 + NAK
1.541385500000000,I2C,Setup Write to [0x3A] + ACK
1.541417750000000,I2C,0x00 + ACK
1.542142000000000,I2C,Setup Read to [0x3A] + ACK
1.542192500000000,I2C,Setup Read to [0x22] + ACK
1.543029000000000,I2C,Setup Write to [0x3A] + ACK
1.543061500000000,I2C,0x08 + ACK
1.543093250000000,I2C,0x61 + ACK
1.544095250000000,I2C,Setup Write to [0x3A] + ACK
1.544128000000000,I2C,0x09 + Missing ACK/NAK
1.544159750000000,I2C,Setup Read to [0x20] + ACK
1.548097500000000,I2C,Setup Write to [0x3A] + ACK
1.548130250000000,I2C,0x00 + ACK
1.548854500000000,I2C,Setup Read to [0x3A] + ACK
1.548887000000000,I2C,0x69 + ACK
1.548919000000000,I2C,0x39 + NAK
1.549744750000000,I2C,Setup Write to [0x3A] + ACK
1.549777250000000,I2C,0x00 + ACK
1.550501500000000,I2C,Setup Read to [0x3A] + ACK
1.550552250000000,I2C,Setup Read to [0x23] + ACK
1.551386000000000,I2C,Setup Write to [0x3A] + ACK
1.551419250000000,I2C,0x00 + ACK
1.552143750000000,I2C,Setup Read to [0x3A] + ACK
1.552175250000000,I2C,0x69 + ACK
1.552206250000000,I2C,0x39 + NAK
1.553029750000000,I2C,Setup Write to [0x3A] + ACK
1.553062250000000,I2C,0x08 + ACK
1.553094500000000,I2C,0x61 + ACK
1.554100000000000,I2C,Setup Write to [0x3A] + ACK
1.554132750000000,I2C,0x09 + ACK
1.554164750000000,I2C,0x61 + ACK
1.558099250000000,I2C,Setup Write to [0x3A] + ACK
1.558132000000000,I2C,0x00 + ACK
1.558856250000000,I2C,Setup Read to [0x3A] + ACK
1.558907750000000,I2C,Setup Read to [0x2B] + ACK
1.559747000000000,I2C,Setup Write to [0x3A] + ACK
1.559779500000000,I2C,0x00 + ACK
1.560503750000000,I2C,Setup Read to [0x3A] + ACK
1.560535750000000,I2C,0x69 + ACK
1.560566500000000,I2C,0xB9 + NAK
1.561388500000000,I2C,Setup Write to [0x3A] + ACK
1.561421250000000,I2C,0x00 + ACK
1.562145500000000,I2C,Setup Read to [0x3A] + ACK
1.562196000000000,I2C,0x5F + Missing ACK/NAK
1.563034000000000,I2C,Setup Write to [0x3A] + ACK
1.563066500000000,I2C,0x08 + ACK
1.563098250000000,I2C,0x62 + ACK
1.564104000000000,I2C,Setup Write to [0x3A] + ACK
1.564136750000000,I2C,0x09 + ACK
1.564168750000000,I2C,0x40 + ACK
1.568105000000000,I2C,Setup Write to [0x3A] + ACK
1.568138000000000,I2C,0x00 + ACK
1.568862250000000,I2C,Setup Read to [0x3A] + ACK
1.568894750000000,I2C,0x69 + ACK
1.568926750000000,I2C,0x91 + NAK
1.569752250000000,I2C,Setup Write to [0x3A] + ACK
1.569785000000000,I2C,0x00 + ACK
1.570509000000000,I2C,Setup Read to [0x3A] + ACK
1.570575000000000,I2C,0x23 + Missing ACK/NAK
1.571393500000000,I2C,Setup Write to [0x3A] + ACK
1.571425500000000,I2C,0x00 + ACK
1.572150000000000,I2C,Setup Read to [0x3A] + ACK
1.572181500000000,I2C,0x69 + ACK
1.572212500000000,I2C,0x91 + NAK
1.573036250000000,I2C,Setup Write to [0x3A] + ACK
1.573068750000000,I2C,0x08 + ACK
1.573101000000000,I2C,0x62 + ACK
1.574106750000000,I2C,Setup Write to [0x3A] + ACK
1.574139500000000,I2C,0x09 + ACK
1.574171500000000,I2C,0x41 + ACK
1.578106750000000,I2C,Setup Write to [0x3A] + ACK
1.578139500000000,I2C,0x00 + ACK
1.578863750000000,I2C,Setup Read to [0x3A] + ACK
1.578915250000000,I2C,Setup Read to [0x22] + ACK
1.579754500000000,I2C,Setup Write to [0x3A] + ACK
1.579787000000000,I2C,0x00 + ACK
1.580511250000000,I2C,Setup Read to [0x3A] + ACK
1.580543000000000,I2C,0x69 + ACK
1.580574000000000,I2C,0x29 + NAK
1.581395500000000,I2C,Setup Write to [0x3A] + ACK
1.581428250000000,I2C,0x00 + ACK
1.582152500000000,I2C,Setup Read to [0x3A] + ACK
1.582184000000000,I2C,0x69 + ACK
1.583038500000000,I2C,Setup Write to [0x3A] + ACK
1.583071000000000,I2C,0x08 + ACK
1.583103000000000,I2C,0x62 + ACK
1.584110750000000,I2C,Setup Write to [0x3A] + ACK
1.584143500000000,I2C,0x09 + ACK
1.584175500000000,I2C,0x61 + Missing ACK/NAK
1.588113000000000,I2C,Setup Write to [0x3A] + ACK
1.588145750000000,I2C,0x00 + ACK
1.588870000000000,I2C,Setup Read to [0x3A] + ACK
1.588902500000000,I2C,0x69 + ACK
1.588934500000000,I2C,0x19 + NAK
1.589760500000000,I2C,Setup Write to [0x3A] + ACK
1.589793250000000,I2C,0x00 + ACK
1.590517500000000,I2C,Setup Read to [0x3A] + ACK
1.590549500000000,I2C,0x69 + ACK
1.590583500000000,I2C,0x33 + Missing ACK/NAK
1.591402000000000,I2C,Setup Write to [0x3A] + ACK
1.591435250000000,I2C,0x00 + ACK
1.592159750000000,I2C,Setup Read to [0x3A] + ACK
1.592191250000000,I2C,0x69 + ACK
1.592222250000000,I2C,0x19 + NAK
1.593048250000000,I2C,Setup Write to [0x3A] + ACK
1.593080750000000,I2C,0x08 + ACK
1.593113000000000,I2C,0x62 + ACK
1.594116000000000,I2C,Setup Write to [0x3A] + ACK
1.594148750000000,I2C,0x09 + ACK
1.594180500000000,I2C,0x40 + ACK
1.595134750000000,I2C,Setup Write to [0x3A] + ACK
1.595167750000000,I2C,0x03 + ACK
1.595199750000000,I2C,0x40 + ACK
1.599118250000000,I2C,Setup Write to [0x3A] + ACK
1.599151750000000,I2C,0x00 + ACK
1.599876000000000,I2C,Setup Read to [0x3A] + ACK
1.599908250000000,I2C,0x69 + ACK
1.599940250000000,I2C,0x91 + NAK
1.600766500000000,I2C,Setup Write to [0x3A] + ACK
1.600799000000000,I2C,0x00 + ACK
1.601523250000000,I2C,Setup Read to [0x3A] + ACK
1.601574250000000,I2C,Setup Write to [0x29] + ACK
1.602408250000000,I2C,Setup Write to [0x3A] + ACK
1.602441500000000,I2C,0x00 + ACK
1.603166000000000,I2C,Setup Read to [0x3A] + ACK
1.603197500000000,I2C,0x69 + ACK
1.603228500000000,I2C,0x91 + NAK
1.604053250000000,I2C,Setup Write to [0x3A] + ACK
1.604086000000000,I2C,0x03 + ACK
1.604117750000000,I2C,0x41 + ACK
1.608121000000000,I2C,Setup Write to [0x3A] + ACK
1.608153750000000,I2C,0x00 + ACK
1.608878000000000,I2C,Setup Read to [0x3A] + ACK
1.608910500000000,I2C,0x69 + ACK
1.608942500000000,I2C,0x31 + NAK
1.609768250000000,I2C,Setup Write to [0x3A] + ACK
1.609800750000000,I2C,0x00 + ACK
1.610525250000000,I2C,Setup Read to [0x3A] + ACK
1.611409750000000,I2C,Setup Write to [0x3A] + ACK
1.611443000000000,I2C,0x00 + ACK
1.612167250000000,I2C,Setup Read to [0x3A] + ACK
1.612198750000000,I2C,0x69 + ACK
1.612229750000000,I2C,0x31 + NAK
1.613054000000000,I2C,Setup Write to [0x3A] + ACK
1.613087000000000,I2C,0x03 + ACK
1.613119250000000,I2C,0x42 + ACK
1.617122500000000,I2C,Setup Write to [0x3A] + ACK
1.617155250000000,I2C,0x00 + ACK
1.617880000000000,I2C,Setup Read to [0x3A] + ACK
1.617912250000000,I2C,0x69 + ACK
1.617943750000000,I2C,0x91 + NAK
1.618773250000000,I2C,Setup Write to [0x3A] + ACK
1.618805750000000,I2C,0x00 + ACK
1.619530750000000,I2C,Setup Read to [0x3A] + ACK
1.619563250000000,I2C,0x69 + ACK
1.620433000000000,I2C,Setup Write to [0x3A] + ACK
1.620465500000000,I2C,0x00 + Missing ACK/NAK
1.621189500000000,I2C,Setup Read to [0x3A] + ACK
1.621221000000000,I2C,0x69 + ACK
1.621252000000000,I2C,0x91 + NAK
1.622082750000000,I2C,Setup Write to [0x3A] + ACK
1.622115500000000,I2C,0x07 + ACK
1.622147500000000,I2C,0x66 + ACK
1.623126500000000,I2C,Setup Write to [0x3A] + ACK
1.623159250000000,I2C,0x18 + ACK
1.623191250000000,I2C,0x29 + ACK
1.624127500000000,I2C,Setup Write to [0x3A] + ACK
1.624160500000000,I2C,0x19 + ACK
1.624192250000000,I2C,0x41 + ACK
1.625131000000000,I2C,Setup Write to [0x3A] + ACK
1.625163750000000,I2C,0x19 + ACK
1.625195750000000,I2C,0x41 + ACK
1.626134250000000,I2C,Setup Write to [0x3A] + ACK
1.626167250000000,I2C,0x05 + Missing ACK/NAK
1.626199250000000,I2C,Setup Read to [0x5F] + ACK
1.627128750000000,I2C,Setup Write to [0x3A] + ACK
1.627161500000000,I2C,0x19 + ACK
1.627193500000000,I2C,0x01 + ACK
1.628130000000000,I2C,Setup Write to [0x3A] + ACK
1.628162500000000,I2C,0x01 + ACK
1.628194750000000,I2C,0x05 + ACK
1.629130000000000,I2C,Setup Write to [0x3A] + ACK
1.629162750000000,I2C,0x02 + ACK
1.629194500000000,I2C,0x40 + ACK
1.630129000000000,I2C,Setup Write to [0x3A] + ACK
1.630161500000000,I2C,0x08 + ACK
1.630193500000000,I2C,0x40 + ACK
1.631127750000000,I2C,Setup Write to [0x3A] + ACK
1.631160250000000,I2C,0x09 + ACK
1.631192250000000,I2C,0x40 + ACK
1.632127500000000,I2C,Setup Write to [0x3A] + ACK
1.632160250000000,I2C,0x03 + ACK
1.632192250000000,I2C,0x40 + ACK
1.633130250000000,I2C,Setup Write to [0x3A] + ACK
1.633163000000000,I2C,0x01 + ACK
1.633194750000000,I2C,0x05 + ACK
1.634133250000000,I2C,Setup Write to [0x3A] + ACK
1.634166000000000,I2C,0x1E + ACK
1.634198000000000,I2C,0xAE + ACK
1.635132750000000,I2C,Setup Write to [0x3A] + ACK
1.635165750000000,I2C,0x11 + Missing ACK/NAK
1.635197750000000,I2C,Setup Write to [0x01] + ACK
1.636131500000000,I2C,Setup Write to [0x3A] + ACK
1.636164250000000,I2C,0x12 + ACK
1.636196500000000,I2C,0x72 + ACK
1.637132000000000,I2C,Setup Write to [0x3A] + ACK
1.637164750000000,I2C,0x0F + ACK
1.637196750000000,I2C,0x9C + ACK
1.638132500000000,I2C,Setup Write to [0x3A] + ACK
1.638165000000000,I2C,0x10 + ACK
1.638197000000000,I2C,0x73 + ACK
1.639133750000000,I2C,Setup Write to [0x3A] + ACK
1.639166500000000,I2C,0x17 + ACK
1.639198500000000,I2C,0x28 + ACK
1.640133000000000,I2C,Setup Write to [0x3A] + ACK
1.640165750000000,I2C,0x1D + ACK
1.640197500000000,I2C,0x32 + ACK
1.641132250000000,I2C,Setup Write to [0x3A] + ACK
1.641165000000000,I2C,0x13 + ACK
1.641197000000000,I2C,0x38 + ACK
1.642133000000000,I2C,Setup Write to [0x3A] + ACK
1.642165500000000,I2C,0x10 + ACK
1.642197500000000,I2C,0x73 + ACK
1.643133000000000,I2C,Setup Write to [0x3A] + ACK
1.643166000000000,I2C,0x10 + ACK
1.643197750000000,I2C,0x53 + ACK
1.644140500000000,I2C,Setup Write to [0x3A] + ACK
1.644173000000000,I2C,0x14 + ACK
1.644205000000000,I2C,0x55 + Missing ACK/NAK
1.645134500000000,I2C,Setup Write to [0x3A] + ACK
1.645167250000000,I2C,0x12 + ACK
1.645199250000000,I2C,0x72 + ACK
1.646136750000000,I2C,Setup Write to [0x3A] + ACK
1.646169250000000,I2C,0x16 + ACK
1.646201250000000,I2C,0xAC + ACK
1.647135250000000,I2C,Setup Write to [0x3A] + ACK
1.647168000000000,I2C,0x15 + ACK
1.647199750000000,I2C,0xCE + ACK
1.658140750000000,I2C,Setup Write to [0x3A] + ACK
1.658174000000000,I2C,0x00 + ACK
1.658898250000000,I2C,Setup Read to [0x3A] + ACK
1.658950500000000,I2C,Setup Read to [0x2B] + ACK
1.658982000000000,I2C,0x4D + NAK
1.659824000000000,I2C,Setup Write to [0x3A] + ACK
1.659856500000000,I2C,0x00 + ACK
1.660580750000000,I2C,Setup Read to [0x3A] + ACK
1.660612750000000,I2C,0x69 + ACK
1.660643500000000,I2C,0xB9 + ACK
1.660674500000000,I2C,0x6E + NAK
1.661499000000000,I2C,Setup Write to [0x3A] + ACK
1.661531500000000,I2C,0x00 + ACK
1.662255500000000,I2C,Setup Read to [0x3A] + ACK
1.662287250000000,I2C,0x69 + ACK
1.662318250000000,I2C,0xB9 + ACK
1.662349000000000,I2C,0x6E + NAK
1.663177500000000,I2C,Setup Write to [0x3A] + ACK
1.663210000000000,I2C,0x00 + ACK
1.663934250000000,I2C,Setup Read to [0x3A] + ACK
1.663966250000000,I2C,0x69 + ACK
1.664016250000000,I2C,Setup Read to [0x26] + NAK
1.664853500000000,I2C,Setup Write to [0x3A] + ACK
1.664886000000000,I2C,0x1D + ACK
1.664918000000000,I2C,0xF2 + ACK
1.666142750000000,I2C,Setup Write to [0x3A] + ACK
1.666175750000000,I2C,0x01 + ACK
1.666207500000000,I2C,0x05 + ACK
1.667144250000000,I2C,Setup Write to [0x3A] + ACK
1.667176750000000,I2C,0x1E + ACK
1.667208750000000,I2C,0xAE + ACK
1.668148500000000,I2C,Setup Write to [0x3A] + ACK
1.668181250000000,I2C,0x00 + ACK
1.668213500000000,I2C,0x13 + ACK
1.669144000000000,I2C,Setup Write to [0x3A] + ACK
1.669176750000000,I2C,0x0C + ACK
1.669208500000000,I2C,0x3B + ACK
1.683147250000000,I2C,Setup Write to [0x3A] + ACK
1.683180250000000,I2C,0x00 + ACK
1.683904500000000,I2C,Setup Read to [0x3A] + ACK
1.683937000000000,I2C,0x69 + ACK
1.683969250000000,I2C,0x29 + NAK
1.684796000000000,I2C,Setup Write to [0x3A] + ACK
1.684828750000000,I2C,0x00 + ACK
1.685553000000000,I2C,0x75 + Missing ACK/NAK
1.685585000000000,I2C,Setup Read to [0x34] + ACK
1.685616500000000,I2C,0x29 + NAK
1.686450250000000,I2C,Setup Write to [0x3A] + ACK
1.686482750000000,I2C,0x00 + ACK
1.687206750000000,I2C,Setup Read to [0x3A] + ACK
1.687238250000000,I2C,0x69 + ACK
1.687269250000000,I2C,0x29 + NAK
1.688094250000000,I2C,Setup Write to [0x3A] + ACK
1.688126750000000,I2C,0x0C + ACK
1.688158750000000,I2C,0x3C + ACK
1.702157000000000,I2C,Setup Write to [0x3A] + ACK
1.702190250000000,I2C,0x00 + ACK
1.702914500000000,I2C,0x75 + Missing ACK/NAK
1.702947000000000,I2C,Setup Read to [0x34] + ACK
1.702979250000000,I2C,0xA9 + NAK
1.703807000000000,I2C,Setup Write to [0x3A] + ACK
1.703839750000000,I2C,0x00 + ACK
1.704564000000000,I2C,Setup Read to [0x3A] + ACK
1.704596000000000,I2C,0x69 + ACK
1.704626750000000,I2C,0x29 + NAK
1.705448500000000,I2C,Setup Write to [0x3A] + ACK
1.705482000000000,I2C,0x00 + ACK
1.706206250000000,I2C,Setup Read to [0x3A] + ACK
1.706256750000000,I2C,Setup Read to [0x2A] + ACK
1.707094000000000,I2C,Setup Write to [0x3A] + ACK
1.707126500000000,I2C,0x0C + ACK
1.707158750000000,I2C,0x3D + ACK
1.721165500000000,I2C,Setup Write to [0x3A] + ACK
1.721198500000000,I2C,0x00 + ACK
1.721922750000000,I2C,Setup Read to [0x3A] + ACK
1.721955000000000,I2C,0x69 + ACK
1.721987500000000,I2C,0x19 + NAK
1.722815250000000,I2C,Setup Write to [0x3A] + ACK
1.722848000000000,I2C,0x00 + ACK
1.723572250000000,I2C,Setup Read to [0x3A] + ACK
1.723623000000000,I2C,Setup Read to [0x21] + ACK
1.724456750000000,I2C,Setup Write to [0x3A] + ACK
1.724490250000000,I2C,0x00 + ACK
1.725214500000000,I2C,Setup Read to [0x3A] + ACK
1.725246250000000,I2C,0x69 + ACK
1.725277250000000,I2C,0x19 + NAK
1.726102750000000,I2C,Setup Write to [0x3A] + ACK
1.726135250000000,I2C,0x0C + ACK
1.726167500000000,I2C,0x3E + ACK
1.740170750000000,I2C,Setup Write to [0x3A] + ACK
1.740203500000000,I2C,0x00 + ACK
1.740927750000000,I2C,Setup Read to [0x3A] + ACK
1.741819750000000,I2C,Setup Write to [0x3A] + ACK
1.741852250000000,I2C,0x00 + ACK
1.742576750000000,I2C,Setup Read to [0x3A] + ACK
1.742608500000000,I2C,0x69 + ACK
1.742639500000000,I2C,0x99 + NAK
1.743461750000000,I2C,Setup Write to [0x3A] + ACK
1.743495000000000,I2C,0x00 + ACK
1.744219250000000,I2C,Setup Read to [0x3A] + ACK
1.744251000000000,I2C,0x69 + ACK
1.744285000000000,I2C,0xB3 + Missing ACK/NAK
1.745106500000000,I2C,Setup Write to [0x3A] + ACK
1.745139750000000,I2C,0x0C + ACK
1.745171750000000,I2C,0x3F + ACK
1.759178000000000,I2C,Setup Write to [0x3A] + ACK
1.759211000000000,I2C,0x00 + ACK
1.759935250000000,I2C,Setup Read to [0x3A] + ACK
1.759967500000000,I2C,0x69 + ACK
1.759999750000000,I2C,0xB9 + NAK
1.760826500000000,I2C,Setup Write to [0x3A] + ACK
1.760859250000000,I2C,0x00 + ACK
1.761583500000000,I2C,Setup Read to [0x3A] + ACK
1.761634250000000,I2C,0x57 + Missing ACK/NAK
1.762468250000000,I2C,Setup Write to [0x3A] + ACK
1.762501750000000,I2C,0x00 + ACK
1.763226000000000,I2C,Setup Read to [0x3A] + ACK
1.763257500000000,I2C,0x69 + ACK
1.763288500000000,I2C,0xB9 + NAK
1.764113500000000,I2C,Setup Write to [0x3A] + ACK
1.764146000000000,I2C,0x08 + ACK
1.764178250000000,I2C,0x60 + ACK
1.765178750000000,I2C,Setup Write to [0x3A] + ACK
1.765211500000000,I2C,0x09 + ACK
1.765243500000000,I2C,0x40 + ACK
1.769182000000000,I2C,Setup Write to [0x3A] + ACK
1.769214750000000,I2C,0x00 + ACK
1.769939000000000,I2C,Setup Read to [0x3A] + ACK
1.769971750000000,I2C,0x69 + ACK
1.770830250000000,I2C,Setup Write to [0x3A] + ACK
1.770863000000000,I2C,0x00 + ACK
1.771587250000000,I2C,Setup Read to [0x3A] + ACK
1.771619000000000,I2C,0x69 + ACK
1.771649750000000,I2C,0xB9 + NAK
1.772471750000000,I2C,Setup Write to [0x3A] + ACK
1.772505000000000,I2C,0x00 + ACK
1.773229250000000,I2C,Setup Read to [0x3A] + ACK
1.773279750000000,I2C,Setup Read to [0x2F] + ACK
1.774116500000000,I2C,Setup Write to [0x3A] + ACK
1.774149000000000,I2C,0x08 + ACK
1.774181500000000,I2C,0x60 + ACK
1.775201750000000,I2C,Setup Write to [0x3A] + ACK
1.775234750000000,I2C,0x09 + ACK
1.775266500000000,I2C,0x41 + ACK
1.779184000000000,I2C,Setup Write to [0x3A] + ACK
1.779217000000000,I2C,0x00 + ACK
1.779941250000000,I2C,Setup Read to [0x3A] + ACK
1.779973750000000,I2C,0x69 + ACK
1.780005750000000,I2C,0x85 + NAK
1.780832250000000,I2C,Setup Write to [0x3A] + ACK
1.780865000000000,I2C,0x00 + ACK
1.781589000000000,I2C,Setup Read to [0x3A] + ACK
1.781621000000000,I2C,0x69 + ACK
1.782474000000000,I2C,Setup Write to [0x3A] + ACK
1.782506000000000,I2C,0x00 + ACK
1.783230750000000,I2C,Setup Read to [0x3A] + ACK
1.783262250000000,I2C,0x69 + ACK
1.783293250000000,I2C,0x85 + NAK
1.784117250000000,I2C,Setup Write to [0x3A] + ACK
1.784150000000000,I2C,0x08 + ACK
1.784182000000000,I2C,0x60 + ACK
1.785186500000000,I2C,Setup Write to [0x3A] + ACK
1.785219250000000,I2C,0x09 + ACK
1.785251250000000,I2C,0x61 + ACK
1.789189500000000,I2C,Setup Write to [0x3A] + ACK
1.789222500000000,I2C,0x00 + ACK
1.789946500000000,I2C,Setup Read to [0x3A] + ACK
1.790838750000000,I2C,Setup Write to [0x3A] + ACK
1.790871250000000,I2C,0x00 + Missing ACK/NAK
1.791595500000000,I2C,Setup Read to [0x3A] + ACK
1.791627250000000,I2C,0x69 + ACK
1.791658250000000,I2C,0xC5 + NAK
1.792480250000000,I2C,Setup Write to [0x3A] + ACK
1.792513750000000,I2C,0x00 + ACK
1.793238000000000,I2C,Setup Read to [0x3A] + ACK
1.794127750000000,I2C,Setup Write to [0x3A] + ACK
1.794160250000000,I2C,0x08 + ACK
1.794192500000000,I2C,0x61 + ACK
1.795190500000000,I2C,Setup Write to [0x3A] + ACK
1.795223250000000,I2C,0x09 + ACK
1.795255000000000,I2C,0x40 + ACK
1.799191250000000,I2C,Setup Write to [0x3A] + ACK
1.799224000000000,I2C,0x00 + ACK
1.799948250000000,I2C,Setup Read to [0x3A] + ACK
1.799980750000000,I2C,0x69 + ACK
1.800012250000000,I2C,0xB1 + NAK
1.800838500000000,I2C,Setup Write to [0x3A] + ACK
1.800871000000000,I2C,0x00 + ACK
1.801595250000000,I2C,Setup Read to [0x3A] + ACK
1.802479750000000,I2C,Setup Write to [0x3A] + ACK
1.802512250000000,I2C,0x00 + ACK
1.803236750000000,I2C,Setup Read to [0x3A] + ACK
1.803268250000000,I2C,0x69 + ACK
1.803299250000000,I2C,0xB1 + NAK
1.804123000000000,I2C,Setup Write to [0x3A] + ACK
1.804155500000000,I2C,0x08 + ACK
1.804187500000000,I2C,0x61 + ACK
1.805198000000000,I2C,Setup Write to [0x3A] + ACK
1.805230750000000,I2C,0x09 + ACK
1.805262750000000,I2C,0x41 + ACK
1.809196750000000,I2C,Setup Write to [0x3A] + ACK
1.809229750000000,I2C,0x00 + ACK
1.809953750000000,I2C,Setup Read to [0x3A] + ACK
1.810845250000000,I2C,Setup Write to [0x3A] + ACK
1.810877750000000,I2C,0x00 + ACK
1.811602250000000,I2C,Setup Read to [0x3A] + ACK
1.811634000000000,I2C,0x69 + ACK
1.811665000000000,I2C,0x29 + NAK
1.812487000000000,I2C,Setup Write to [0x3A] + ACK
1.812520250000000,I2C,0x00 + ACK
1.813244500000000,I2C,Setup Read to [0x3A] + ACK
1.813295000000000,I2C,0x45 + Missing ACK/NAK
1.814131250000000,I2C,Setup Write to [0x3A] + ACK
1.814164000000000,I2C,0x08 + ACK
1.814196000000000,I2C,0x61 + ACK
1.815197000000000,I2C,Setup Write to [0x3A] + ACK
1.815229750000000,I2C,0x09 + ACK
1.815261750000000,I2C,0x61 + Missing ACK/NAK
1.819199500000000,I2C,Setup Write to [0x3A] + ACK
1.819232250000000,I2C,0x00 + ACK
1.819957250000000,I2C,Setup Read to [0x3A] + ACK
1.819990000000000,I2C,0x69 + ACK
1.820021500000000,I2C,0x99 + NAK
1.820853250000000,I2C,Setup Write to [0x3A] + ACK
1.820885750000000,I2C,0x00 + ACK
1.821610000000000,I2C,Setup Read to [0x3A] + ACK
1.821654500000000,I2C,Setup Write to [0x4A] + NAK
1.822495250000000,I2C,Setup Write to [0x3A] + ACK
1.822527250000000,I2C,0x00 + ACK
1.823251500000000,I2C,Setup Read to [0x3A] + ACK
1.823283250000000,I2C,0x69 + ACK
1.823314000000000,I2C,0x99 + NAK
1.824140500000000,I2C,Setup Write to [0x3A] + ACK
1.824173250000000,I2C,0x08 + ACK
1.824205250000000,I2C,0x62 + ACK
1.825202750000000,I2C,Setup Write to [0x3A] + ACK
1.825235500000000,I2C,0x09 + ACK
1.825267250000000,I2C,0x40 + ACK
1.829205000000000,I2C,Setup Write to [0x3A] + ACK
1.829237750000000,I2C,0x00 + ACK
1.829962000000000,I2C,Setup Read to [0x3A] + ACK
1.830007000000000,I2C,Setup Write to [0x4A] + NAK
1.830853750000000,I2C,Setup Write to [0x3A] + ACK
1.830886250000000,I2C,0x00 + ACK
1.831610500000000,I2C,Setup Read to [0x3A] + ACK
1.831642500000000,I2C,0x69 + ACK
1.831673250000000,I2C,0x51 + NAK
1.832494750000000,I2C,Setup Write to [0x3A] + ACK
1.832528000000000,I2C,0x00 + ACK
1.833252250000000,I2C,Setup Read to [0x3A] + ACK
1.833284000000000,I2C,0x69 + ACK
1.834139250000000,I2C,Setup Write to [0x3A] + ACK
1.834172000000000,I2C,0x08 + ACK
1.834204250000000,I2C,0x62 + ACK
1.835222750000000,I2C,Setup Write to [0x3A] + ACK
1.835255500000000,I2C,0x09 + ACK
1.835287500000000,I2C,0x41 + ACK
1.839207250000000,I2C,Setup Write to [0x3A] + ACK
1.839240500000000,I2C,0x00 + ACK
1.839965000000000,I2C,Setup Read to [0x3A] + ACK
1.839997500000000,I2C,0x69 + ACK
1.840029500000000,I2C,0x89 + NAK
1.840855750000000,I2C,Setup Write to [0x3A] + ACK
1.840888250000000,I2C,0x00 + ACK
1.841612750000000,I2C,Setup Read to [0x3A] + ACK
1.841644500000000,I2C,0x69 + ACK
1.842497250000000,I2C,Setup Write to [0x3A] + ACK
1.842529500000000,I2C,0x00 + ACK
1.843253750000000,I2C,Setup Read to [0x3A] + ACK
1.843285250000000,I2C,0x69 + ACK
1.843316250000000,I2C,0x89 + NAK
1.844140750000000,I2C,Setup Write to [0x3A] + ACK
1.844173250000000,I2C,0x08 + ACK
1.844205000000000,I2C,0x62 + ACK
1.845208750000000,I2C,Setup Write to [0x3A] + ACK
1.845241750000000,I2C,0x09 + ACK
1.845273500000000,I2C,0x61 + ACK
1.849212000000000,I2C,Setup Write to [0x3A] + ACK
1.849244750000000,I2C,0x00 + ACK
1.849969000000000,I2C,Setup Read to [0x3A] + ACK
1.850001750000000,I2C,0x69 + ACK
1.850860250000000,I2C,Setup Write to [0x3A] + ACK
1.850892750000000,I2C,0x00 + Missing ACK/NAK
1.851617250000000,I2C,Setup Read to [0x3A] + ACK
1.851649000000000,I2C,0x69 + ACK
1.851680000000000,I2C,0x19 + NAK
1.852501750000000,I2C,Setup Write to [0x3A] + ACK
1.852535250000000,I2C,0x00 + ACK
1.853259500000000,I2C,Setup Read to [0x3A] + ACK
1.853291000000000,I2C,0x69 + ACK
1.854147750000000,I2C,Setup Write to [0x3A] + ACK
1.854180750000000,I2C,0x08 + ACK
1.854213000000000,I2C,0x62 + ACK
1.855213750000000,I2C,Setup Write to [0x3A] + ACK
1.855246500000000,I2C,0x09 + ACK
1.855278250000000,I2C,0x40 + ACK
1.856216500000000,I2C,Setup Write to [0x3A] + ACK
1.856249250000000,I2C,0x03 + ACK
1.856281250000000,I2C,0x40 + ACK
1.860214500000000,I2C,Setup Write to [0x3A] + ACK
1.860247250000000,I2C,0x00 + ACK
1.860971500000000,I2C,Setup Read to [0x3A] + ACK
1.861004000000000,I2C,0x69 + ACK
1.861035250000000,I2C,0x91 + NAK
1.861861500000000,I2C,Setup Write to [0x3A] + ACK
1.861894250000000,I2C,0x00 + ACK
1.862618500000000,I2C,Setup Read to [0x3A] + ACK
1.862650250000000,I2C,0x69 + ACK
1.862681000000000,I2C,0x91 + NAK
1.863503000000000,I2C,Setup Write to [0x3A] + ACK
1.863535500000000,I2C,0x00 + ACK
1.864259750000000,I2C,Setup Read to [0x3A] + ACK
1.865146750000000,I2C,Setup Write to [0x3A] + ACK
1.865179500000000,I2C,0x03 + ACK
1.865211500000000,I2C,0x41 + ACK
1.869220000000000,I2C,Setup Write to [0x3A] + ACK
1.869252750000000,I2C,0x00 + ACK
1.869977000000000,I2C,Setup Read to [0x3A] + ACK
1.870869000000000,I2C,Setup Write to [0x3A] + ACK
1.870901750000000,I2C,0x00 + ACK
1.871626000000000,I2C,Setup Read to [0x3A] + ACK
1.871657750000000,I2C,0x69 + ACK
1.871688750000000,I2C,0x31 + NAK
1.872510750000000,I2C,Setup Write to [0x3A] + ACK
1.872543000000000,I2C,0x00 + ACK
1.873267250000000,I2C,Setup Read to [0x3A] + ACK
1.873298750000000,I2C,0x69 + ACK
1.874155750000000,I2C,Setup Write to [0x3A] + ACK
1.874188750000000,I2C,0x03 + ACK
1.874221000000000,I2C,0x42 + ACK
1.878221000000000,I2C,Setup Write to [0x3A] + ACK
1.878253750000000,I2C,0x00 + ACK
1.878978250000000,I2C,Setup Read to [0x3A] + ACK
1.879010750000000,I2C,0x69 + ACK
1.879042250000000,I2C,0xD1 + NAK
1.879869000000000,I2C,Setup Write to [0x3A] + ACK
1.879901750000000,I2C,0x00 + ACK
1.880626000000000,I2C,Setup Read to [0x3A] + ACK
1.880658000000000,I2C,0x69 + ACK
1.880689000000000,I2C,0xD1 + NAK
1.881510750000000,I2C,Setup Write to [0x3A] + ACK
1.881543750000000,I2C,0x00 + ACK
1.882268000000000,I2C,Setup Read to [0x3A] + ACK
1.882299500000000,I2C,0x69 + ACK
1.883160500000000,I2C,Setup Write to [0x3A] + ACK
1.883193000000000,I2C,0x07 + ACK
1.883225250000000,I2C,0x68 + ACK
1.884224000000000,I2C,Setup Write to [0x3A] + ACK
1.884257250000000,I2C,0x18 + ACK
1.884289000000000,I2C,0x29 + ACK
1.885223750000000,I2C,Setup Write to [0x3A] + ACK
1.885256500000000,I2C,0x19 + ACK
1.885288500000000,I2C,0x00 + ACK
1.886227500000000,I2C,Setup Write to [0x3A] + ACK
1.886260250000000,I2C,0x19 + ACK
1.886292000000000,I2C,0x00 + ACK
1.887233750000000,I2C,Setup Write to [0x3A] + ACK
1.887266500000000,I2C,0x05 + ACK
1.887298500000000,I2C,0x9F + ACK
1.888228000000000,I2C,Setup Write to [0x3A] + ACK
1.888260750000000,I2C,0x19 + Missing ACK/NAK
1.888292750000000,I2C,Setup Write to [0x60] + ACK
1.889228500000000,I2C,Setup Write to [0x3A] + ACK
1.889261250000000,I2C,0x01 + ACK
1.889293250000000,I2C,0x05 + ACK
1.890226250000000,I2C,Setup Write to [0x3A] + ACK
1.890259000000000,I2C,0x02 + ACK
1.890291000000000,I2C,0x40 + ACK
1.891229250000000,I2C,Setup Write to [0x3A] + ACK
1.891262000000000,I2C,0x08 + ACK
1.891294000000000,I2C,0x40 + ACK
1.892227000000000,I2C,Setup Write to [0x3A] + ACK
1.892259750000000,I2C,0x09 + ACK
1.892291750000000,I2C,0x40 + ACK
1.893228000000000,I2C,Setup Write to [0x3A] + ACK
1.893260750000000,I2C,0x03 + ACK
1.893292500000000,I2C,0x40 + ACK
1.894229000000000,I2C,Setup Write to [0x3A] + ACK
1.894261750000000,I2C,0x01 + ACK
1.894293750000000,I2C,0x05 + ACK
1.895248250000000,I2C,Setup Write to [0x3A] + ACK
1.895281250000000,I2C,0x1E + ACK
1.895313250000000,I2C,0xAE + ACK
1.896234250000000,I2C,Setup Write to [0x3A] + ACK
1.896267000000000,I2C,0x11 + ACK
1.896299250000000,I2C,0x02 + ACK
1.897231000000000,I2C,Setup Write to [0x3A] + ACK
1.897263500000000,I2C,0x12 + ACK
1.897295750000000,I2C,0x72 + ACK
1.898231000000000,I2C,Setup Write to [0x3A] + ACK
1.898264000000000,I2C,0x0F + ACK
1.898295750000000,I2C,0x9C + ACK
1.899231250000000,I2C,Setup Write to [0x3A] + ACK
1.899264250000000,I2C,0x10 + ACK
1.899296000000000,I2C,0x53 + ACK
1.900230250000000,I2C,Setup Write to [0x3A] + ACK
1.900263000000000,I2C,0x17 + ACK
1.900294750000000,I2C,0x28 + ACK
1.901232750000000,I2C,Setup Write to [0x3A] + ACK
1.901265500000000,I2C,0x1D + ACK
1.901297250000000,I2C,0x32 + ACK
1.902233500000000,I2C,Setup Write to [0x3A] + ACK
1.902266000000000,I2C,0x13 + ACK
1.902298000000000,I2C,0x20 + ACK
1.903231250000000,I2C,Setup Write to [0x3A] + ACK
1.903264000000000,I2C,0x10 + ACK
1.903296000000000,I2C,0x53 + ACK
1.904231500000000,I2C,Setup Write to [0x3A] + ACK
1.904264250000000,I2C,0x10 + ACK
1.904296250000000,I2C,0x33 + ACK
1.905232500000000,I2C,Setup Write to [0x3A] + ACK
1.905265250000000,I2C,0x14 + ACK
1.905297250000000,I2C,0x95 + ACK
1.906234500000000,I2C,Setup Write to [0x3A] + ACK
1.906267000000000,I2C,0x12 + ACK
1.906299000000000,I2C,0x72 + ACK
1.907235750000000,I2C,Setup Write to [0x3A] + ACK
1.907268750000000,I2C,0x16 + ACK
1.907300500000000,I2C,0x56 + ACK
1.908234250000000,I2C,Setup Write to [0x3A] + ACK
1.908267000000000,I2C,0x15 + Missing ACK/NAK
1.908298750000000,I2C,Setup Write to [0x34] + ACK
1.919240750000000,I2C,Setup Write to [0x3A] + ACK
1.919274250000000,I2C,0x00 + ACK
1.919998500000000,I2C,Setup Read to [0x3A] + ACK
1.920031750000000,I2C,0x69 + ACK
1.920063250000000,I2C,0x19 + ACK
1.920095000000000,I2C,0xEE + NAK
1.920925000000000,I2C,Setup Write to [0x3A] + ACK
1.920957500000000,I2C,0x00 + ACK
1.921682000000000,I2C,Setup Read to [0x3A] + ACK
1.921732750000000,I2C,Setup Read to [0x21] + ACK
1.921763750000000,I2C,0x5D + NAK
1.922600750000000,I2C,Setup Write to [0x3A] + ACK
1.922633500000000,I2C,0x00 + ACK
1.923357500000000,I2C,Setup Read to [0x3A] + ACK
1.923389000000000,I2C,0x69 + ACK
1.923420000000000,I2C,0x99 + ACK
1.924279000000000,I2C,Setup Write to [0x3A] + ACK
1.924311500000000,I2C,0x00 + ACK
1.925036500000000,I2C,Setup Read to [0x3A] + ACK
1.925069500000000,I2C,0x69 + ACK
1.925100500000000,I2C,0x19 + ACK
1.925131500000000,I2C,0xEE + NAK
1.925961250000000,I2C,Setup Write to [0x3A] + ACK
1.925993750000000,I2C,0x1D + ACK
1.926026000000000,I2C,0xF2 + ACK
1.927238750000000,I2C,Setup Write to [0x3A] + ACK
1.927271500000000,I2C,0x01 + ACK
1.927303500000000,I2C,0x05 + ACK
1.928244750000000,I2C,Setup Write to [0x3A] + ACK
1.928277500000000,I2C,0x1E + ACK
1.928309250000000,I2C,0xAE + ACK
1.929247000000000,I2C,Setup Write to [0x3A] + ACK
1.929279750000000,I2C,0x00 + ACK
1.929312000000000,I2C,0x00 + ACK
1.930242500000000,I2C,Setup Write to [0x3A] + ACK
1.930275250000000,I2C,0x0C + ACK
1.930307250000000,I2C,0x3B + ACK
1.944246000000000,I2C,Setup Write to [0x3A] + ACK
1.944279250000000,I2C,0x00 + ACK
1.945003500000000,I2C,Setup Read to [0x3A] + ACK
1.945036000000000,I2C,0x69 + ACK
1.945068500000000,I2C,0xF1 + NAK
1.945895000000000,I2C,Setup Write to [0x3A] + ACK
1.945927750000000,I2C,0x00 + ACK
1.946652000000000,I2C,Setup Read to [0x3A] + ACK
1.946683750000000,I2C,0x69 + ACK
1.946714750000000,I2C,0xF1 + NAK
1.947536750000000,I2C,Setup Write to [0x3A] + ACK
1.947569750000000,I2C,0x00 + ACK
1.948294000000000,I2C,Setup Read to [0x3A] + ACK
1.948325750000000,I2C,0x69 + ACK
1.948356500000000,I2C,0xF1 + NAK
1.949181500000000,I2C,Setup Write to [0x3A] + ACK
1.949214000000000,I2C,0x0C + ACK
1.949246000000000,I2C,0x3C + ACK
1.963258250000000,I2C,Setup Write to [0x3A] + ACK
1.963291250000000,I2C,0x00 + ACK
1.964015500000000,I2C,Setup Read to [0x3A] + ACK
1.964048000000000,I2C,0x69 + ACK
1.964080250000000,I2C,0x09 + NAK
1.964907500000000,I2C,Setup Write to [0x3A] + ACK
1.964940000000000,I2C,0x00 + ACK
1.965664250000000,I2C,0x75 + Missing ACK/NAK
1.965696250000000,I2C,Setup Read to [0x34] + ACK
1.965727000000000,I2C,0x09 + NAK
1.966549500000000,I2C,Setup Write to [0x3A] + ACK
1.966581500000000,I2C,0x00 + ACK
1.967306000000000,I2C,Setup Read to [0x3A] + ACK
1.967337500000000,I2C,0x69 + ACK
1.967368500000000,I2C,0x09 + NAK
1.968193000000000,I2C,Setup Write to [0x3A] + ACK
1.968225500000000,I2C,0x0C + ACK
1.968257750000000,I2C,0x3D + ACK
1.982262250000000,I2C,Setup Write to [0x3A] + ACK
1.982295250000000,I2C,0x00 + ACK
1.983019500000000,I2C,0x75 + Missing ACK/NAK
1.983071000000000,I2C,Setup Read to [0x28] + ACK
1.983911500000000,I2C,Setup Write to [0x3A] + ACK
1.983944000000000,I2C,0x00 + ACK
1.984669000000000,I2C,Setup Read to [0x3A] + ACK
1.984701500000000,I2C,0x69 + ACK
1.984733000000000,I2C,0x89 + NAK
1.985564500000000,I2C,Setup Write to [0x3A] + ACK
1.985597250000000,I2C,0x00 + ACK
1.986321000000000,I2C,Setup Read to [0x3A] + ACK
1.986352750000000,I2C,0x69 + ACK
1.986383500000000,I2C,0x89 + NAK
1.987208250000000,I2C,Setup Write to [0x3A] + ACK
1.987241000000000,I2C,0x0C + ACK
1.987273250000000,I2C,0x3E + ACK
2.001269500000000,I2C,Setup Write to [0x3A] + ACK
2.001302750000000,I2C,0x00 + ACK
2.002027000000000,I2C,Setup Read to [0x3A] + ACK
2.002059500000000,I2C,0x69 + ACK
2.002091750000000,I2C,0x29 + NAK
2.002919000000000,I2C,Setup Write to [0x3A] + ACK
2.002951750000000,I2C,0x00 + ACK
2.003676000000000,I2C,Setup Read to [0x3A] + ACK
2.004560250000000,I2C,Setup Write to [0x3A] + ACK
2.004593250000000,I2C,0x00 + ACK
2.005317750000000,I2C,Setup Read to [0x3A] + ACK
2.005349250000000,I2C,0x69 + ACK
2.005380250000000,I2C,0x29 + NAK
2.006205250000000,I2C,Setup Write to [0x3A] + ACK
2.006238000000000,I2C,0x0C + ACK
2.006270000000000,I2C,0x3F + ACK
2.020288000000000,I2C,Setup Write to [0x3A] + ACK
2.020321250000000,I2C,0x00 + ACK
2.021045250000000,I2C,Setup Read to [0x3A] + ACK
2.021078250000000,I2C,0x69 + ACK
2.021110500000000,I2C,0x19 + NAK
2.021939000000000,I2C,Setup Write to [0x3A] + ACK
2.021971750000000,I2C,0x00 + ACK
2.022696000000000,I2C,Setup Read to [0x3A] + ACK
2.022728000000000,I2C,0x69 + ACK
2.022758750000000,I2C,0x19 + NAK
2.023582750000000,I2C,Setup Write to [0x3A] + ACK
2.023615750000000,I2C,0x00 + ACK
2.024339500000000,I2C,Setup Read to [0x3A] + ACK
2.024371250000000,I2C,0x69 + ACK
2.025228000000000,I2C,Setup Write to [0x3A] + ACK
2.025260500000000,I2C,0x08 + ACK
2.025292750000000,I2C,0x40 + ACK
2.026279000000000,I2C,Setup Write to [0x3A] + ACK
2.026311750000000,I2C,0x09 + ACK
2.026343500000000,I2C,0x40 + ACK
2.030281000000000,I2C,Setup Write to [0x3A] + ACK
2.030314000000000,I2C,0x00 + ACK
2.031038250000000,I2C,Setup Read to [0x3A] + ACK
2.031070750000000,I2C,0x69 + ACK
2.031102750000000,I2C,0x19 + NAK
2.031929750000000,I2C,Setup Write to [0x3A] + ACK
2.031962250000000,I2C,0x00 + ACK
2.032686500000000,I2C,Setup Read to [0x3A] + ACK
2.032718250000000,I2C,0x69 + ACK
2.033571750000000,I2C,Setup Write to [0x3A] + ACK
2.033605000000000,I2C,0x00 + ACK
2.034329750000000,I2C,Setup Read to [0x3A] + ACK
2.034361250000000,I2C,0x69 + ACK
2.034392250000000,I2C,0x19 + NAK
2.035217750000000,I2C,Setup Write to [0x3A] + ACK
2.035250250000000,I2C,0x08 + ACK
2.035282500000000,I2C,0x40 + ACK
2.036282000000000,I2C,Setup Write to [0x3A] + ACK
2.036314750000000,I2C,0x09 + ACK
2.036346750000000,I2C,0x41 + ACK
2.040283500000000,I2C,Setup Write to [0x3A] + ACK
2.040316500000000,I2C,0x00 + ACK
2.041040750000000,I2C,Setup Read to [0x3A] + ACK
2.041073250000000,I2C,0x69 + ACK
2.041931500000000,I2C,Setup Write to [0x3A] + ACK
2.041964250000000,I2C,0x00 + ACK
2.042688500000000,I2C,Setup Read to [0x3A] + ACK
2.042720250000000,I2C,0x69 + ACK
2.042751250000000,I2C,0x99 + NAK
2.043573250000000,I2C,Setup Write to [0x3A] + ACK
2.043606750000000,I2C,0x00 + ACK
2.044331000000000,I2C,Setup Read to [0x3A] + ACK
2.044362750000000,I2C,0x69 + ACK
2.045217500000000,I2C,Setup Write to [0x3A] + ACK
2.045250250000000,I2C,0x08 + ACK
2.045282250000000,I2C,0x40 + ACK
2.046286000000000,I2C,Setup Write to [0x3A] + ACK
2.046318750000000,I2C,0x09 + ACK
2.046350750000000,I2C,0x61 + ACK
2.050288250000000,I2C,Setup Write to [0x3A] + ACK
2.050321000000000,I2C,0x00 + ACK
2.051045250000000,I2C,Setup Read to [0x3A] + ACK
2.051077750000000,I2C,0x69 + ACK
2.051110000000000,I2C,0xB9 + NAK
2.051936750000000,I2C,Setup Write to [0x3A] + ACK
2.051969250000000,I2C,0x00 + ACK
2.052693500000000,I2C,Setup Read to [0x3A] + ACK
2.052725250000000,I2C,0x69 + ACK
2.053578000000000,I2C,Setup Write to [0x3A] + ACK
2.053610500000000,I2C,0x00 + ACK
2.054334750000000,I2C,Setup Read to [0x3A] + ACK
2.054366500000000,I2C,0x69 + ACK
2.054397250000000,I2C,0xB9 + NAK
2.055222750000000,I2C,Setup Write to [0x3A] + ACK
2.055255500000000,I2C,0x08 + ACK
2.055287750000000,I2C,0x41 + ACK
2.056290000000000,I2C,Setup Write to [0x3A] + ACK
2.056322750000000,I2C,0x09 + ACK
2.056354750000000,I2C,0x40 + ACK
2.060290500000000,I2C,Setup Write to [0x3A] + ACK
2.060323500000000,I2C,0x00 + ACK
2.061047750000000,I2C,Setup Read to [0x3A] + ACK
2.061080250000000,I2C,0x69 + ACK
2.061938500000000,I2C,Setup Write to [0x3A] + ACK
2.061971000000000,I2C,0x00 + ACK
2.062695250000000,I2C,Setup Read to [0x3A] + ACK
2.062727000000000,I2C,0x69 + ACK
2.062758000000000,I2C,0xC5 + NAK
2.063580000000000,I2C,Setup Write to [0x3A] + ACK
2.063612250000000,I2C,0x00 + ACK
2.064336250000000,I2C,Setup Read to [0x3A] + ACK
2.064368000000000,I2C,0x69 + ACK
2.065222750000000,I2C,Setup Write to [0x3A] + ACK
2.065255250000000,I2C,0x08 + ACK
2.065287000000000,I2C,0x61 + ACK
2.066292750000000,I2C,Setup Write to [0x3A] + ACK
2.066325500000000,I2C,0x09 + ACK
2.066357500000000,I2C,0x40 + ACK
2.070295750000000,I2C,Setup Write to [0x3A] + ACK
2.070329000000000,I2C,0x00 + ACK
2.071053250000000,I2C,Setup Read to [0x3A] + ACK
2.071085500000000,I2C,0x69 + ACK
2.071117750000000,I2C,0x31 + NAK
2.071944250000000,I2C,Setup Write to [0x3A] + ACK
2.071977000000000,I2C,0x00 + ACK
2.072701250000000,I2C,Setup Read to [0x3A] + ACK
2.072733250000000,I2C,0x69 + ACK
2.073586500000000,I2C,Setup Write to [0x3A] + ACK
2.073618750000000,I2C,0x00 + ACK
2.074342750000000,I2C,Setup Read to [0x3A] + ACK
2.074374500000000,I2C,0x69 + ACK
2.074405250000000,I2C,0x31 + NAK
2.075231000000000,I2C,Setup Write to [0x3A] + ACK
2.075263750000000,I2C,0x08 + ACK
2.075296000000000,I2C,0x40 + ACK
2.076300000000000,I2C,Setup Write to [0x3A] + ACK
2.076332750000000,I2C,0x09 + ACK
2.076364750000000,I2C,0x42 + ACK
2.080299000000000,I2C,Setup Write to [0x3A] + ACK
2.080332250000000,I2C,0x00 + ACK
2.081056500000000,I2C,Setup Read to [0x3A] + ACK
2.081108000000000,I2C,0x5F + Missing ACK/NAK
2.081948000000000,I2C,Setup Write to [0x3A] + ACK
2.081980500000000,I2C,0x00 + ACK
2.082704750000000,I2C,Setup Read to [0x3A] + ACK
2.082736750000000,I2C,0x69 + ACK
2.082767500000000,I2C,0xF9 + NAK
2.083589750000000,I2C,Setup Write to [0x3A] + ACK
2.083622250000000,I2C,0x00 + ACK
2.084346500000000,I2C,Setup Read to [0x3A] + ACK
2.084378000000000,I2C,0x69 + ACK
2.085234250000000,I2C,Setup Write to [0x3A] + ACK
2.085266750000000,I2C,0x08 + ACK
2.085298500000000,I2C,0x40 + ACK
2.086301250000000,I2C,Setup Write to [0x3A] + ACK
2.086333750000000,I2C,0x09 + ACK
2.086365750000000,I2C,0x62 + ACK
2.090304000000000,I2C,Setup Write to [0x3A] + ACK
2.090336750000000,I2C,0x00 + ACK
2.091061000000000,I2C,Setup Read to [0x3A] + ACK
2.091093500000000,I2C,0x69 + ACK
2.091125500000000,I2C,0x25 + NAK
2.091952500000000,I2C,Setup Write to [0x3A] + ACK
2.091985000000000,I2C,0x00 + ACK
2.092709250000000,I2C,Setup Read to [0x3A] + ACK
2.092741000000000,I2C,0x69 + ACK
2.092772000000000,I2C,0x25 + NAK
2.093594500000000,I2C,Setup Write to [0x3A] + ACK
2.093627750000000,I2C,0x00 + ACK
2.094352500000000,I2C,Setup Read to [0x3A] + ACK
2.094384000000000,I2C,0x69 + ACK
2.094415000000000,I2C,0xA5 + NAK
2.095239500000000,I2C,Setup Write to [0x3A] + ACK
2.095272250000000,I2C,0x08 + ACK
2.095304250000000,I2C,0x42 + ACK
2.096304750000000,I2C,Setup Write to [0x3A] + ACK
2.096337500000000,I2C,0x09 + ACK
2.096369500000000,I2C,0x40 + ACK
2.100305750000000,I2C,Setup Write to [0x3A] + ACK
2.100338500000000,I2C,0x00 + ACK
2.101062750000000,I2C,Setup Read to [0x3A] + ACK
2.101095250000000,I2C,0x69 + ACK
2.101953750000000,I2C,Setup Write to [0x3A] + ACK
2.101986250000000,I2C,0x00 + ACK
2.102710500000000,I2C,Setup Read to [0x3A] + ACK
2.102742500000000,I2C,0x69 + ACK
2.102773500000000,I2C,0x55 + NAK
2.103595500000000,I2C,Setup Write to [0x3A] + ACK
2.103628750000000,I2C,0x00 + ACK
2.104353000000000,I2C,Setup Read to [0x3A] + ACK
2.104384750000000,I2C,0x69 + ACK
2.105239500000000,I2C,Setup Write to [0x3A] + ACK
2.105272500000000,I2C,0x08 + ACK
2.105304250000000,I2C,0x62 + Missing ACK/NAK
2.106309000000000,I2C,Setup Write to [0x3A] + ACK
2.106341750000000,I2C,0x09 + ACK
2.106373500000000,I2C,0x40 + ACK
2.110311000000000,I2C,Setup Write to [0x3A] + ACK
2.110343750000000,I2C,0x00 + ACK
2.111068000000000,I2C,Setup Read to [0x3A] + ACK
2.111100750000000,I2C,0x69 + ACK
2.111133000000000,I2C,0x51 + NAK
2.111960000000000,I2C,Setup Write to [0x3A] + ACK
2.111992500000000,I2C,0x00 + ACK
2.112716750000000,I2C,Setup Read to [0x3A] + ACK
2.112748500000000,I2C,0x69 + ACK
2.113601750000000,I2C,Setup Write to [0x3A] + ACK
2.113634000000000,I2C,0x00 + ACK
2.114358250000000,I2C,Setup Read to [0x3A] + ACK
2.114389750000000,I2C,0x69 + ACK
2.114420750000000,I2C,0xD1 + NAK
2.115250000000000,I2C,Setup Write to [0x3A] + ACK
2.115282750000000,I2C,0x08 + ACK
2.115315250000000,I2C,0x63 + ACK
2.116314000000000,I2C,Setup Write to [0x3A] + ACK
2.116346750000000,I2C,0x09 + ACK
2.116378750000000,I2C,0x40 + ACK
2.120313250000000,I2C,Setup Write to [0x3A] + ACK
2.120346250000000,I2C,0x00 + ACK
2.121070500000000,I2C,Setup Read to [0x3A] + ACK
2.121103000000000,I2C,0x69 + ACK
2.121961500000000,I2C,Setup Write to [0x3A] + ACK
2.121994000000000,I2C,0x00 + ACK
2.122718250000000,I2C,Setup Read to [0x3A] + ACK
2.122750250000000,I2C,0x69 + ACK
2.122781250000000,I2C,0xA9 + NAK
2.123603000000000,I2C,Setup Write to [0x3A] + ACK
2.123636500000000,I2C,0x00 + ACK
2.124360750000000,I2C,Setup Read to [0x3A] + ACK
2.124392250000000,I2C,0x69 + ACK
2.125249750000000,I2C,Setup Write to [0x3A] + ACK
2.125282250000000,I2C,0x08 + ACK
2.125314250000000,I2C,0x62 + ACK
2.126316250000000,I2C,Setup Write to [0x3A] + ACK
2.126349000000000,I2C,0x09 + ACK
2.126381000000000,I2C,0x40 + ACK
2.130319250000000,I2C,Setup Write to [0x3A] + ACK
2.130352000000000,I2C,0x00 + ACK
2.131076250000000,I2C,Setup Read to [0x3A] + ACK
2.131109000000000,I2C,0x69 + ACK
2.131141000000000,I2C,0xD1 + NAK
2.132402500000000,I2C,Setup Write to [0x3A] + ACK
2.132435250000000,I2C,0x00 + ACK
2.133159500000000,I2C,Setup Read to [0x3A] + ACK
2.133191250000000,I2C,0x69 + ACK
2.134049500000000,I2C,Setup Write to [0x3A] + ACK
2.134082000000000,I2C,0x00 + ACK
2.134807250000000,I2C,Setup Read to [0x3A] + ACK
2.134840500000000,I2C,0x69 + ACK
2.134872000000000,I2C,0x51 + NAK
2.135706000000000,I2C,Setup Write to [0x3A] + ACK
2.135738750000000,I2C,0x08 + ACK
2.135771000000000,I2C,0x62 + ACK
2.137317750000000,I2C,Setup Write to [0x3A] + ACK
2.137350500000000,I2C,0x09 + ACK
2.137382250000000,I2C,0x41 + Missing ACK/NAK
2.141321500000000,I2C,Setup Write to [0x3A] + ACK
2.141354500000000,I2C,0x00 + ACK
2.142079000000000,I2C,Setup Read to [0x3A] + ACK
2.142111250000000,I2C,0x69 + ACK
2.142142750000000,I2C,0xB1 + NAK
2.142969500000000,I2C,Setup Write to [0x3A] + ACK
2.143002250000000,I2C,0x00 + ACK
2.143727250000000,I2C,Setup Read to [0x3A] + ACK
2.144624750000000,I2C,Setup Write to [0x3A] + ACK
2.144657250000000,I2C,0x00 + ACK
2.145381500000000,I2C,Setup Read to [0x3A] + ACK
2.145413000000000,I2C,0x69 + ACK
2.145444000000000,I2C,0xB1 + NAK
2.146267250000000,I2C,Setup Write to [0x3A] + ACK
2.146299750000000,I2C,0x08 + ACK
2.146331750000000,I2C,0x62 + ACK
2.147323250000000,I2C,Setup Write to [0x3A] + ACK
2.147356000000000,I2C,0x09 + ACK
2.147387750000000,I2C,0x61 + ACK
2.151325750000000,I2C,Setup Write to [0x3A] + ACK
2.151358750000000,I2C,0x00 + ACK
2.152082750000000,I2C,Setup Read to [0x3A] + ACK
2.152115250000000,I2C,0x69 + ACK
2.152974500000000,I2C,Setup Write to [0x3A] + ACK
2.153007000000000,I2C,0x00 + ACK
2.153731250000000,I2C,Setup Read to [0x3A] + ACK
2.153763250000000,I2C,0x69 + ACK
2.153794250000000,I2C,0xA9 + NAK
2.154616500000000,I2C,Setup Write to [0x3A] + ACK
2.154648750000000,I2C,0x00 + ACK
2.155372750000000,I2C,Setup Read to [0x3A] + ACK
2.155404500000000,I2C,0x69 + ACK
2.156261500000000,I2C,Setup Write to [0x3A] + ACK
2.156294000000000,I2C,0x08 + ACK
2.156326250000000,I2C,0x62 + ACK
2.157328250000000,I2C,Setup Write to [0x3A] + ACK
2.157360750000000,I2C,0x09 + ACK
2.157392750000000,I2C,0x41 + ACK
2.161328500000000,I2C,Setup Write to [0x3A] + ACK
2.161361250000000,I2C,0x00 + ACK
2.162085500000000,I2C,Setup Read to [0x3A] + ACK
2.162118250000000,I2C,0x69 + ACK
2.162149500000000,I2C,0xB1 + NAK
2.162976000000000,I2C,Setup Write to [0x3A] + ACK
2.163008500000000,I2C,0x00 + ACK
2.163732750000000,I2C,Setup Read to [0x3A] + ACK
2.163764500000000,I2C,0x69 + ACK
2.164617750000000,I2C,Setup Write to [0x3A] + ACK
2.164651000000000,I2C,0x00 + ACK
2.165375250000000,I2C,Setup Read to [0x3A] + ACK
2.165407250000000,I2C,0x69 + ACK
2.165438750000000,I2C,0xB1 + NAK
2.166268250000000,I2C,Setup Write to [0x3A] + ACK
2.166301000000000,I2C,0x08 + ACK
2.166332750000000,I2C,0x62 + ACK
2.167331500000000,I2C,Setup Write to [0x3A] + ACK
2.167364250000000,I2C,0x09 + ACK
2.167396000000000,I2C,0x42 + ACK
2.171334000000000,I2C,Setup Write to [0x3A] + ACK
2.171366750000000,I2C,0x00 + ACK
2.172091000000000,I2C,Setup Read to [0x3A] + ACK
2.172982250000000,I2C,Setup Write to [0x3A] + ACK
2.173014750000000,I2C,0x00 + ACK
2.173739250000000,I2C,Setup Read to [0x3A] + ACK
2.173771000000000,I2C,0x69 + ACK
2.173802000000000,I2C,0x99 + NAK
2.174624250000000,I2C,Setup Write to [0x3A] + ACK
2.174657750000000,I2C,0x00 + ACK
2.175382000000000,I2C,Setup Read to [0x3A] + ACK
2.175413750000000,I2C,0x69 + ACK
2.175444500000000,I2C,0x99 + NAK
2.176269000000000,I2C,Setup Write to [0x3A] + ACK
2.176301750000000,I2C,0x09 + ACK
2.176334000000000,I2C,0x40 + ACK
2.177335000000000,I2C,Setup Write to [0x3A] + ACK
2.177367750000000,I2C,0x08 + ACK
2.177399500000000,I2C,0x62 + ACK
2.181336250000000,I2C,Setup Write to [0x3A] + ACK
2.181369000000000,I2C,0x00 + ACK
2.182093250000000,I2C,Setup Read to [0x3A] + ACK
2.182126000000000,I2C,0x69 + ACK
2.182157500000000,I2C,0x51 + NAK
2.182984500000000,I2C,Setup Write to [0x3A] + ACK
2.183017000000000,I2C,0x00 + ACK
2.183741250000000,I2C,Setup Read to [0x3A] + ACK
2.183773250000000,I2C,0x69 + ACK
2.184626000000000,I2C,Setup Write to [0x3A] + ACK
2.184659500000000,I2C,0x00 + ACK
2.185383500000000,I2C,Setup Read to [0x3A] + ACK
2.185415250000000,I2C,0x69 + ACK
2.185446000000000,I2C,0x51 + NAK
2.186269750000000,I2C,Setup Write to [0x3A] + ACK
2.186302500000000,I2C,0x09 + ACK
2.186334250000000,I2C,0x40 + ACK
2.187338500000000,I2C,Setup Write to [0x3A] + ACK
2.187371000000000,I2C,0x08 + ACK
2.187403000000000,I2C,0x63 + ACK
2.191341000000000,I2C,Setup Write to [0x3A] + ACK
2.191373750000000,I2C,0x00 + ACK
2.192098250000000,I2C,Setup Read to [0x3A] + ACK
2.192131000000000,I2C,0x69 + ACK
2.192989750000000,I2C,Setup Write to [0x3A] + ACK
2.193022500000000,I2C,0x00 + ACK
2.193746500000000,I2C,Setup Read to [0x3A] + ACK
2.193778500000000,I2C,0x69 + ACK
2.193809250000000,I2C,0x29 + NAK
2.194632000000000,I2C,Setup Write to [0x3A] + ACK
2.194670000000000,I2C,0x00 + ACK
2.195394500000000,I2C,Setup Read to [0x3A] + ACK
2.196290250000000,I2C,Setup Write to [0x3A] + ACK
2.196322750000000,I2C,0x09 + ACK
2.196355000000000,I2C,0x40 + ACK
2.197343250000000,I2C,Setup Write to [0x3A] + ACK
2.197376000000000,I2C,0x08 + ACK
2.197407750000000,I2C,0x61 + ACK
2.201344500000000,I2C,Setup Write to [0x3A] + ACK
2.201377250000000,I2C,0x00 + ACK
2.202101500000000,I2C,Setup Read to [0x3A] + ACK
2.202134000000000,I2C,0x69 + ACK
2.202165500000000,I2C,0x31 + NAK
2.202992500000000,I2C,Setup Write to [0x3A] + ACK
2.203025250000000,I2C,0x00 + ACK
2.203749250000000,I2C,Setup Read to [0x3A] + ACK
2.203781250000000,I2C,0x69 + ACK
2.204633750000000,I2C,Setup Write to [0x3A] + ACK
2.204667250000000,I2C,0x00 + ACK
2.205391500000000,I2C,Setup Read to [0x3A] + ACK
2.205423250000000,I2C,0x69 + ACK
2.205454250000000,I2C,0x31 + NAK
2.206280250000000,I2C,Setup Write to [0x3A] + ACK
2.206313000000000,I2C,0x08 + ACK
2.206344750000000,I2C,0x61 + ACK
2.207346500000000,I2C,Setup Write to [0x3A] + ACK
2.207379250000000,I2C,0x09 + ACK
2.207411250000000,I2C,0x40 + ACK
2.211349250000000,I2C,Setup Write to [0x3A] + ACK
2.211382000000000,I2C,0x00 + ACK
2.212106250000000,I2C,Setup Read to [0x3A] + ACK
2.212138750000000,I2C,0x69 + ACK
2.212997500000000,I2C,Setup Write to [0x3A] + ACK
2.213030250000000,I2C,0x00 + ACK
2.213754500000000,I2C,Setup Read to [0x3A] + ACK
2.213786750000000,I2C,0x69 + ACK
2.213817500000000,I2C,0x31 + NAK
2.214639750000000,I2C,Setup Write to [0x3A] + ACK
2.214673000000000,I2C,0x00 + ACK
2.215397250000000,I2C,Setup Read to [0x3A] + ACK
2.215428750000000,I2C,0x69 + ACK
2.215459750000000,I2C,0xD1 + NAK
2.216283750000000,I2C,Setup Write to [0x3A] + ACK
2.216316250000000,I2C,0x08 + ACK
2.216348500000000,I2C,0x61 + Missing ACK/NAK
2.217350250000000,I2C,Setup Write to [0x3A] + ACK
2.217382750000000,I2C,0x09 + ACK
2.217414750000000,I2C,0x41 + Missing ACK/NAK
2.221352250000000,I2C,Setup Write to [0x3A] + ACK
2.221385000000000,I2C,0x00 + ACK
2.222109250000000,I2C,Setup Read to [0x3A] + ACK
2.222141750000000,I2C,0x69 + ACK
2.222173500000000,I2C,0xB1 + NAK
2.223001250000000,I2C,Setup Write to [0x3A] + ACK
2.223033750000000,I2C,0x00 + ACK
2.223757750000000,I2C,Setup Read to [0x3A] + ACK
2.223789750000000,I2C,0x69 + ACK
2.223820500000000,I2C,0xB1 + NAK
2.224642500000000,I2C,Setup Write to [0x3A] + ACK
2.224675500000000,I2C,0x00 + ACK
2.225399750000000,I2C,Setup Read to [0x3A] + ACK
2.225431750000000,I2C,0x69 + ACK
2.225463250000000,I2C,0xB1 + NAK
2.226293250000000,I2C,Setup Write to [0x3A] + ACK
2.226325750000000,I2C,0x08 + ACK
2.226357750000000,I2C,0x61 + ACK
2.227354250000000,I2C,Setup Write to [0x3A] + ACK
2.227386750000000,I2C,0x09 + ACK
2.227418750000000,I2C,0x61 + ACK
2.231356750000000,I2C,Setup Write to [0x3A] + ACK
2.231389500000000,I2C,0x00 + ACK
2.232113500000000,I2C,Setup Read to [0x3A] + ACK
2.232146000000000,I2C,0x69 + ACK
2.233004750000000,I2C,Setup Write to [0x3A] + ACK
2.233037500000000,I2C,0x00 + ACK
2.233761750000000,I2C,Setup Read to [0x3A] + ACK
2.233793750000000,I2C,0x69 + ACK
2.233824500000000,I2C,0xA9 + NAK
2.234646500000000,I2C,Setup Write to [0x3A] + ACK
2.234678750000000,I2C,0x00 + ACK
2.235403000000000,I2C,Setup Read to [0x3A] + ACK
2.235434750000000,I2C,0x69 + ACK
2.235465750000000,I2C,0xA9 + NAK
2.236291250000000,I2C,Setup Write to [0x3A] + ACK
2.236323750000000,I2C,0x08 + ACK
2.236356000000000,I2C,0x62 + ACK
2.237358250000000,I2C,Setup Write to [0x3A] + ACK
2.237391000000000,I2C,0x09 + ACK
2.237423000000000,I2C,0x40 + ACK
2.241359000000000,I2C,Setup Write to [0x3A] + ACK
2.241391750000000,I2C,0x00 + ACK
2.242116000000000,I2C,Setup Read to [0x3A] + ACK
2.242148750000000,I2C,0x69 + ACK
2.242180250000000,I2C,0xD1 + NAK
2.243007250000000,I2C,Setup Write to [0x3A] + ACK
2.243040000000000,I2C,0x00 + ACK
2.243764000000000,I2C,Setup Read to [0x3A] + ACK
2.243796000000000,I2C,0x69 + ACK
2.244648750000000,I2C,Setup Write to [0x3A] + ACK
2.244682000000000,I2C,0x00 + ACK
2.245406250000000,I2C,Setup Read to [0x3A] + ACK
2.245438000000000,I2C,0x69 + ACK
2.245469000000000,I2C,0xD1 + NAK
2.246292250000000,I2C,Setup Write to [0x3A] + ACK
2.246325000000000,I2C,0x08 + ACK
2.246357000000000,I2C,0x62 + ACK
2.247362000000000,I2C,Setup Write to [0x3A] + ACK
2.247394750000000,I2C,0x09 + ACK
2.247426750000000,I2C,0x41 + ACK
2.251364250000000,I2C,Setup Write to [0x3A] + ACK
2.251397250000000,I2C,0x00 + ACK
2.252121250000000,I2C,Setup Read to [0x3A] + ACK
2.252153750000000,I2C,0x69 + ACK
2.252186000000000,I2C,0xB1 + NAK
2.253012750000000,I2C,Setup Write to [0x3A] + ACK
2.253045250000000,I2C,0x00 + ACK
2.253769500000000,I2C,Setup Read to [0x3A] + ACK
2.253801500000000,I2C,0x69 + ACK
2.253832500000000,I2C,0xB1 + NAK
2.254654750000000,I2C,Setup Write to [0x3A] + ACK
2.254691000000000,I2C,0x00 + ACK
2.255415250000000,I2C,Setup Read to [0x3A] + ACK
2.255447250000000,I2C,0x69 + ACK
2.256310750000000,I2C,Setup Write to [0x3A] + ACK
2.256343250000000,I2C,0x08 + ACK
2.256375500000000,I2C,0x62 + ACK
2.257366000000000,I2C,Setup Write to [0x3A] + ACK
2.257398750000000,I2C,0x09 + ACK
2.257430500000000,I2C,0x61 + ACK
2.261367000000000,I2C,Setup Write to [0x3A] + ACK
2.261399750000000,I2C,0x00 + ACK
2.262124250000000,I2C,Setup Read to [0x3A] + ACK
2.262156750000000,I2C,0x69 + ACK
2.262188250000000,I2C,0xA9 + NAK
2.263015000000000,I2C,Setup Write to [0x3A] + ACK
2.263047500000000,I2C,0x00 + ACK
2.263771750000000,I2C,Setup Read to [0x3A] + ACK
2.263803500000000,I2C,0x69 + ACK
2.264656500000000,I2C,Setup Write to [0x3A] + ACK
2.264689750000000,I2C,0x00 + ACK
2.265414000000000,I2C,Setup Read to [0x3A] + ACK
2.265445750000000,I2C,0x69 + ACK
2.265476750000000,I2C,0xA9 + NAK
2.266302500000000,I2C,Setup Write to [0x3A] + ACK
2.266335250000000,I2C,0x08 + ACK
2.266367250000000,I2C,0x63 + ACK
2.267369250000000,I2C,Setup Write to [0x3A] + ACK
2.267402000000000,I2C,0x09 + ACK
2.267434000000000,I2C,0x40 + ACK
2.271372000000000,I2C,Setup Write to [0x3A] + ACK
2.271404750000000,I2C,0x00 + ACK
2.272129000000000,I2C,Setup Read to [0x3A] + ACK
2.272161500000000,I2C,0x69 + ACK
2.273020250000000,I2C,Setup Write to [0x3A] + ACK
2.273053000000000,I2C,0x00 + ACK
2.273777250000000,I2C,Setup Read to [0x3A] + ACK
2.273809250000000,I2C,0x69 + ACK
2.273840000000000,I2C,0xA9 + NAK
2.274662500000000,I2C,Setup Write to [0x3A] + ACK
2.274695750000000,I2C,0x00 + ACK
2.275420000000000,I2C,Setup Read to [0x3A] + ACK
2.275451500000000,I2C,0x69 + ACK
2.276306000000000,I2C,Setup Write to [0x3A] + ACK
2.276338500000000,I2C,0x08 + ACK
2.276370750000000,I2C,0x63 + ACK
2.277373500000000,I2C,Setup Write to [0x3A] + ACK
2.277406000000000,I2C,0x09 + ACK
2.277438000000000,I2C,0x41 + ACK
2.281374500000000,I2C,Setup Write to [0x3A] + ACK
2.281407250000000,I2C,0x00 + ACK
2.282131500000000,I2C,Setup Read to [0x3A] + ACK
2.282164000000000,I2C,0x69 + ACK
2.282195500000000,I2C,0x19 + NAK
2.283022250000000,I2C,Setup Write to [0x3A] + ACK
2.283054750000000,I2C,0x00 + ACK
2.283779250000000,I2C,Setup Read to [0x3A] + ACK
2.283811000000000,I2C,0x69 + ACK
2.284663750000000,I2C,Setup Write to [0x3A] + ACK
2.284697000000000,I2C,0x00 + ACK
2.285421250000000,I2C,Setup Read to [0x3A] + ACK
2.285453250000000,I2C,0x69 + ACK
2.285484500000000,I2C,0x99 + NAK
2.286315250000000,I2C,Setup Write to [0x3A] + ACK
2.286348000000000,I2C,0x08 + ACK
2.286379750000000,I2C,0x63 + ACK
2.287377000000000,I2C,Setup Write to [0x3A] + ACK
2.287410000000000,I2C,0x09 + ACK
2.287441750000000,I2C,0x61 + ACK
2.291379250000000,I2C,Setup Write to [0x3A] + ACK
2.291412000000000,I2C,0x00 + ACK
2.292136250000000,I2C,Setup Read to [0x3A] + ACK
2.292168750000000,I2C,0x69 + ACK
2.292200750000000,I2C,0x39 + NAK
2.293027250000000,I2C,Setup Write to [0x3A] + ACK
2.293059750000000,I2C,0x00 + ACK
2.293784000000000,I2C,Setup Read to [0x3A] + ACK
2.293816000000000,I2C,0x69 + ACK
2.293847000000000,I2C,0x39 + NAK
2.294669250000000,I2C,Setup Write to [0x3A] + ACK
2.294701500000000,I2C,0x00 + ACK
2.295425750000000,I2C,Setup Read to [0x3A] + ACK
2.295457500000000,I2C,0x69 + ACK
2.295488500000000,I2C,0x39 + NAK
2.296315250000000,I2C,Setup Write to [0x3A] + ACK
2.296347750000000,I2C,0x08 + ACK
2.296380000000000,I2C,0x62 + ACK
2.297381000000000,I2C,Setup Write to [0x3A] + ACK
2.297413750000000,I2C,0x09 + ACK
2.297445750000000,I2C,0x40 + ACK
2.298382000000000,I2C,Setup Write to [0x3A] + ACK
2.298415000000000,I2C,0x03 + ACK
2.298447000000000,I2C,0x40 + ACK
2.302382250000000,I2C,Setup Write to [0x3A] + ACK
2.302415000000000,I2C,0x00 + ACK
2.303139250000000,I2C,Setup Read to [0x3A] + ACK
2.303171750000000,I2C,0x69 + ACK
2.304029750000000,I2C,Setup Write to [0x3A] + ACK
2.304062500000000,I2C,0x00 + ACK
2.304786750000000,I2C,Setup Read to [0x3A] + ACK
2.304818750000000,I2C,0x69 + ACK
2.304849750000000,I2C,0xD1 + NAK
2.305671250000000,I2C,Setup Write to [0x3A] + ACK
2.305704000000000,I2C,0x00 + ACK
2.306428250000000,I2C,Setup Read to [0x3A] + ACK
2.306459750000000,I2C,0x69 + ACK
2.307315750000000,I2C,Setup Write to [0x3A] + ACK
2.307348500000000,I2C,0x03 + Missing ACK/NAK
2.307380500000000,I2C,Setup Read to [0x20] + ACK
2.311386500000000,I2C,Setup Write to [0x3A] + ACK
2.311419500000000,I2C,0x00 + ACK
2.312143750000000,I2C,Setup Read to [0x3A] + ACK
2.312176250000000,I2C,0x69 + ACK
2.312208000000000,I2C,0xB1 + NAK
2.313034750000000,I2C,Setup Write to [0x3A] + ACK
2.313067250000000,I2C,0x00 + ACK
2.313791750000000,I2C,Setup Read to [0x3A] + ACK
2.313823500000000,I2C,0x69 + ACK
2.313854500000000,I2C,0x31 + NAK
2.314677250000000,I2C,Setup Write to [0x3A] + ACK
2.314716500000000,I2C,0x00 + ACK
2.315440750000000,I2C,Setup Read to [0x3A] + ACK
2.315472750000000,I2C,0x69 + ACK
2.315504250000000,I2C,0x31 + NAK
2.316337250000000,I2C,Setup Write to [0x3A] + ACK
2.316370000000000,I2C,0x03 + Missing ACK/NAK
2.316402250000000,I2C,Setup Write to [0x21] + ACK
2.320389750000000,I2C,Setup Write to [0x3A] + ACK
2.320422500000000,I2C,0x00 + ACK
2.321146750000000,I2C,Setup Read to [0x3A] + ACK
2.321179250000000,I2C,0x69 + ACK
2.321210750000000,I2C,0x51 + NAK
2.322037750000000,I2C,Setup Write to [0x3A] + ACK
2.322070500000000,I2C,0x00 + ACK
2.322795000000000,I2C,Setup Read to [0x3A] + ACK
2.322827000000000,I2C,0x69 + ACK
2.322858000000000,I2C,0x51 + NAK
2.323680000000000,I2C,Setup Write to [0x3A] + ACK
2.323713250000000,I2C,0x00 + ACK
2.324437500000000,I2C,Setup Read to [0x3A] + ACK
2.324469250000000,I2C,0x69 + ACK
2.324500000000000,I2C,0x51 + NAK
2.325326000000000,I2C,Setup Write to [0x3A] + ACK
2.325358500000000,I2C,0x08 + ACK
2.325390500000000,I2C,0x40 + ACK
2.326393000000000,I2C,Setup Write to [0x3A] + ACK
2.326425750000000,I2C,0x09 + ACK
2.326457750000000,I2C,0x40 + ACK
2.327391750000000,I2C,Setup Write to [0x3A] + ACK
2.327424500000000,I2C,0x03 + ACK
2.327456250000000,I2C,0x40 + ACK
2.328395750000000,I2C,Setup Write to [0x3A] + ACK
2.328428500000000,I2C,0x00 + ACK
2.328460250000000,I2C,0x02 + ACK
2.328492250000000,I2C,0x44 + ACK
2.328524000000000,I2C,0x40 + ACK
2.328556000000000,I2C,0x40 + ACK
2.328588000000000,I2C,0x05 + ACK
2.328619750000000,I2C,0x69 + ACK
2.328651750000000,I2C,0x17 + ACK
2.328683500000000,I2C,0x75 + ACK
2.328715750000000,I2C,0x40 + ACK
2.328747500000000,I2C,0x40 + ACK
2.328779500000000,I2C,0x06 + ACK
2.328811500000000,I2C,0x08 + ACK
2.328843250000000,I2C,0x89 + ACK
2.328875250000000,I2C,0xA4 + ACK
2.328907000000000,I2C,0x95 + ACK
2.328939000000000,I2C,0x9C + ACK
2.328970750000000,I2C,0x73 + ACK
2.329002750000000,I2C,0x02 + ACK
2.329034750000000,I2C,0x72 + ACK
2.329066500000000,I2C,0x20 + ACK
2.329098500000000,I2C,0x0B + ACK
2.329130250000000,I2C,0xAA + ACK
2.329162250000000,I2C,0xAA + ACK
2.329194000000000,I2C,0x28 + ACK
2.329226000000000,I2C,0x30 + ACK
2.329258000000000,I2C,0x40 + ACK
2.329289750000000,I2C,0x87 + ACK
2.329321750000000,I2C,0xC2 + ACK
2.329353500000000,I2C,0x25 + ACK
2.329385500000000,I2C,0x30 + ACK
2.329417250000000,I2C,0x26 + ACK
2.329449250000000,I2C,0x47 + ACK
2.330396500000000,I2C,Setup Write to [0x3A] + ACK
2.330429250000000,I2C,0x01 + ACK
2.330461500000000,I2C,0x45 + Missing ACK/NAK
2.331396000000000,I2C,Setup Write to [0x3A] + ACK
2.331428750000000,I2C,0x1E + ACK
2.331460750000000,I2C,0xA6 + ACK
2.332393750000000,I2C,Setup Write to [0x3A] + ACK
2.332426500000000,I2C,0x0F + Missing ACK/NAK
2.332458250000000,I2C,Setup Write to [0x72] + ACK
2.333394250000000,I2C,Setup Write to [0x3A] + ACK
2.333427000000000,I2C,0x1D + ACK
2.333458750000000,I2C,0x30 + ACK
2.334394000000000,I2C,Setup Write to [0x3A] + ACK
2.334427250000000,I2C,0x13 + ACK
2.334459250000000,I2C,0x40 + ACK
2.335400000000000,I2C,Setup Write to [0x3A] + ACK
2.335433000000000,I2C,0x13 + ACK
2.335465000000000,I2C,0x00 + ACK
2.346396750000000,I2C,Setup Write to [0x3A] + ACK
2.346429750000000,I2C,0x0F + ACK
2.346461750000000,I2C,0xE4 + ACK
2.347399750000000,I2C,Setup Write to [0x3A] + ACK
2.347432250000000,I2C,0x10 + ACK
2.347464250000000,I2C,0x63 + ACK
2.398422000000000,I2C,Setup Write to [0x3A] + ACK
2.398455500000000,I2C,0x00 + ACK
2.399179750000000,I2C,Setup Read to [0x3A] + ACK
2.399212250000000,I2C,0x69 + ACK
2.399244000000000,I2C,0x01 + ACK
2.399275500000000,I2C,0x92 + NAK
2.400108000000000,I2C,Setup Write to [0x3A] + ACK
2.400140500000000,I2C,0x01 + ACK
2.400172750000000,I2C,0x45 + ACK
2.401418500000000,I2C,Setup Write to [0x3A] + ACK
2.401451250000000,I2C,0x1E + ACK
2.401483000000000,I2C,0xA6 + ACK
2.402424500000000,I2C,Setup Write to [0x3A] + ACK
2.402457250000000,I2C,0x0F + ACK
2.402489250000000,I2C,0xE4 + ACK
2.403423000000000,I2C,Setup Write to [0x3A] + ACK
2.403455500000000,I2C,0x1D + ACK
2.403487500000000,I2C,0x30 + ACK
2.404421250000000,I2C,Setup Write to [0x3A] + ACK
2.404454250000000,I2C,0x13 + ACK
2.404486000000000,I2C,0x40 + ACK
2.405427250000000,I2C,Setup Write to [0x3A] + ACK
2.405460250000000,I2C,0x13 + Missing ACK/NAK
2.405492250000000,I2C,Setup Write to [0x00] + ACK
2.416424250000000,I2C,Setup Write to [0x3A] + ACK
2.416457250000000,I2C,0x0F + ACK
2.416489500000000,I2C,0xE4 + ACK
2.417428500000000,I2C,Setup Write to [0x3A] + ACK
2.417461250000000,I2C,0x10 + ACK
2.417493000000000,I2C,0x63 + ACK
2.468448000000000,I2C,Setup Write to [0x3A] + ACK
2.468481000000000,I2C,0x00 + ACK
2.469205250000000,I2C,Setup Read to [0x3A] + ACK
2.469251000000000,I2C,Setup Write to [0x48] + ACK
2.469282750000000,I2C,0x14 + NAK
2.470134500000000,I2C,Setup Write to [0x3A] + ACK
2.470167250000000,I2C,0x01 + ACK
2.470199250000000,I2C,0x45 + ACK
2.471447750000000,I2C,Setup Write to [0x3A] + ACK
2.471480500000000,I2C,0x1E + ACK
2.471512750000000,I2C,0xA6 + ACK
2.472447000000000,I2C,Setup Write to [0x3A] + ACK
2.472479750000000,I2C,0x0F + ACK
2.472511500000000,I2C,0xE4 + ACK
2.473447000000000,I2C,Setup Write to [0x3A] + ACK
2.473479500000000,I2C,0x1D + ACK
2.473511500000000,I2C,0x30 + ACK
2.474451000000000,I2C,Setup Write to [0x3A] + ACK
2.474484250000000,I2C,0x13 + ACK
2.474516000000000,I2C,0x40 + ACK
2.475451000000000,I2C,Setup Write to [0x3A] + ACK
2.475484250000000,I2C,0x13 + ACK
2.475516000000000,I2C,0x00 + ACK
2.486449250000000,I2C,Setup Write to [0x3A] + ACK
2.486482250000000,I2C,0x0F + ACK
2.486514000000000,I2C,0xE4 + ACK
2.487451750000000,I2C,Setup Write to [0x3A] + ACK
2.487484500000000,I2C,0x10 + ACK
2.487516500000000,I2C,0x63 + ACK
2.538474250000000,I2C,Setup Write to [0x3A] + ACK
2.538507250000000,I2C,0x00 + ACK
2.539232000000000,I2C,Setup Read to [0x3A] + ACK
2.539264500000000,I2C,0x69 + ACK
2.539296250000000,I2C,0x01 + ACK
2.539327750000000,I2C,0x92 + NAK
2.540160250000000,I2C,Setup Write to [0x3A] + ACK
2.540192750000000,I2C,0x00 + ACK
2.540224750000000,I2C,0x02 + ACK
2.540256750000000,I2C,0x44 + ACK
2.540288500000000,I2C,0x40 + ACK
2.540320500000000,I2C,0x40 + ACK
2.540352500000000,I2C,0x05 + ACK
2.540384250000000,I2C,0x69 + ACK
2.540416250000000,I2C,0x17 + ACK
2.540448000000000,I2C,0x75 + ACK
2.540480000000000,I2C,0x40 + ACK
2.540512000000000,I2C,0x40 + ACK
2.540543750000000,I2C,0x06 + ACK
2.540575750000000,I2C,0x08 + ACK
2.540607500000000,I2C,0x89 + ACK
2.540639500000000,I2C,0xA4 + ACK
2.540671500000000,I2C,0x95 + ACK
2.540703250000000,I2C,0x9C + ACK
2.540735250000000,I2C,0x73 + ACK
2.540767000000000,I2C,0x02 + ACK
2.540799750000000,I2C,0x72 + ACK
2.540831750000000,I2C,0x20 + ACK
2.540863500000000,I2C,0x0B + ACK
2.540895500000000,I2C,0xAA + ACK
2.540927250000000,I2C,0xAA + ACK
2.540959250000000,I2C,0x28 + ACK
2.540991250000000,I2C,0x30 + ACK
2.541023000000000,I2C,0x40 + ACK
2.541055000000000,I2C,0x87 + ACK
2.541086750000000,I2C,0xC2 + ACK
2.541118750000000,I2C,0x25 + ACK
2.541150500000000,I2C,0x30 + ACK
2.541182500000000,I2C,0x26 + ACK
2.541214500000000,I2C,0x47 + ACK
2.982917250000000,I2C,Setup Write to [0x3A] + ACK
2.982951500000000,I2C,0x00 + ACK
2.982983750000000,I2C,0x02 + ACK
2.983015750000000,I2C,0x44 + ACK
2.983047500000000,I2C,0x40 + ACK
2.983079500000000,I2C,0x40 + ACK
2.983111250000000,I2C,0x05 + ACK
2.983143250000000,I2C,0x69 + ACK
2.983175250000000,I2C,0x17 + ACK
2.983207000000000,I2C,0x75 + ACK
2.983239000000000,I2C,0x40 + ACK
2.983270750000000,I2C,0x40 + ACK
2.983302750000000,I2C,0x06 + ACK
2.983334500000000,I2C,0x08 + ACK
2.983366500000000,I2C,0x89 + ACK
2.983398500000000,I2C,0xA4 + ACK
2.983430250000000,I2C,0x95 + ACK
2.983462250000000,I2C,0x9C + ACK
2.983494000000000,I2C,0x73 + ACK
2.983526000000000,I2C,0x02 + ACK
2.983557750000000,I2C,0x72 + ACK
2.983589750000000,I2C,0x20 + ACK
2.983621750000000,I2C,0x0B + ACK
2.983653500000000,I2C,0xAA + ACK
2.983685500000000,I2C,0xAA + ACK
2.983717250000000,I2C,0x28 + ACK
2.983749250000000,I2C,0x30 + ACK
2.983781000000000,I2C,0x40 + ACK
2.983813000000000,I2C,0x87 + ACK
2.983845000000000,I2C,0xC2 + ACK
2.983876750000000,I2C,0x25 + ACK
2.983908750000000,I2C,0x30 + ACK
2.983942000000000,I2C,0x26 + ACK
2.983974000000000,I2C,0x47 + Missing ACK/NAK
2.985649000000000,I2C,Setup Write to [0x3A] + ACK
2.985682000000000,I2C,0x00 + ACK
2.985714250000000,I2C,0x02 + ACK
2.985746000000000,I2C,0x44 + ACK
2.985778000000000,I2C,0x40 + ACK
2.985810000000000,I2C,0x40 + ACK
2.985841750000000,I2C,0x05 + ACK
2.985873750000000,I2C,0x69 + ACK
2.985905500000000,I2C,0x17 + ACK
2.985941750000000,I2C,0x75 + ACK
2.985973500000000,I2C,0x40 + ACK
2.986005500000000,I2C,0x40 + ACK
2.986037500000000,I2C,0x06 + ACK
2.986069250000000,I2C,0x08 + ACK
2.986101250000000,I2C,0x89 + ACK
2.986133000000000,I2C,0xA4 + ACK
2.986165000000000,I2C,0x95 + ACK
2.986196750000000,I2C,0x9C + ACK
2.986228750000000,I2C,0x73 + ACK
2.986260750000000,I2C,0x02 + ACK
2.986292500000000,I2C,0x72 + ACK
2.986324500000000,I2C,0x20 + ACK
2.986356250000000,I2C,0x0B + ACK
2.986388250000000,I2C,0xAA + ACK
2.986420000000000,I2C,0xAA + ACK
2.986452000000000,I2C,0x28 + ACK
2.986484000000000,I2C,0x30 + ACK
2.986515750000000,I2C,0x40 + ACK
2.986547750000000,I2C,0x87 + ACK
2.986579500000000,I2C,0xC2 + ACK
2.986611500000000,I2C,0x25 + Missing ACK/NAK
2.986643250000000,I2C,Setup Write to [0x18] + ACK
2.986675250000000,I2C,0x26 + ACK
2.986707250000000,I2C,0x47 + ACK
2.987644250000000,I2C,Setup Write to [0x3A] + ACK
2.987677000000000,I2C,0x04 + ACK
2.987709000000000,I2C,0x65 + ACK
2.988644750000000,I2C,Setup Write to [0x3A] + ACK
2.988677500000000,I2C,0x06 + ACK
2.988709500000000,I2C,0x97 + ACK
2.989642500000000,I2C,Setup Write to [0x3A] + ACK
2.989675000000000,I2C,0x05 + ACK
2.989707000000000,I2C,0xFF + ACK
2.990643250000000,I2C,Setup Write to [0x3A] + ACK
2.990676000000000,I2C,0x07 + ACK
2.990708000000000,I2C,0x68 + ACK
2.991643750000000,I2C,Setup Write to [0x3A] + ACK
2.991676500000000,I2C,0x1A + ACK
2.991708250000000,I2C,0x90 + ACK
2.992646250000000,I2C,Setup Write to [0x3A] + ACK
2.992679000000000,I2C,0x1E + ACK
2.992711000000000,I2C,0xAE + ACK
2.993646000000000,I2C,Setup Write to [0x3A] + ACK
2.993678750000000,I2C,0x03 + ACK
2.993710500000000,I2C,0x40 + ACK
2.994645000000000,I2C,Setup Write to [0x3A] + ACK
2.994677750000000,I2C,0x01 + ACK
2.994709500000000,I2C,0x45 + ACK
2.995645750000000,I2C,Setup Write to [0x3A] + ACK
2.995678750000000,I2C,0x18 + ACK
2.995710500000000,I2C,0x20 + ACK
2.996646250000000,I2C,Setup Write to [0x3A] + ACK
2.996679000000000,I2C,0x0A + ACK
2.996710750000000,I2C,0x0F + Missing ACK/NAK
2.997649000000000,I2C,Setup Write to [0x3A] + ACK
2.997681750000000,I2C,0x0B + ACK
2.997713750000000,I2C,0x60 + ACK
2.998648000000000,I2C,Setup Write to [0x3A] + ACK
2.998681000000000,I2C,0x0C + ACK
2.998712750000000,I2C,0x3B + ACK
2.999647250000000,I2C,Setup Write to [0x3A] + ACK
2.999680000000000,I2C,0x1D + ACK
2.999712000000000,I2C,0x32 + ACK
3.000649000000000,I2C,Setup Write to [0x3A] + ACK
3.000681750000000,I2C,0x18 + ACK
3.000713750000000,I2C,0x8B + ACK
3.001648000000000,I2C,Setup Write to [0x3A] + ACK
3.001680750000000,I2C,0x19 + ACK
3.001712750000000,I2C,0x8B + ACK
3.002659000000000,I2C,Setup Write to [0x3A] + ACK
3.002692000000000,I2C,0x05 + ACK
3.002724000000000,I2C,0xFF + ACK
3.003652000000000,I2C,Setup Write to [0x3A] + ACK
3.003684750000000,I2C,0x19 + ACK
3.003716750000000,I2C,0x8B + ACK
3.004650250000000,I2C,Setup Write to [0x3A] + ACK
3.004683000000000,I2C,0x01 + ACK
3.004714750000000,I2C,0x45 + ACK
3.005657000000000,I2C,Setup Write to [0x3A] + ACK
3.005689750000000,I2C,0x02 + ACK
3.005722000000000,I2C,0x44 + ACK
3.006649750000000,I2C,Setup Write to [0x3A] + ACK
3.006682500000000,I2C,0x08 + ACK
3.006714500000000,I2C,0x62 + ACK
3.007653250000000,I2C,Setup Write to [0x3A] + ACK
3.007685750000000,I2C,0x09 + ACK
3.007717750000000,I2C,0x40 + Missing ACK/NAK
3.008651250000000,I2C,Setup Write to [0x3A] + ACK
3.008684000000000,I2C,0x03 + ACK
3.008715750000000,I2C,0x40 + ACK
3.009652500000000,I2C,Setup Write to [0x3A] + ACK
3.009685250000000,I2C,0x01 + Missing ACK/NAK
3.009717250000000,I2C,Setup Read to [0x22] + ACK
3.010652500000000,I2C,Setup Write to [0x3A] + ACK
3.010685250000000,I2C,0x1E + ACK
3.010717250000000,I2C,0xAE + ACK
3.011653000000000,I2C,Setup Write to [0x3A] + ACK
3.011685750000000,I2C,0x11 + ACK
3.011717750000000,I2C,0x02 + ACK
3.013436250000000,I2C,Setup Write to [0x3A] + ACK
3.013469250000000,I2C,0x12 + ACK
3.013501500000000,I2C,0x72 + ACK
3.014651750000000,I2C,Setup Write to [0x3A] + ACK
3.014684500000000,I2C,0x0F + ACK
3.014716500000000,I2C,0xA4 + ACK
3.015655000000000,I2C,Setup Write to [0x3A] + ACK
3.015688000000000,I2C,0x10 + ACK
3.015720000000000,I2C,0x63 + ACK
3.016653250000000,I2C,Setup Write to [0x3A] + ACK
3.016685750000000,I2C,0x17 + ACK
3.016717750000000,I2C,0x28 + ACK
3.017654000000000,I2C,Setup Write to [0x3A] + ACK
3.017686750000000,I2C,0x1D + ACK
3.017718750000000,I2C,0x32 + ACK
3.018662250000000,I2C,Setup Write to [0x3A] + ACK
3.018695000000000,I2C,0x13 + Missing ACK/NAK
3.018726750000000,I2C,Setup Write to [0x1C] + ACK
3.019656500000000,I2C,Setup Write to [0x3A] + ACK
3.019689500000000,I2C,0x10 + ACK
3.019721250000000,I2C,0x63 + ACK
3.020667000000000,I2C,Setup Write to [0x3A] + ACK
3.020699750000000,I2C,0x10 + ACK
3.020731500000000,I2C,0x83 + ACK
3.021657750000000,I2C,Setup Write to [0x3A] + ACK
3.021690500000000,I2C,0x14 + ACK
3.021722250000000,I2C,0xD0 + ACK
3.022656250000000,I2C,Setup Write to [0x3A] + ACK
3.022689000000000,I2C,0x12 + ACK
3.022721000000000,I2C,0x72 + ACK
3.023661250000000,I2C,Setup Write to [0x3A] + ACK
3.023694000000000,I2C,0x16 + ACK
3.023726000000000,I2C,0x7F + ACK
3.024657750000000,I2C,Setup Write to [0x3A] + ACK
3.024690750000000,I2C,0x15 + ACK
3.024722750000000,I2C,0xFE + ACK
3.035682000000000,I2C,Setup Write to [0x3A] + ACK
3.035715250000000,I2C,0x00 + ACK
3.036439750000000,I2C,Setup Read to [0x3A] + ACK
3.036473000000000,I2C,0x69 + ACK
3.036526750000000,I2C,Setup Read to [0x54] + NAK
3.037365750000000,I2C,Setup Write to [0x3A] + ACK
3.037398250000000,I2C,0x00 + Missing ACK/NAK
3.038122750000000,I2C,Setup Read to [0x3A] + ACK
3.038154500000000,I2C,0x69 + ACK
3.038185500000000,I2C,0x2D + ACK
3.038216500000000,I2C,0xA6 + NAK
3.039041500000000,I2C,Setup Write to [0x3A] + ACK
3.039074500000000,I2C,0x00 + ACK
3.039798500000000,I2C,Setup Read to [0x3A] + ACK
3.039849000000000,I2C,Setup Read to [0x22] + NAK
3.039879750000000,I2C,0x54 + NAK
3.040722000000000,I2C,Setup Write to [0x3A] + ACK
3.040755000000000,I2C,0x00 + ACK
3.041479250000000,I2C,Setup Read to [0x3A] + ACK
3.041511500000000,I2C,0x69 + ACK
3.041543000000000,I2C,0x2D + ACK
3.042399000000000,I2C,Setup Write to [0x3A] + ACK
3.042431500000000,I2C,0x1D + ACK
3.042463750000000,I2C,0xF2 + ACK
3.043661750000000,I2C,Setup Write to [0x3A] + ACK
3.043694500000000,I2C,0x01 + ACK
3.043726500000000,I2C,0x45 + ACK
3.044665000000000,I2C,Setup Write to [0x3A] + ACK
3.044697750000000,I2C,0x1E + ACK
3.044729750000000,I2C,0xAE + ACK
3.045671000000000,I2C,Setup Write to [0x3A] + ACK
3.045703750000000,I2C,0x00 + ACK
3.045735750000000,I2C,0x1F + ACK
3.046665750000000,I2C,Setup Write to [0x3A] + ACK
3.046698750000000,I2C,0x0C + ACK
3.046730500000000,I2C,0x10 + ACK
3.047665250000000,I2C,Setup Write to [0x3A] + ACK
3.047698000000000,I2C,0x1E + ACK
3.047729750000000,I2C,0x8E + ACK
3.048665250000000,I2C,Setup Write to [0x3A] + ACK
3.048698000000000,I2C,0x0B + ACK
3.048729750000000,I2C,0x00 + ACK
3.049665750000000,I2C,Setup Write to [0x3A] + ACK
3.049698500000000,I2C,0x0A + ACK
3.049730250000000,I2C,0x00 + ACK
3.050670250000000,I2C,Setup Write to [0x3A] + ACK
3.050703000000000,I2C,0x0C + ACK
3.050734750000000,I2C,0x10 + ACK
3.064671750000000,I2C,Setup Write to [0x3A] + ACK
3.064704750000000,I2C,0x00 + ACK
3.065429750000000,I2C,Setup Read to [0x3A] + ACK
3.065462500000000,I2C,0x69 + ACK
3.065494500000000,I2C,0x99 + NAK
3.066325000000000,I2C,Setup Write to [0x3A] + ACK
3.066357500000000,I2C,0x00 + ACK
3.067081750000000,I2C,Setup Read to [0x3A] + ACK
3.067113500000000,I2C,0x69 + ACK
3.067144500000000,I2C,0x99 + NAK
3.067966250000000,I2C,Setup Write to [0x3A] + ACK
3.067999500000000,I2C,0x00 + ACK
3.068723750000000,I2C,Setup Read to [0x3A] + ACK
3.068755500000000,I2C,0x69 + ACK
3.068786250000000,I2C,0x99 + NAK
3.069611000000000,I2C,Setup Write to [0x3A] + ACK
3.069643500000000,I2C,0x0C + ACK
3.069675500000000,I2C,0x11 + ACK
3.083679500000000,I2C,Setup Write to [0x3A] + ACK
3.083712500000000,I2C,0x00 + ACK
3.084436500000000,I2C,Setup Read to [0x3A] + ACK
3.084488000000000,I2C,Setup Write to [0x2E] + NAK
3.085327750000000,I2C,Setup Write to [0x3A] + ACK
3.085360500000000,I2C,0x00 + ACK
3.086084750000000,I2C,Setup Read to [0x3A] + ACK
3.086116750000000,I2C,0x69 + ACK
3.086147500000000,I2C,0xA5 + NAK
3.086969500000000,I2C,Setup Write to [0x3A] + ACK
3.087001750000000,I2C,0x00 + ACK
3.087726000000000,I2C,0x75 + Missing ACK/NAK
3.087779750000000,I2C,Setup Read to [0x5C] + ACK
3.088613250000000,I2C,Setup Write to [0x3A] + ACK
3.088645750000000,I2C,0x0C + ACK
3.088677750000000,I2C,0x12 + ACK
3.102688250000000,I2C,Setup Write to [0x3A] + ACK
3.102721250000000,I2C,0x00 + ACK
3.103445500000000,I2C,Setup Read to [0x3A] + ACK
3.103478250000000,I2C,0x69 + ACK
3.103510500000000,I2C,0x0D + NAK
3.104338250000000,I2C,Setup Write to [0x3A] + ACK
3.104370750000000,I2C,0x00 + ACK
3.105095000000000,I2C,Setup Read to [0x3A] + ACK
3.105127000000000,I2C,0x69 + ACK
3.105157750000000,I2C,0x0D + NAK
3.105980000000000,I2C,Setup Write to [0x3A] + ACK
3.106012750000000,I2C,0x00 + ACK
3.106737000000000,I2C,Setup Read to [0x3A] + ACK
3.106768500000000,I2C,0x69 + ACK
3.106799500000000,I2C,0x0D + NAK
3.107625250000000,I2C,Setup Write to [0x3A] + ACK
3.107657750000000,I2C,0x0B + ACK
3.107690000000000,I2C,0x00 + ACK
3.108688750000000,I2C,Setup Write to [0x3A] + ACK
3.108721750000000,I2C,0x0A + ACK
3.108753750000000,I2C,0x00 + ACK
3.122694250000000,I2C,Setup Write to [0x3A] + ACK
3.122727250000000,I2C,0x00 + ACK
3.123451500000000,I2C,Setup Read to [0x3A] + ACK
3.123484250000000,I2C,0x69 + ACK
3.123516500000000,I2C,0x0D + NAK
3.124343500000000,I2C,Setup Write to [0x3A] + ACK
3.124376250000000,I2C,0x00 + ACK
3.125101250000000,I2C,0x75 + Missing ACK/NAK
3.125997000000000,I2C,Setup Write to [0x3A] + ACK
3.126029500000000,I2C,0x00 + ACK
3.126753500000000,I2C,Setup Read to [0x3A] + ACK
3.126785000000000,I2C,0x69 + ACK
3.126816000000000,I2C,0x0D + NAK
3.127640250000000,I2C,Setup Write to [0x3A] + ACK
3.127672750000000,I2C,0x0A + ACK
3.127705000000000,I2C,0x0D + ACK
3.141701250000000,I2C,Setup Write to [0x3A] + ACK
3.141734750000000,I2C,0x00 + ACK
3.142459000000000,I2C,Setup Read to [0x3A] + ACK
3.142491750000000,I2C,0x69 + ACK
3.143350500000000,I2C,Setup Write to [0x3A] + ACK
3.143383000000000,I2C,0x00 + ACK
3.144107250000000,I2C,Setup Read to [0x3A] + ACK
3.144139000000000,I2C,0x69 + ACK
3.144170000000000,I2C,0x89 + NAK
3.144992250000000,I2C,Setup Write to [0x3A] + ACK
3.145025500000000,I2C,0x00 + ACK
3.145749750000000,I2C,Setup Read to [0x3A] + ACK
3.146636750000000,I2C,Setup Write to [0x3A] + ACK
3.146669250000000,I2C,0x0A + ACK
3.146701500000000,I2C,0x00 + ACK
3.160712250000000,I2C,Setup Write to [0x3A] + ACK
3.160745250000000,I2C,0x00 + ACK
3.161469750000000,I2C,Setup Read to [0x3A] + ACK
3.161502250000000,I2C,0x69 + ACK
3.161534500000000,I2C,0x0D + NAK
3.162362000000000,I2C,Setup Write to [0x3A] + ACK
3.162394500000000,I2C,0x00 + ACK
3.163119000000000,I2C,Setup Read to [0x3A] + ACK
3.163150750000000,I2C,0x69 + ACK
3.163181750000000,I2C,0x0D + NAK
3.164009500000000,I2C,Setup Write to [0x3A] + ACK
3.164042000000000,I2C,0x00 + ACK
3.164766000000000,I2C,Setup Read to [0x3A] + ACK
3.164797500000000,I2C,0x69 + ACK
3.164828500000000,I2C,0x0D + NAK
3.165653500000000,I2C,Setup Write to [0x3A] + ACK
3.165686000000000,I2C,0x0A + ACK
3.165718250000000,I2C,0x01 + ACK
3.179716000000000,I2C,Setup Write to [0x3A] + ACK
3.179748750000000,I2C,0x00 + ACK
3.180472750000000,I2C,Setup Read to [0x3A] + ACK
3.180505500000000,I2C,0x69 + ACK
3.181364250000000,I2C,Setup Write to [0x3A] + ACK
3.181396750000000,I2C,0x00 + ACK
3.182121000000000,I2C,Setup Read to [0x3A] + ACK
3.182153000000000,I2C,0x69 + ACK
3.182184000000000,I2C,0x0D + NAK
3.183006000000000,I2C,Setup Write to [0x3A] + ACK
3.183038250000000,I2C,0x00 + ACK
3.183762500000000,I2C,Setup Read to [0x3A] + ACK
3.183794250000000,I2C,0x69 + ACK
3.184649000000000,I2C,Setup Write to [0x3A] + ACK
3.184681750000000,I2C,0x0A + ACK
3.184714000000000,I2C,0x02 + ACK
3.198723000000000,I2C,Setup Write to [0x3A] + ACK
3.198755750000000,I2C,0x00 + ACK
3.199480000000000,I2C,Setup Read to [0x3A] + ACK
3.199512500000000,I2C,0x69 + ACK
3.199544500000000,I2C,0x0D + NAK
3.200372000000000,I2C,Setup Write to [0x3A] + ACK
3.200404500000000,I2C,0x00 + ACK
3.201128750000000,I2C,Setup Read to [0x3A] + ACK
3.201160750000000,I2C,0x69 + ACK
3.201191500000000,I2C,0x0D + NAK
3.202013250000000,I2C,Setup Write to [0x3A] + ACK
3.202045750000000,I2C,0x00 + ACK
3.202770000000000,I2C,Setup Read to [0x3A] + ACK
3.202801750000000,I2C,0x69 + ACK
3.202832750000000,I2C,0x0D + NAK
3.203657250000000,I2C,Setup Write to [0x3A] + ACK
3.203689750000000,I2C,0x0A + ACK
3.203722000000000,I2C,0x03 + ACK
3.217732500000000,I2C,Setup Write to [0x3A] + ACK
3.217765500000000,I2C,0x00 + ACK
3.218490250000000,I2C,Setup Read to [0x3A] + ACK
3.218523000000000,I2C,0x69 + ACK
3.218555250000000,I2C,0x0D + NAK
3.219385250000000,I2C,Setup Write to [0x3A] + ACK
3.219417750000000,I2C,0x00 + ACK
3.220142500000000,I2C,Setup Read to [0x3A] + ACK
3.220175000000000,I2C,0x69 + ACK
3.220206250000000,I2C,0x0D + NAK
3.221039500000000,I2C,Setup Write to [0x3A] + ACK
3.221072250000000,I2C,0x00 + ACK
3.221796250000000,I2C,Setup Read to [0x3A] + ACK
3.221827750000000,I2C,0x69 + ACK
3.221858750000000,I2C,0x0D + NAK
3.222683250000000,I2C,Setup Write to [0x3A] + ACK
3.222715750000000,I2C,0x0A + ACK
3.222748000000000,I2C,0x04 + ACK
3.236739750000000,I2C,Setup Write to [0x3A] + ACK
3.236773000000000,I2C,0x00 + ACK
3.237497250000000,I2C,Setup Read to [0x3A] + ACK
3.237529500000000,I2C,0x69 + ACK
3.237561750000000,I2C,0x0D + NAK
3.238389750000000,I2C,Setup Write to [0x3A] + ACK
3.238422500000000,I2C,0x00 + ACK
3.239146750000000,I2C,Setup Read to [0x3A] + ACK
3.239178750000000,I2C,0x69 + ACK
3.239209500000000,I2C,0x0D + NAK
3.240031500000000,I2C,Setup Write to [0x3A] + ACK
3.240065000000000,I2C,0x00 + ACK
3.240790000000000,I2C,Setup Read to [0x3A] + ACK
3.240822250000000,I2C,0x69 + ACK
3.240853750000000,I2C,0x0D + NAK
3.241683500000000,I2C,Setup Write to [0x3A] + ACK
3.241716000000000,I2C,0x0A + ACK
3.241748250000000,I2C,0x05 + ACK
3.255746000000000,I2C,Setup Write to [0x3A] + ACK
3.255779000000000,I2C,0x00 + ACK
3.256503250000000,I2C,Setup Read to [0x3A] + ACK
3.256535750000000,I2C,0x69 + ACK
3.256567750000000,I2C,0x0D + NAK
3.257394250000000,I2C,Setup Write to [0x3A] + ACK
3.257426750000000,I2C,0x00 + ACK
3.258151000000000,I2C,Setup Read to [0x3A] + ACK
3.258202000000000,I2C,Setup Read to [0x28] + NAK
3.259035750000000,I2C,Setup Write to [0x3A] + ACK
3.259069250000000,I2C,0x00 + ACK
3.259793500000000,I2C,Setup Read to [0x3A] + ACK
3.259825000000000,I2C,0x69 + ACK
3.259855750000000,I2C,0x8D + NAK
3.260679750000000,I2C,Setup Write to [0x3A] + ACK
3.260712250000000,I2C,0x0A + ACK
3.260744500000000,I2C,0x06 + ACK
3.274752250000000,I2C,Setup Write to [0x3A] + ACK
3.274785000000000,I2C,0x00 + ACK
3.275510000000000,I2C,Setup Read to [0x3A] + ACK
3.275562000000000,I2C,Setup Read to [0x20] + NAK
3.276408750000000,I2C,Setup Write to [0x3A] + ACK
3.276441250000000,I2C,0x00 + ACK
3.277165500000000,I2C,Setup Read to [0x3A] + ACK
3.277197500000000,I2C,0x69 + ACK
3.277228500000000,I2C,0x0D + NAK
3.278053250000000,I2C,Setup Write to [0x3A] + ACK
3.278085750000000,I2C,0x00 + ACK
3.278809750000000,I2C,0x75 + Missing ACK/NAK
3.278863500000000,I2C,Setup Read to [0x51] + ACK
3.279696500000000,I2C,Setup Write to [0x3A] + ACK
3.279729000000000,I2C,0x0A + ACK
3.279761250000000,I2C,0x07 + ACK
3.293759750000000,I2C,Setup Write to [0x3A] + ACK
3.293792500000000,I2C,0x00 + ACK
3.294516750000000,I2C,Setup Read to [0x3A] + ACK
3.294549250000000,I2C,0x69 + ACK
3.294581500000000,I2C,0x0D + NAK
3.295409000000000,I2C,Setup Write to [0x3A] + ACK
3.295441500000000,I2C,0x00 + ACK
3.296165750000000,I2C,Setup Read to [0x3A] + ACK
3.296197750000000,I2C,0x69 + ACK
3.297050500000000,I2C,Setup Write to [0x3A] + ACK
3.297083750000000,I2C,0x00 + ACK
3.297808000000000,I2C,Setup Read to [0x3A] + ACK
3.297839750000000,I2C,0x69 + ACK
3.297870750000000,I2C,0x8D + NAK
3.298694750000000,I2C,Setup Write to [0x3A] + ACK
3.298727250000000,I2C,0x0A + ACK
3.298759500000000,I2C,0x08 + ACK
3.312766000000000,I2C,Setup Write to [0x3A] + ACK
3.312798750000000,I2C,0x00 + ACK
3.313523000000000,I2C,Setup Read to [0x3A] + ACK
3.313555500000000,I2C,0x69 + ACK
3.314414000000000,I2C,Setup Write to [0x3A] + ACK
3.314446500000000,I2C,0x00 + ACK
3.315171250000000,I2C,Setup Read to [0x3A] + ACK
3.315203000000000,I2C,0x69 + ACK
3.315234000000000,I2C,0x0D + NAK
3.316056000000000,I2C,Setup Write to [0x3A] + ACK
3.316088250000000,I2C,0x00 + ACK
3.316812500000000,I2C,Setup Read to [0x3A] + ACK
3.316844000000000,I2C,0x69 + ACK
3.317699000000000,I2C,Setup Write to [0x3A] + ACK
3.317731500000000,I2C,0x0A + ACK
3.317763750000000,I2C,0x09 + ACK
3.331774250000000,I2C,Setup Write to [0x3A] + ACK
3.331807000000000,I2C,0x00 + ACK
3.332531250000000,I2C,Setup Read to [0x3A] + ACK
3.332563750000000,I2C,0x69 + ACK
3.332596000000000,I2C,0x0D + NAK
3.333423500000000,I2C,Setup Write to [0x3A] + ACK
3.333456250000000,I2C,0x00 + ACK
3.334180500000000,I2C,Setup Read to [0x3A] + ACK
3.334212250000000,I2C,0x69 + ACK
3.334243250000000,I2C,0x0D + NAK
3.335066000000000,I2C,Setup Write to [0x3A] + ACK
3.335102750000000,I2C,0x00 + ACK
3.335827250000000,I2C,Setup Read to [0x3A] + ACK
3.335859000000000,I2C,0x69 + ACK
3.335890750000000,I2C,0x0D + NAK
3.336722750000000,I2C,Setup Write to [0x3A] + ACK
3.336755250000000,I2C,0x0A + ACK
3.336787500000000,I2C,0x0A + ACK
3.350782750000000,I2C,Setup Write to [0x3A] + ACK
3.350816000000000,I2C,0x00 + ACK
3.351540250000000,I2C,Setup Read to [0x3A] + ACK
3.351572750000000,I2C,0x69 + ACK
3.352431000000000,I2C,Setup Write to [0x3A] + ACK
3.352463500000000,I2C,0x00 + ACK
3.353187750000000,I2C,Setup Read to [0x3A] + ACK
3.353219750000000,I2C,0x69 + ACK
3.353250750000000,I2C,0xB5 + NAK
3.354072500000000,I2C,Setup Write to [0x3A] + ACK
3.354104750000000,I2C,0x00 + ACK
3.354829000000000,I2C,Setup Read to [0x3A] + ACK
3.354860500000000,I2C,0x69 + ACK
3.355716000000000,I2C,Setup Write to [0x3A] + ACK
3.355748500000000,I2C,0x0A + ACK
3.355780750000000,I2C,0x0B + ACK
3.369787500000000,I2C,Setup Write to [0x3A] + ACK
3.369820250000000,I2C,0x00 + ACK
3.370544500000000,I2C,Setup Read to [0x3A] + ACK
3.370577000000000,I2C,0x69 + ACK
3.370609000000000,I2C,0x95 + NAK
3.371435500000000,I2C,Setup Write to [0x3A] + ACK
3.371468000000000,I2C,0x00 + ACK
3.372192250000000,I2C,Setup Read to [0x3A] + ACK
3.372224250000000,I2C,0x69 + ACK
3.372255000000000,I2C,0x95 + NAK
3.373076750000000,I2C,Setup Write to [0x3A] + ACK
3.373110000000000,I2C,0x00 + ACK
3.373834250000000,I2C,0x75 + Missing ACK/NAK
3.373865750000000,I2C,Setup Read to [0x34] + ACK
3.373897000000000,I2C,0x95 + NAK
3.374721000000000,I2C,Setup Write to [0x3A] + ACK
3.374753750000000,I2C,0x0A + ACK
3.374785750000000,I2C,0x0C + ACK
3.388794750000000,I2C,Setup Write to [0x3A] + ACK
3.388827750000000,I2C,0x00 + ACK
3.389552000000000,I2C,Setup Read to [0x3A] + ACK
3.389584500000000,I2C,0x69 + ACK
3.389616250000000,I2C,0xF9 + NAK
3.390443500000000,I2C,Setup Write to [0x3A] + ACK
3.390476000000000,I2C,0x00 + ACK
3.391200250000000,I2C,Setup Read to [0x3A] + ACK
3.391232000000000,I2C,0x69 + ACK
3.391263000000000,I2C,0xF9 + NAK
3.392085000000000,I2C,Setup Write to [0x3A] + ACK
3.392118250000000,I2C,0x00 + ACK
3.392842500000000,I2C,Setup Read to [0x3A] + ACK
3.392874250000000,I2C,0x69 + ACK
3.392905000000000,I2C,0xF9 + NAK
3.393730750000000,I2C,Setup Write to [0x3A] + ACK
3.393763250000000,I2C,0x00 + ACK
3.393795500000000,I2C,0x02 + ACK
3.393827500000000,I2C,0x44 + ACK
3.393859250000000,I2C,0x40 + ACK
3.393891250000000,I2C,0x40 + ACK
3.393923250000000,I2C,0x05 + ACK
3.393955000000000,I2C,0x69 + ACK
3.393987000000000,I2C,0x17 + ACK
3.394018750000000,I2C,0x75 + ACK
3.394050750000000,I2C,0x40 + Missing ACK/NAK
3.394082500000000,I2C,Setup Write to [0x20] + ACK
3.394114750000000,I2C,0x06 + ACK
3.394146500000000,I2C,0x08 + ACK
3.394178500000000,I2C,0x89 + ACK
3.394210500000000,I2C,0xA4 + ACK
3.394242250000000,I2C,0x95 + ACK
3.394274250000000,I2C,0x9C + ACK
3.394306000000000,I2C,0x73 + ACK
3.394338000000000,I2C,0x02 + ACK
3.394370000000000,I2C,0x72 + ACK
3.394401750000000,I2C,0x20 + ACK
3.394433750000000,I2C,0x0B + ACK
3.394465500000000,I2C,0xAA + ACK
3.394497500000000,I2C,0xAA + ACK
3.394529250000000,I2C,0x28 + ACK
3.394561250000000,I2C,0x30 + ACK
3.394593250000000,I2C,0x40 + ACK
3.394625000000000,I2C,0x87 + ACK
3.394657000000000,I2C,0xC2 + ACK
3.394688750000000,I2C,0x25 + ACK
3.394720750000000,I2C,0x30 + ACK
3.394752500000000,I2C,0x26 + ACK
3.394784500000000,I2C,0x47 + ACK
3.395818000000000,I2C,Setup Write to [0x3A] + ACK
3.395850750000000,I2C,0x0B + ACK
3.395883000000000,I2C,0x18 + ACK
3.396802500000000,I2C,Setup Write to [0x3A] + ACK
3.396835500000000,I2C,0x0A + ACK
3.396867250000000,I2C,0x0C + ACK
3.397799500000000,I2C,Setup Write to [0x3A] + ACK
3.397832250000000,I2C,0x0B + ACK
3.397864250000000,I2C,0x18 + ACK
3.398797500000000,I2C,Setup Write to [0x3A] + ACK
3.398830000000000,I2C,0x0B + ACK
3.398862000000000,I2C,0x18 + ACK
3.399798750000000,I2C,Setup Write to [0x3A] + ACK
3.399831500000000,I2C,0x03 + ACK
3.399863500000000,I2C,0x40 + ACK
3.400800500000000,I2C,Setup Write to [0x3A] + ACK
3.400833000000000,I2C,0x0A + ACK
3.400865000000000,I2C,0x0C + ACK
3.401801750000000,I2C,Setup Write to [0x3A] + ACK
3.401834500000000,I2C,0x04 + ACK
3.401866500000000,I2C,0x05 + ACK
3.402800750000000,I2C,Setup Write to [0x3A] + ACK
3.402833750000000,I2C,0x1E + ACK
3.402865500000000,I2C,0x26 + ACK
3.403800000000000,I2C,Setup Write to [0x3A] + ACK
3.403833000000000,I2C,0x1E + ACK
3.403864750000000,I2C,0x26 + ACK
3.404801000000000,I2C,Setup Write to [0x3A] + ACK
3.404833500000000,I2C,0x1E + ACK
3.404865500000000,I2C,0x27 + ACK
3.405801500000000,I2C,Setup Write to [0x3A] + ACK
3.405834250000000,I2C,0x12 + ACK
3.405866250000000,I2C,0x72 + ACK
3.406804250000000,I2C,Setup Write to [0x3A] + ACK
3.406836750000000,I2C,0x1E + ACK
3.406868750000000,I2C,0x27 + ACK
3.407803500000000,I2C,Setup Write to [0x3A] + ACK
3.407836250000000,I2C,0x1F + ACK
3.407868250000000,I2C,0x66 + ACK
3.408802500000000,I2C,Setup Write to [0x3A] + ACK
3.408835000000000,I2C,0x1B + ACK
3.408867000000000,I2C,0xC2 + ACK
3.409803250000000,I2C,Setup Write to [0x3A] + ACK
3.409836000000000,I2C,0x04 + ACK
3.409868000000000,I2C,0x05 + ACK
3.410802250000000,I2C,Setup Write to [0x3A] + ACK
3.410835250000000,I2C,0x0C + ACK
3.410867000000000,I2C,0x85 + ACK
3.411806500000000,I2C,Setup Write to [0x3A] + ACK
3.411839000000000,I2C,0x1A + ACK
3.411871000000000,I2C,0x8F + ACK
3.412812250000000,I2C,Setup Write to [0x3A] + ACK
3.412845000000000,I2C,0x05 + ACK
3.412877250000000,I2C,0x09 + ACK
3.413806500000000,I2C,Setup Write to [0x3A] + ACK
3.413839250000000,I2C,0x19 + Missing ACK/NAK
3.413871250000000,I2C,Setup Write to [0x00] + ACK
3.414805250000000,I2C,Setup Write to [0x3A] + ACK
3.414838250000000,I2C,0x01 + ACK
3.414870000000000,I2C,0x04 + ACK
3.415806500000000,I2C,Setup Write to [0x3A] + ACK
3.415839500000000,I2C,0x02 + ACK
3.415871750000000,I2C,0x40 + ACK
3.416808000000000,I2C,Setup Write to [0x3A] + ACK
3.416840750000000,I2C,0x08 + ACK
3.416872500000000,I2C,0x61 + ACK
3.417806500000000,I2C,Setup Write to [0x3A] + ACK
3.417839250000000,I2C,0x09 + ACK
3.417871000000000,I2C,0x40 + ACK
3.418809500000000,I2C,Setup Write to [0x3A] + ACK
3.418842250000000,I2C,0x03 + ACK
3.418874250000000,I2C,0x40 + ACK
3.419808250000000,I2C,Setup Write to [0x3A] + ACK
3.419841250000000,I2C,0x01 + ACK
3.419873000000000,I2C,0x05 + ACK
3.420814750000000,I2C,Setup Write to [0x3A] + ACK
3.420847250000000,I2C,0x1E + ACK
3.420879250000000,I2C,0xA7 + ACK
3.421811750000000,I2C,Setup Write to [0x3A] + ACK
3.421844500000000,I2C,0x11 + ACK
3.421876500000000,I2C,0x02 + ACK
3.422810000000000,I2C,Setup Write to [0x3A] + ACK
3.422843000000000,I2C,0x12 + ACK
3.422875000000000,I2C,0x72 + ACK
3.423810250000000,I2C,Setup Write to [0x3A] + ACK
3.423843000000000,I2C,0x0F + ACK
3.423874750000000,I2C,0xA4 + ACK
3.424809750000000,I2C,Setup Write to [0x3A] + ACK
3.424842750000000,I2C,0x10 + ACK
3.424874500000000,I2C,0x63 + ACK
3.425813750000000,I2C,Setup Write to [0x3A] + ACK
3.425846500000000,I2C,0x17 + ACK
3.425878500000000,I2C,0x28 + ACK
3.426811250000000,I2C,Setup Write to [0x3A] + ACK
3.426844000000000,I2C,0x1D + ACK
3.426876000000000,I2C,0x30 + ACK
3.427811000000000,I2C,Setup Write to [0x3A] + ACK
3.427843750000000,I2C,0x13 + ACK
3.427875500000000,I2C,0x20 + ACK
3.428809750000000,I2C,Setup Write to [0x3A] + ACK
3.428842500000000,I2C,0x10 + ACK
3.428874500000000,I2C,0x63 + ACK
3.429809750000000,I2C,Setup Write to [0x3A] + ACK
3.429842500000000,I2C,0x10 + ACK
3.429874500000000,I2C,0x23 + ACK
3.430811000000000,I2C,Setup Write to [0x3A] + ACK
3.430843750000000,I2C,0x14 + ACK
3.430875750000000,I2C,0x11 + ACK
3.431812750000000,I2C,Setup Write to [0x3A] + ACK
3.431845500000000,I2C,0x12 + ACK
3.431877500000000,I2C,0x72 + ACK
3.432814500000000,I2C,Setup Write to [0x3A] + ACK
3.432847250000000,I2C,0x16 + ACK
3.432879000000000,I2C,0xDF + ACK
3.433812500000000,I2C,Setup Write to [0x3A] + ACK
3.433845000000000,I2C,0x15 + ACK
3.433877000000000,I2C,0xFE + ACK
3.444816500000000,I2C,Setup Write to [0x3A] + ACK
3.444850000000000,I2C,0x00 + ACK
3.445574250000000,I2C,Setup Read to [0x3A] + ACK
3.445607500000000,I2C,0x69 + ACK
3.445639250000000,I2C,0x01 + ACK
3.445670750000000,I2C,0x66 + NAK
3.446499750000000,I2C,Setup Write to [0x3A] + ACK
3.446532250000000,I2C,0x00 + ACK
3.447256750000000,I2C,0x75 + Missing ACK/NAK
3.447301250000000,I2C,Setup Write to [0x48] + ACK
3.447332000000000,I2C,0x13 + ACK
3.448175000000000,I2C,Setup Write to [0x3A] + ACK
3.448207500000000,I2C,0x00 + ACK
3.448931500000000,I2C,Setup Read to [0x3A] + ACK
3.448963000000000,I2C,0x69 + ACK
3.448994000000000,I2C,0x01 + ACK
3.449853750000000,I2C,Setup Write to [0x3A] + ACK
3.449886500000000,I2C,0x00 + ACK
3.450610750000000,I2C,Setup Read to [0x3A] + ACK
3.450642750000000,I2C,0x69 + ACK
3.450673500000000,I2C,0x01 + ACK
3.450704500000000,I2C,0x66 + NAK
3.451529000000000,I2C,Setup Write to [0x3A] + ACK
3.451561500000000,I2C,0x1D + ACK
3.451593750000000,I2C,0xF0 + ACK
3.453595750000000,I2C,Setup Write to [0x3A] + ACK
3.453628500000000,I2C,0x01 + ACK
3.453660750000000,I2C,0x04 + ACK
3.454822000000000,I2C,Setup Write to [0x3A] + ACK
3.454854500000000,I2C,0x1E + ACK
3.454886500000000,I2C,0x27 + ACK
3.455844750000000,I2C,Setup Write to [0x3A] + ACK
3.455877500000000,I2C,0x00 + ACK
3.455909750000000,I2C,0x09 + ACK
3.456822250000000,I2C,Setup Write to [0x3A] + ACK
3.456855250000000,I2C,0x00 + ACK
3.456887250000000,I2C,0x09 + ACK
3.457821000000000,I2C,Setup Write to [0x3A] + ACK
3.457853500000000,I2C,0x04 + ACK
3.457885500000000,I2C,0x05 + ACK
3.458823500000000,I2C,Setup Write to [0x3A] + ACK
3.458856250000000,I2C,0x1B + ACK
3.458888000000000,I2C,0xC3 + ACK
3.459823500000000,I2C,Setup Write to [0x3A] + ACK
3.459856500000000,I2C,0x0D + ACK
3.459888500000000,I2C,0xA5 + ACK
3.460822750000000,I2C,Setup Write to [0x3A] + ACK
3.460855500000000,I2C,0x1C + ACK
3.460887500000000,I2C,0x25 + ACK
3.461822000000000,I2C,Setup Write to [0x3A] + ACK
3.461854750000000,I2C,0x0E + ACK
3.461886750000000,I2C,0x95 + ACK
3.462822750000000,I2C,Setup Write to [0x3A] + ACK
3.462855250000000,I2C,0x1A + ACK
3.462887250000000,I2C,0x4F + ACK
3.463824000000000,I2C,Setup Write to [0x3A] + ACK
3.463856500000000,I2C,0x1C + ACK
3.463888500000000,I2C,0x95 + ACK
3.464825250000000,I2C,Setup Write to [0x3A] + ACK
3.464858000000000,I2C,0x1B + Missing ACK/NAK
3.464889750000000,I2C,Setup Read to [0x61] + ACK
3.465824750000000,I2C,Setup Write to [0x3A] + ACK
3.465857250000000,I2C,0x01 + ACK
3.465889250000000,I2C,0x00 + ACK
3.466824250000000,I2C,Setup Write to [0x3A] + ACK
3.466856750000000,I2C,0x17 + ACK
3.466888750000000,I2C,0x08 + ACK
3.467824750000000,I2C,Setup Write to [0x3A] + ACK
3.467857500000000,I2C,0x07 + ACK
3.467889250000000,I2C,0xF5 + ACK
3.468824750000000,I2C,Setup Write to [0x3A] + ACK
3.468857750000000,I2C,0x1E + ACK
3.468889750000000,I2C,0x27 + ACK
3.469828500000000,I2C,Setup Write to [0x3A] + ACK
3.469861000000000,I2C,0x1B + ACK
3.469893000000000,I2C,0xC3 + Missing ACK/NAK
3.470827000000000,I2C,Setup Write to [0x3A] + ACK
3.470859750000000,I2C,0x1F + ACK
3.470891750000000,I2C,0x27 + ACK
3.471827500000000,I2C,Setup Write to [0x3A] + ACK
3.471860250000000,I2C,0x03 + ACK
3.471892250000000,I2C,0x40 + ACK
3.472825500000000,I2C,Setup Write to [0x3A] + ACK
3.472858500000000,I2C,0x02 + ACK
3.472890250000000,I2C,0x40 + ACK
