 Decoded Protocol Result
Setup Write to [0x3A] + ACK
0x00 + ACK
0x02 + ACK #Reg 0x00 (Read only?)
0x44 + ACK #Reg 0x01 (Read only?)
0x40 + ACK #Reg 0x02 (Read only?)
0x40 + ACK #Reg 0x03 (Read only?)
0x05 + ACK #Reg 0x04 (Read only?)
0x69 + ACK #Reg 0x05
0x17 + ACK
0x75 + ACK
0x40 + ACK
0x40 + ACK
0x06 + ACK #Reg 0x0A
0x08 + ACK #Reg 0x0B
0x89 + ACK
0xA4 + ACK
0x95 + ACK
0x9C + ACK #Reg 0x0F
0x73 + ACK #Reg 0x10
0x02 + ACK
0x72 + ACK
0x20 + ACK
0x0B + ACK
0xAA + ACK
0xAA + ACK
0x28 + ACK
0x30 + ACK
0x40 + ACK
0x87 + ACK #Reg 0x1A
0xC2 + ACK
0x25 + ACK
0x30 + ACK
0x26 + ACK #Reg 0x1E
0x47 + ACK

Setup Write to [0x3A] + ACK
0x0B + ACK
0x18 + ACK
Setup Write to [0x3A] + ACK
0x0A + ACK
0x0C + ACK
Setup Write to [0x3A] + ACK
0x1E + ACK
0x27 + ACK
Setup Write to [0x3A] + ACK
0x1F + ACK
0x66 + ACK
Setup Write to [0x3A] + ACK
0x0C + ACK
0x85 + ACK
Setup Write to [0x3A] + ACK
0x1A + ACK
0x8F + ACK


Setup Write to [0x3A] + ACK
0x05 + ACK
0x49 + ACK
Setup Write to [0x3A] + ACK
0x19 + ACK
0x40 + ACK
Setup Write to [0x3A] + ACK
0x01 + ACK
0x0C + ACK
Setup Write to [0x3A] + ACK
0x02 + ACK
0x40 + ACK
Setup Write to [0x3A] + ACK
0x08 + ACK
0x62 + ACK
Setup Write to [0x3A] + ACK
0x09 + ACK
0x40 + ACK
Setup Write to [0x3A] + ACK
0x03 + ACK
0x40 + ACK
Setup Write to [0x3A] + ACK
0x01 + ACK
0x0D + ACK
Setup Write to [0x3A] + ACK
0x1E + ACK
0xA7 + ACK
Setup Write to [0x3A] + ACK
0x11 + ACK
0x02 + ACK
Setup Write to [0x3A] + ACK
0x12 + ACK
0x72 + ACK
Setup Write to [0x3A] + ACK
0x0F + ACK
0xA4 + ACK
Setup Write to [0x3A] + ACK
0x10 + ACK
0x63 + ACK
Setup Write to [0x3A] + ACK
0x17 + ACK
0x28 + ACK
Setup Write to [0x3A] + ACK
0x1D + ACK
0x30 + ACK
Setup Write to [0x3A] + ACK
0x13 + ACK
0x38 + ACK
Setup Write to [0x3A] + ACK
0x10 + ACK
0x67 + ACK
Setup Write to [0x3A] + ACK
0x10 + ACK
0x67 + ACK

#PLL integer divider number input Si2c
Setup Write to [0x3A] + ACK
0x14 + ACK
0x6A + ACK

#PW_SDM
Setup Write to [0x3A] + ACK
0x12 + ACK
0x72 + ACK

#PLL fractional divider number input SDM
Setup Write to [0x3A] + ACK
0x16 + ACK
0x7F + ACK

Setup Write to [0x3A] + ACK
0x15 + ACK
0xFE + ACK

Setup Write to [0x3A] + ACK
0x00 + ACK
Setup Read to [0x3A] + ACK
0x69 + ACK
0xBD + ACK
0x0E + NAK





Setup Write to [0x3A] + ACK
0x1D + ACK
0xF0 + ACK
Setup Write to [0x3A] + ACK
0x01 + ACK
0x0C + ACK
Setup Write to [0x3A] + ACK
0x1E + ACK
0x27 + ACK

Setup Write to [0x3A] + ACK
0x04 + ACK
0x05 + ACK
Setup Write to [0x3A] + ACK
0x1B + ACK
0xC3 + ACK
Setup Write to [0x3A] + ACK
0x0D + ACK
0xA5 + ACK
Setup Write to [0x3A] + ACK
0x1C + ACK
0x25 + ACK
Setup Write to [0x3A] + ACK
0x0E + ACK
0x95 + ACK
Setup Write to [0x3A] + ACK
0x1A + ACK
0x4F + ACK
Setup Write to [0x3A] + ACK
0x1C + ACK
0x95 + ACK
Setup Write to [0x3A] + ACK
0x1B + ACK
0xC3 + ACK
Setup Write to [0x3A] + ACK
0x01 + ACK
0x0C + ACK
Setup Write to [0x3A] + ACK

#PLL digital low drop out regulator supply current switch
0x17 + ACK
0x08 + ACK
Setup Write to [0x3A] + ACK
0x07 + ACK
0xF5 + ACK
Setup Write to [0x3A] + ACK
0x1E + ACK
0x27 + ACK
Setup Write to [0x3A] + ACK
0x06 + ACK
0x13 + ACK
Setup Write to [0x3A] + ACK
0x1B + ACK
0xC3 + ACK
Setup Write to [0x3A] + ACK
0x1F + ACK
0x27 + ACK
Setup Write to [0x3A] + ACK
0x03 + ACK
0x40 + ACK
Setup Write to [0x3A] + ACK
0x02 + ACK
0x40 + ACK




-------------------------------------------------------------------------------------------------





Setup Write to [0x3A] + ACK
0x00 + ACK
0x02 + ACK
0x44 + ACK
0x40 + ACK
0x40 + ACK
0x05 + ACK
0x69 + ACK
0x17 + Missing ACK/NAK
Setup Read to [0x3A] + ACK
0x40 + ACK
0x40 + ACK
0x06 + ACK
0x08 + ACK
0x89 + ACK
0xA4 + ACK
0x95 + ACK
0x9C + ACK
0x73 + ACK
0x02 + ACK
0x72 + ACK
0x20 + ACK
0x0B + Missing ACK/NAK
Setup Write to [0x55] + ACK
0xAA + ACK
0x28 + ACK
0x30 + ACK
0x40 + ACK
0x87 + ACK
0xC2 + ACK
0x25 + ACK
0x30 + ACK
0x26 + ACK
0x47 + ACK
Setup Write to [0x3A] + ACK
0x0B + Missing ACK/NAK
Setup Write to [0x0C] + ACK
Setup Write to [0x3A] + ACK
0x0A + ACK
0x0C + ACK
Setup Write to [0x3A] + ACK
0x0B + ACK
0x18 + ACK
Setup Write to [0x3A] + ACK
0x0B + ACK
0x18 + ACK
Setup Write to [0x3A] + ACK
0x03 + ACK
0x40 + ACK
Setup Write to [0x3A] + ACK
0x0A + ACK
0x0C + ACK
Setup Write to [0x3A] + ACK
0x04 + ACK
0x05 + ACK
Setup Write to [0x3A] + ACK
0x1E + ACK
0x26 + ACK
Setup Write to [0x3A] + ACK
0x1E + ACK
0x26 + ACK
Setup Write to [0x3A] + ACK
0x1E + ACK
0x27 + ACK
Setup Write to [0x3A] + ACK
0x12 + ACK
0x72 + ACK
Setup Write to [0x3A] + ACK
0x1E + ACK
0x27 + ACK
Setup Write to [0x3A] + ACK
0x1F + ACK
0x66 + ACK
Setup Write to [0x3A] + ACK
0x1B + ACK
0xC2 + ACK
Setup Write to [0x3A] + ACK
0x04 + ACK
0x05 + Missing ACK/NAK
Setup Write to [0x3A] + ACK
0x0C + ACK
0x85 + ACK
Setup Write to [0x3A] + ACK
0x1A + ACK
0x8F + ACK
Setup Write to [0x3A] + ACK
0x05 + ACK
0x49 + ACK
Setup Write to [0x3A] + ACK
0x19 + ACK
0x40 + ACK
Setup Write to [0x3A] + ACK
0x01 + ACK
0x0C + ACK
Setup Write to [0x3A] + ACK
0x02 + ACK
0x40 + ACK
Setup Write to [0x3A] + ACK
0x08 + ACK
0x62 + ACK
Setup Write to [0x3A] + ACK
0x09 + ACK
0x40 + ACK
Setup Write to [0x3A] + ACK
0x03 + ACK
0x40 + ACK
Setup Write to [0x3A] + ACK
0x01 + ACK
0x0D + ACK
Setup Write to [0x3A] + ACK
0x1E + ACK
0xA7 + ACK
Setup Write to [0x3A] + ACK
0x11 + ACK
0x02 + ACK
Setup Write to [0x3A] + ACK
0x12 + ACK
0x72 + ACK
Setup Write to [0x3A] + ACK
0x0F + ACK
0xA4 + ACK
Setup Write to [0x3A] + ACK
0x10 + ACK
0x63 + ACK
Setup Write to [0x3A] + ACK
0x17 + ACK
0x28 + ACK
Setup Write to [0x3A] + ACK
0x1D + ACK
0x30 + ACK
Setup Write to [0x3A] + ACK
0x13 + ACK
0x38 + ACK
Setup Write to [0x3A] + ACK
0x10 + ACK
0x67 + ACK
Setup Write to [0x3A] + ACK
0x10 + ACK
0x67 + ACK
Setup Write to [0x3A] + ACK
0x14 + ACK
0x6A + ACK
Setup Write to [0x3A] + ACK
0x12 + ACK
0x72 + ACK
Setup Write to [0x3A] + ACK
0x16 + Missing ACK/NAK
Setup Read to [0x3F] + ACK
Setup Write to [0x3A] + ACK
0x15 + ACK
0xFE + ACK
Setup Write to [0x3A] + ACK
0x00 + ACK
Setup Read to [0x3A] + ACK
0x69 + ACK
Setup Read to [0x41] + NAK
Setup Write to [0x3A] + ACK
0x00 + ACK
Setup Read to [0x3A] + ACK
0x69 + ACK
0xBD + ACK
0x0E + NAK
Setup Write to [0x3A] + ACK
0x00 + ACK
0x75 + Missing ACK/NAK
Setup Read to [0x4A] + NAK
0xD0 + ACK
Setup Write to [0x3A] + ACK
0x00 + ACK
Setup Read to [0x3A] + ACK
0x69 + ACK
Setup Write to [0x7A] + ACK
Setup Write to [0x3A] + ACK
0x1D + Missing ACK/NAK
Setup Write to [0x78] + ACK
Setup Write to [0x3A] + ACK
0x01 + ACK
0x0C + ACK
Setup Write to [0x3A] + ACK
0x1E + ACK
0x27 + ACK
Setup Write to [0x3A] + ACK
0x00 + ACK
0x14 + ACK
Setup Write to [0x3A] + ACK
0x00 + ACK
0x94 + ACK
Setup Write to [0x3A] + ACK
0x04 + ACK
0x05 + ACK
Setup Write to [0x3A] + ACK
0x1B + ACK
0xC3 + Missing ACK/NAK
Setup Write to [0x3A] + ACK
0x0D + ACK
0xA5 + ACK
Setup Write to [0x3A] + ACK
0x1C + ACK
0x25 + ACK
Setup Write to [0x3A] + ACK
0x0E + ACK
0x95 + ACK
Setup Write to [0x3A] + ACK
0x1A + ACK
0x4F + ACK
Setup Write to [0x3A] + ACK
0x1C + ACK
0x95 + ACK
Setup Write to [0x3A] + ACK
0x1B + ACK
0xC3 + ACK
Setup Write to [0x3A] + ACK
0x01 + ACK
0x0C + ACK
Setup Write to [0x3A] + ACK
0x17 + ACK
0x08 + ACK
Setup Write to [0x3A] + ACK
0x07 + ACK
0xF5 + ACK
Setup Write to [0x3A] + ACK
0x1E + ACK
0x27 + ACK
Setup Write to [0x3A] + ACK
0x06 + ACK
0x13 + ACK
Setup Write to [0x3A] + ACK
0x1B + ACK
0xC3 + ACK
Setup Write to [0x3A] + ACK
0x1F + ACK
0x27 + ACK
Setup Write to [0x3A] + ACK
0x1B + ACK
0xE3 + ACK
Setup Write to [0x3A] + ACK
0x03 + ACK
0xC0 + ACK
Setup Write to [0x3A] + ACK
0x02 + ACK
0x40 + ACK
Setup Write to [0x3A] + ACK
0x00 + ACK
0x02 + ACK
0x44 + ACK
0x40 + ACK
0x40 + ACK
0x05 + ACK
0x69 + ACK
0x17 + ACK
0x75 + ACK
0x40 + ACK
0x40 + ACK
0x06 + ACK
0x08 + ACK
0x89 + ACK
0xA4 + ACK
0x95 + ACK
0x9C + ACK
0x73 + ACK
0x02 + ACK
0x72 + ACK
0x20 + ACK
0x0B + ACK
0xAA + ACK
0xAA + ACK
0x28 + ACK
0x30 + ACK
0x40 + ACK
0x87 + ACK
0xC2 + ACK
0x25 + Missing ACK/NAK
Setup Write to [0x18] + ACK
0x26 + ACK
0x47 + ACK
Setup Write to [0x3A] + ACK
0x0B + ACK
0x18 + ACK
Setup Write to [0x3A] + ACK
0x0A + ACK
0x0C + ACK
Setup Write to [0x3A] + ACK
0x0B + ACK
0x18 + ACK
Setup Write to [0x3A] + ACK
0x0B + ACK
0x18 + ACK
Setup Write to [0x3A] + ACK
0x03 + ACK
0x40 + ACK
Setup Write to [0x3A] + ACK
0x0A + ACK
0x0C + ACK
Setup Write to [0x3A] + ACK
0x04 + ACK
0x05 + ACK
Setup Write to [0x3A] + ACK
0x1E + ACK
0x26 + ACK
Setup Write to [0x3A] + ACK
0x1E + ACK
0x26 + ACK
Setup Write to [0x3A] + ACK
0x1E + ACK
0x27 + ACK
Setup Write to [0x3A] + ACK
0x12 + ACK
0x72 + ACK
Setup Write to [0x3A] + ACK
0x1E + ACK
0x27 + ACK
Setup Write to [0x3A] + ACK
0x1F + ACK
0x66 + ACK
Setup Write to [0x3A] + ACK
0x1B + ACK
0xC2 + ACK
Setup Write to [0x3A] + ACK
0x04 + ACK
0x05 + ACK
Setup Write to [0x3A] + ACK
0x0C + ACK
0x85 + ACK
Setup Write to [0x3A] + ACK
0x1A + ACK
0x8F + ACK
Setup Write to [0x3A] + ACK
0x05 + Missing ACK/NAK
Setup Read to [0x24] + ACK
Setup Write to [0x3A] + ACK
0x19 + ACK
0x40 + ACK
0x74 + Missing ACK/NAK
Setup Read to [0x00] + ACK
0x0C + ACK
Setup Write to [0x3A] + ACK
0x02 + ACK
0x40 + ACK
Setup Write to [0x3A] + ACK
0x08 + ACK
0x62 + ACK
Setup Write to [0x3A] + ACK
0x09 + ACK
0x40 + ACK
Setup Write to [0x3A] + ACK
0x03 + ACK
0x40 + ACK
Setup Write to [0x3A] + ACK
0x01 + Missing ACK/NAK
Setup Read to [0x06] + ACK
Setup Write to [0x3A] + ACK
0x1E + ACK
0xA7 + ACK
0x74 + Missing ACK/NAK
Setup Read to [0x08] + ACK
0x02 + ACK
Setup Write to [0x3A] + ACK
0x12 + ACK
0x72 + ACK
Setup Write to [0x3A] + ACK
0x0F + ACK
0xA4 + ACK
Setup Write to [0x3A] + ACK
0x10 + ACK
0x63 + Missing ACK/NAK
Setup Write to [0x3A] + ACK
0x17 + ACK
0x28 + ACK
Setup Write to [0x3A] + ACK
0x1D + ACK
0x30 + ACK
Setup Write to [0x3A] + ACK
0x13 + ACK
0x38 + ACK
Setup Write to [0x3A] + ACK
0x10 + ACK
0x67 + ACK
Setup Write to [0x3A] + ACK
0x10 + ACK
0x67 + ACK
Setup Write to [0x3A] + ACK
0x14 + ACK
0x6A + ACK
Setup Write to [0x3A] + ACK
0x12 + ACK
0x72 + ACK
Setup Write to [0x3A] + ACK
0x16 + ACK
0x7F + ACK
Setup Write to [0x3A] + ACK
0x15 + ACK
0xFE + ACK
Setup Write to [0x3A] + ACK
0x00 + ACK
Setup Read to [0x3A] + ACK
0x69 + ACK
0xBD + ACK
0x0E + NAK
Setup Write to [0x3A] + ACK
0x00 + ACK
Setup Read to [0x3A] + ACK
0x69 + ACK
0xBD + ACK
0x0E + NAK
Setup Write to [0x3A] + ACK
0x00 + ACK
Setup Read to [0x3A] + ACK
0x69 + ACK
0xBD + ACK
0x0E + NAK
Setup Write to [0x3A] + ACK
0x00 + ACK
Setup Read to [0x3A] + ACK
0x69 + ACK
0xBD + ACK
0x0E + NAK
Setup Write to [0x3A] + ACK
0x1D + ACK
0xF0 + ACK
Setup Write to [0x3A] + ACK
0x01 + ACK
0x0C + ACK
Setup Write to [0x3A] + ACK
0x1E + ACK
0x27 + Missing ACK/NAK
Setup Write to [0x3A] + ACK
0x00 + ACK
0x14 + ACK
Setup Write to [0x3A] + ACK
0x00 + ACK
0x94 + ACK
Setup Write to [0x3A] + ACK
0x04 + ACK
0x05 + ACK
Setup Write to [0x3A] + ACK
0x1B + ACK
0xC3 + ACK
Setup Write to [0x3A] + ACK
0x0D + ACK
0xA5 + ACK
Setup Write to [0x3A] + ACK
0x1C + ACK
0x25 + ACK
Setup Write to [0x3A] + ACK
0x0E + ACK
0x95 + ACK
Setup Write to [0x3A] + ACK
0x1A + ACK
0x4F + ACK
Setup Write to [0x3A] + ACK
0x1C + ACK
0x95 + ACK
Setup Write to [0x3A] + ACK
0x1B + ACK
0xC3 + ACK
Setup Write to [0x3A] + ACK
0x01 + ACK
0x0C + ACK
Setup Write to [0x3A] + ACK
0x17 + ACK
0x08 + ACK
Setup Write to [0x3A] + ACK
0x07 + ACK
0xF5 + ACK
Setup Write to [0x3A] + ACK
0x1E + ACK
0x27 + ACK
Setup Write to [0x3A] + ACK
0x06 + ACK
0x13 + ACK
Setup Write to [0x3A] + ACK
0x1B + ACK
0xC3 + ACK
Setup Write to [0x3A] + ACK
0x1F + Missing ACK/NAK
Setup Read to [0x13] + ACK
Setup Write to [0x3A] + ACK
0x03 + ACK
0x40 + ACK
Setup Write to [0x3A] + ACK
0x02 + ACK
0x40 + ACK
Setup Write to [0x3A] + ACK
0x00 + ACK
0x02 + ACK
0x44 + ACK
0x40 + ACK
0x40 + ACK
0x05 + ACK
0x69 + ACK
0x17 + ACK
0x75 + ACK
0x40 + ACK
0x40 + ACK
0x06 + ACK
0x08 + ACK
0x89 + ACK
0xA4 + ACK
0x95 + ACK
0x9C + ACK
0x73 + ACK
0x02 + ACK
0x72 + Missing ACK/NAK
Setup Write to [0x10] + ACK
0x0B + ACK
0xAA + ACK
0xAA + ACK
0x28 + ACK
0x30 + ACK
0x40 + Missing ACK/NAK
Setup Read to [0x43] + ACK
0xC2 + ACK
0x25 + ACK
0x30 + ACK
0x26 + ACK
0x47 + ACK
Setup Write to [0x3A] + ACK
0x0B + ACK
0x18 + ACK
Setup Write to [0x3A] + ACK
0x0A + ACK
0x0C + ACK
Setup Write to [0x3A] + ACK
0x0B + ACK
0x18 + ACK
Setup Write to [0x3A] + ACK
0x0B + Missing ACK/NAK
Setup Write to [0x0C] + ACK
Setup Write to [0x3A] + ACK
0x03 + ACK
0x40 + ACK
Setup Write to [0x3A] + ACK
0x0A + ACK
0x0C + ACK
Setup Write to [0x3A] + ACK
0x04 + ACK
0x05 + ACK
Setup Write to [0x3A] + ACK
0x1E + ACK
0x26 + ACK
Setup Write to [0x3A] + ACK
0x1E + ACK
0x26 + ACK
Setup Write to [0x3A] + ACK
0x1E + ACK
0x27 + ACK
Setup Write to [0x3A] + ACK
0x12 + ACK
0x72 + ACK
Setup Write to [0x3A] + ACK
0x1E + ACK
0x27 + ACK
Setup Write to [0x3A] + ACK
0x1F + ACK
0x66 + ACK
Setup Write to [0x3A] + ACK
0x1B + ACK
0xC2 + ACK
Setup Write to [0x3A] + ACK
0x04 + ACK
0x05 + ACK
Setup Write to [0x3A] + ACK
0x0C + ACK
0x85 + ACK
Setup Write to [0x3A] + ACK
0x1A + ACK
0x8F + ACK
Setup Write to [0x3A] + ACK
0x05 + ACK
0x49 + ACK
Setup Write to [0x3A] + ACK
0x19 + ACK
0x40 + ACK
Setup Write to [0x3A] + ACK
0x01 + ACK
0x0C + ACK
Setup Write to [0x3A] + ACK
0x02 + ACK
0x40 + ACK
Setup Write to [0x3A] + ACK
0x08 + ACK
0x62 + ACK
Setup Write to [0x3A] + ACK
0x09 + ACK
0x40 + ACK
Setup Write to [0x3A] + ACK
0x03 + ACK
0x40 + ACK
Setup Write to [0x3A] + ACK
0x01 + ACK
0x0D + Missing ACK/NAK
Setup Write to [0x3A] + ACK
0x1E + ACK
0xA7 + ACK
Setup Write to [0x3A] + ACK
0x11 + Missing ACK/NAK
Setup Write to [0x01] + ACK
Setup Write to [0x3A] + ACK
0x12 + ACK
0x72 + ACK
Setup Write to [0x3A] + ACK
0x0F + ACK
0xA4 + ACK
Setup Write to [0x3A] + ACK
0x10 + ACK
0x63 + ACK
Setup Write to [0x3A] + ACK
0x17 + ACK
0x28 + ACK
Setup Write to [0x3A] + ACK
0x1D + ACK
0x30 + ACK
Setup Write to [0x3A] + ACK
0x13 + ACK
0x38 + ACK
Setup Write to [0x3A] + ACK
0x10 + ACK
0x67 + ACK
Setup Write to [0x3A] + ACK
0x10 + ACK
0x67 + ACK
Setup Write to [0x3A] + ACK
0x14 + ACK
0x6A + ACK
Setup Write to [0x3A] + ACK
0x12 + ACK
0x72 + ACK
Setup Write to [0x3A] + ACK
0x16 + ACK
0x7F + ACK
Setup Write to [0x3A] + ACK
0x15 + ACK
0xFE + ACK
Setup Write to [0x3A] + ACK
0x00 + ACK
0x75 + Missing ACK/NAK
Setup Read to [0x57] + ACK
0x83 + NAK
Setup Write to [0x3A] + ACK
0x00 + ACK
Setup Read to [0x3A] + ACK
0x69 + ACK
0xBD + ACK
0x0E + NAK
Setup Write to [0x3A] + ACK
0x00 + ACK
Setup Read to [0x3A] + ACK
0x69 + ACK
0xBD + ACK
0x0E + NAK
Setup Write to [0x3A] + ACK
0x00 + ACK
Setup Read to [0x3A] + ACK
0x69 + ACK
0xBD + ACK
0x0E + NAK
Setup Write to [0x3A] + ACK
0x1D + ACK
0xF0 + ACK
Setup Write to [0x3A] + ACK
0x01 + ACK
0x0C + ACK
Setup Write to [0x3A] + ACK
0x1E + ACK
0x27 + ACK
Setup Write to [0x3A] + ACK
0x00 + ACK
0x14 + ACK
Setup Write to [0x3A] + ACK
0x00 + ACK
0x94 + ACK
Setup Write to [0x3A] + ACK
0x04 + ACK
0x05 + ACK
Setup Write to [0x3A] + ACK
0x1B + Missing ACK/NAK
Setup Read to [0x61] + ACK
Setup Write to [0x3A] + ACK
0x0D + ACK
0xA5 + ACK
Setup Write to [0x3A] + ACK
0x1C + ACK
0x25 + ACK
Setup Write to [0x3A] + ACK
0x0E + ACK
0x95 + ACK
Setup Write to [0x3A] + ACK
0x1A + ACK
0x4F + ACK
Setup Write to [0x3A] + ACK
0x1C + ACK
0x95 + Missing ACK/NAK
Setup Write to [0x3A] + ACK
0x1B + ACK
0xC3 + ACK
Setup Write to [0x3A] + ACK
0x01 + ACK
0x0C + ACK
Setup Write to [0x3A] + ACK
0x17 + ACK
0x08 + ACK
Setup Write to [0x3A] + ACK
0x07 + Missing ACK/NAK
Setup Read to [0x7A] + ACK
Setup Write to [0x3A] + ACK
0x1E + ACK
0x27 + ACK
Setup Write to [0x3A] + ACK
0x06 + ACK
0x13 + ACK
Setup Write to [0x3A] + ACK
0x1B + ACK
0xC3 + ACK
Setup Write to [0x3A] + ACK
0x1F + ACK
0x27 + ACK
Setup Write to [0x3A] + ACK
0x1B + ACK
0xE3 + ACK
Setup Write to [0x3A] + ACK
0x03 + ACK
0xC0 + ACK
Setup Write to [0x3A] + ACK
0x02 + ACK
0x40 + ACK
Setup Write to [0x3A] + ACK
0x00 + ACK
0x02 + ACK
0x44 + ACK
0x40 + ACK
0x40 + ACK
0x05 + ACK
0x69 + ACK
0x17 + ACK
0x75 + ACK
0x40 + ACK
0x40 + ACK
0x06 + ACK
0x08 + ACK
0x89 + ACK
0xA4 + ACK
0x95 + ACK
0x9C + ACK
0x73 + Missing ACK/NAK
Setup Write to [0x01] + ACK
0x72 + ACK
0x20 + ACK
0x0B + ACK
0xAA + ACK
0xAA + ACK
0x28 + ACK
0x30 + ACK
0x40 + ACK
0x87 + ACK
0xC2 + ACK
0x25 + ACK
0x30 + ACK
0x26 + ACK
0x47 + ACK
Setup Write to [0x3A] + ACK
0x0B + ACK
0x18 + ACK
Setup Write to [0x3A] + ACK
0x0A + ACK
0x0C + ACK
Setup Write to [0x3A] + ACK
0x0B + ACK
0x18 + ACK
Setup Write to [0x3A] + ACK
0x0B + ACK
0x18 + ACK
Setup Write to [0x3A] + ACK
0x03 + ACK
0x40 + ACK
Setup Write to [0x3A] + ACK
0x0A + ACK
0x0C + ACK
Setup Write to [0x3A] + ACK
0x04 + ACK
0x05 + ACK
Setup Write to [0x3A] + ACK
0x1E + ACK
0x26 + ACK
Setup Write to [0x3A] + ACK
0x1E + ACK
0x26 + ACK
Setup Write to [0x3A] + ACK
0x1E + ACK
0x27 + ACK
Setup Write to [0x3A] + ACK
0x12 + ACK
0x72 + ACK
Setup Write to [0x3A] + ACK
0x1E + ACK
0x27 + ACK
Setup Write to [0x3A] + ACK
0x1F + ACK
0x66 + ACK
Setup Write to [0x3A] + ACK
0x1B + ACK
0xC2 + ACK
Setup Write to [0x3A] + ACK
0x04 + ACK
0x05 + ACK
Setup Write to [0x3A] + ACK
0x0C + ACK
0x85 + ACK
Setup Write to [0x3A] + ACK
0x1A + ACK
0x8F + ACK
Setup Write to [0x3A] + ACK
0x05 + ACK
0x49 + ACK
Setup Write to [0x3A] + ACK
0x19 + ACK
0x40 + ACK
0x74 + Missing ACK/NAK
Setup Read to [0x00] + ACK
0x0C + ACK
Setup Write to [0x3A] + ACK
0x02 + ACK
0x40 + ACK
Setup Write to [0x3A] + ACK
0x08 + ACK
0x62 + ACK
Setup Write to [0x3A] + ACK
0x09 + ACK
0x40 + Missing ACK/NAK
Setup Write to [0x3A] + ACK
0x03 + ACK
0x40 + ACK
Setup Write to [0x3A] + ACK
0x01 + ACK
0x0D + ACK
Setup Write to [0x3A] + ACK
0x1E + ACK
0xA7 + ACK
Setup Write to [0x3A] + ACK
0x11 + ACK
0x02 + ACK
Setup Write to [0x3A] + ACK
0x12 + ACK
0x72 + ACK
Setup Write to [0x3A] + ACK
0x0F + ACK
0xA4 + ACK
Setup Write to [0x3A] + ACK
0x10 + ACK
0x63 + ACK
Setup Write to [0x3A] + ACK
0x17 + ACK
0x28 + ACK
Setup Write to [0x3A] + ACK
0x1D + Missing ACK/NAK
Setup Write to [0x18] + ACK
Setup Write to [0x3A] + ACK
0x13 + ACK
0x38 + ACK
Setup Write to [0x3A] + ACK
0x10 + ACK
0x67 + ACK
Setup Write to [0x3A] + ACK
0x10 + ACK
0x67 + ACK
Setup Write to [0x3A] + ACK
0x14 + ACK
0x6A + ACK
Setup Write to [0x3A] + ACK
0x12 + ACK
0x72 + ACK
Setup Write to [0x3A] + ACK
0x16 + ACK
0x7F + ACK
Setup Write to [0x3A] + ACK
0x15 + ACK
0xFE + ACK
Setup Write to [0x3A] + ACK
0x00 + ACK
Setup Read to [0x3A] + ACK
0x69 + ACK
0xBD + ACK
0x0E + NAK
Setup Write to [0x3A] + ACK
0x00 + ACK
Setup Read to [0x3A] + ACK
0x69 + ACK
Setup Read to [0x41] + NAK
Setup Write to [0x3A] + ACK
0x00 + ACK
Setup Read to [0x3A] + ACK
0x69 + ACK
0xBD + ACK
0x0E + NAK
Setup Write to [0x3A] + ACK
0x00 + ACK
Setup Read to [0x3A] + ACK
0x69 + ACK
0xBD + ACK
0x0E + NAK
Setup Write to [0x3A] + ACK
0x1D + ACK
0xF0 + ACK
Setup Write to [0x3A] + ACK
0x01 + ACK
0x0C + ACK
Setup Write to [0x3A] + ACK
0x1E + ACK
0x27 + ACK
Setup Write to [0x3A] + ACK
0x00 + ACK
0x14 + ACK
Setup Write to [0x3A] + ACK
0x00 + ACK
0x94 + ACK
Setup Write to [0x3A] + ACK
0x04 + ACK
0x05 + ACK
Setup Write to [0x3A] + ACK
0x1B + ACK
0xC3 + ACK
Setup Write to [0x3A] + ACK
0x0D + ACK
0xA5 + ACK
Setup Write to [0x3A] + ACK
0x1C + ACK
0x25 + ACK
Setup Write to [0x3A] + ACK
0x0E + ACK
0x95 + Missing ACK/NAK
Setup Write to [0x3A] + ACK
0x1A + ACK
0x4F + ACK
Setup Write to [0x3A] + ACK
0x1C + ACK
0x95 + ACK
Setup Write to [0x3A] + ACK
0x1B + ACK
0xC3 + ACK
Setup Write to [0x3A] + ACK
0x01 + ACK
0x0C + ACK
Setup Write to [0x3A] + ACK
0x17 + ACK
0x08 + ACK
Setup Write to [0x3A] + ACK
0x07 + ACK
0xF5 + ACK
Setup Write to [0x3A] + ACK
0x1E + ACK
0x27 + ACK
Setup Write to [0x3A] + ACK
0x06 + ACK
0x13 + ACK
Setup Write to [0x3A] + ACK
0x1B + Missing ACK/NAK
Setup Read to [0x61] + ACK
Setup Write to [0x3A] + ACK
0x1F + ACK
0x27 + ACK
Setup Write to [0x3A] + ACK
0x03 + ACK
0x40 + ACK
Setup Write to [0x3A] + ACK
0x02 + ACK
0x40 + ACK
